! P/N: 500R07S0R2AV4								
! Measured by Marlon								
! Oct. 28, 2003								
#	mhz	s	ma	r	50
0	0.99999	0.00000	0.00000	90.00000	0.00000	90.00000	0.99999	0.00000			
50	0.9999	0.02689	0.00865	80.90224	0.00865	80.90224	0.9999	0.02689
70	0.9999	-1.52409	0.01177	91.10877	0.01177	91.10877	0.9999	-1.52409
90	0.9999	-1.20555	0.0134	90.76711	0.0134	90.76711	0.9999	-1.20555
110	0.9999	-1.13915	0.01567	88.5217	0.01567	88.5217	0.9999	-1.13915
130	0.9999	-1.63618	0.01881	88.37459	0.01881	88.37459	0.9999	-1.63618
150	0.9999	-1.19762	0.02119	89.68543	0.02119	89.68543	0.9999	-1.19762
170	0.9999	-1.81018	0.02465	88.00915	0.02465	88.00915	0.9999	-1.81018
190	0.9999	-2.03857	0.02774	87.42906	0.02774	87.42906	0.9999	-2.03857
210	0.9999	-1.96449	0.03061	87.64928	0.03061	87.64928	0.9999	-1.96449
230	0.9999	-2.02172	0.03356	87.91234	0.03356	87.91234	0.9999	-2.02172
250	0.9999	-2.99607	0.03705	86.99915	0.03705	86.99915	0.9999	-2.99607
270	0.9999	-2.7208	0.03915	86.8155	0.03915	86.8155	0.9999	-2.7208
290	0.9999	-2.56037	0.04212	86.70723	0.04212	86.70723	0.9999	-2.56037
310	0.9999	-2.83474	0.04529	86.37523	0.04529	86.37523	0.9999	-2.83474
330	0.9999	-3.21114	0.04817	86.06723	0.04817	86.06723	0.9999	-3.21114
350	0.9999	-2.70414	0.05049	86.57786	0.05049	86.57786	0.9999	-2.70414
370	0.9999	-2.9997	0.05384	86.16327	0.05384	86.16327	0.9999	-2.9997
390	0.9999	-3.24094	0.05661	85.91858	0.05661	85.91858	0.9999	-3.24094
410	0.9999	-3.32026	0.05935	85.79954	0.05935	85.79954	0.9999	-3.32026
430	0.99917	-3.46128	0.06234	85.64671	0.06234	85.64671	0.99917	-3.46128
450	0.9999	-4.21884	0.06558	85.18544	0.06558	85.18544	0.9999	-4.21884
470	0.99472	-4.59971	0.0680	84.93554	0.0680	84.93554	0.99472	-4.59971
490	0.98807	-2.52158	0.06711	85.50365	0.06711	85.50365	0.98807	-2.52158
510	0.9821	-1.8724	0.06762	85.541	0.06762	85.541	0.9821	-1.8724
530	0.97797	-3.3466	0.07061	84.88999	0.07061	84.88999	0.97797	-3.3466
550	0.97651	-4.44512	0.07356	84.58418	0.07356	84.58418	0.97651	-4.44512
570	0.99887	-4.9664	0.07619	84.16679	0.07619	84.16679	0.99887	-4.9664
590	0.9999	-4.82576	0.07917	83.71753	0.07917	83.71753	0.9999	-4.82576
610	0.9999	-4.5146	0.08232	83.37437	0.08232	83.37437	0.9999	-4.5146
630	0.9999	-4.08799	0.08547	83.10541	0.08547	83.10541	0.9999	-4.08799
650	0.9999	-3.16466	0.08843	82.70882	0.08843	82.70882	0.9999	-3.16466
670	0.9999	-2.82275	0.09136	83.2765	0.09136	83.2765	0.9999	-2.82275
690	0.9999	-2.97793	0.09391	83.29258	0.09391	83.29258	0.9999	-2.97793
710	0.99588	-3.38655	0.09626	83.23231	0.09626	83.23231	0.99588	-3.38655
730	0.98314	-3.89272	0.09852	83.17897	0.09852	83.17897	0.98314	-3.89272
750	0.99051	-4.42822	0.10083	82.8239	0.10083	82.8239	0.99051	-4.42822
770	0.9999	-5.03967	0.10278	82.57074	0.10278	82.57074	0.9999	-5.03967
790	0.9999	-5.17685	0.10523	82.25862	0.10523	82.25862	0.9999	-5.17685
810	0.9999	-5.0343	0.10841	81.82016	0.10841	81.82016	0.9999	-5.0343
830	0.9999	-4.6754	0.11171	81.30234	0.11171	81.30234	0.9999	-4.6754
850	0.9999	-4.03235	0.11367	80.86643	0.11367	80.86643	0.9999	-4.03235
870	0.9999	-4.00185	0.1171	81.25412	0.1171	81.25412	0.9999	-4.00185
890	0.99667	-4.3751	0.12046	81.17761	0.12046	81.17761	0.99667	-4.3751
910	0.98867	-4.85865	0.12303	81.07021	0.12303	81.07021	0.98867	-4.85865
930	0.98433	-5.28082	0.12489	81.11262	0.12489	81.11262	0.98433	-5.28082
950	0.98847	-5.59161	0.12694	81.23289	0.12694	81.23289	0.98847	-5.59161
970	0.99337	-6.38431	0.12904	80.72553	0.12904	80.72553	0.99337	-6.38431
990	0.99565	-6.57757	0.13126	80.24031	0.13126	80.24031	0.99565	-6.57757
1010	0.99873	-6.4674	0.13372	79.724	0.13372	79.724	0.99873	-6.4674
1030	0.9999	-6.32791	0.13638	79.16636	0.13638	79.16636	0.9999	-6.32791
1050	0.99862	-6.41135	0.13911	78.60009	0.13911	78.60009	0.99862	-6.41135
1070	0.99381	-6.58724	0.14212	78.41142	0.14212	78.41142	0.99381	-6.58724
1090	0.98869	-6.91483	0.1459	78.25789	0.1459	78.25789	0.98869	-6.91483
1110	0.98572	-7.28406	0.14954	78.1892	0.14954	78.1892	0.98572	-7.28406
1130	0.98566	-7.67927	0.15251	78.20202	0.15251	78.20202	0.98566	-7.67927
1150	0.98758	-8.17918	0.15467	78.24001	0.15467	78.24001	0.98758	-8.17918
1170	0.99107	-8.28989	0.15645	78.0628	0.15645	78.0628	0.99107	-8.28989
1190	0.99698	-8.23297	0.15955	77.88287	0.15955	77.88287	0.99698	-8.23297
1210	0.99965	-8.2715	0.16213	77.55898	0.16213	77.55898	0.99965	-8.2715
1230	0.99734	-8.32991	0.16381	77.26659	0.16381	77.26659	0.99734	-8.32991
1250	0.99231	-7.99404	0.16568	77.49781	0.16568	77.49781	0.99231	-7.99404
1270	0.99609	-8.20725	0.17002	77.25705	0.17002	77.25705	0.99609	-8.20725
1290	0.9880	-8.83232	0.17312	76.71991	0.17312	76.71991	0.9880	-8.83232
1310	0.98256	-9.0682	0.17568	76.50903	0.17568	76.50903	0.98256	-9.0682
1330	0.98616	-9.07127	0.17831	76.60399	0.17831	76.60399	0.98616	-9.07127
1350	0.99701	-9.95535	0.18142	76.34129	0.18142	76.34129	0.99701	-9.95535
1370	0.99385	-10.05882	0.18283	76.21475	0.18283	76.21475	0.99385	-10.05882
1390	0.99681	-10.04438	0.18503	76.13312	0.18503	76.13312	0.99681	-10.04438
1410	0.99909	-10.04388	0.1873	75.86754	0.1873	75.86754	0.99909	-10.04388
1430	0.99737	-10.0319	0.18958	75.51806	0.18958	75.51806	0.99737	-10.0319
1450	0.99178	-9.82578	0.19245	75.51367	0.19245	75.51367	0.99178	-9.82578
1470	0.99198	-9.84379	0.19598	75.19124	0.19598	75.19124	0.99198	-9.84379
1490	0.98522	-10.26537	0.19778	74.77918	0.19778	74.77918	0.98522	-10.26537
1510	0.98034	-10.61022	0.20003	74.67514	0.20003	74.67514	0.98034	-10.61022
1530	0.98136	-10.81456	0.20318	74.83864	0.20318	74.83864	0.98136	-10.81456
1550	0.98745	-11.2311	0.20596	74.79105	0.20596	74.79105	0.98745	-11.2311
1570	0.98636	-11.52869	0.20771	74.15851	0.20771	74.15851	0.98636	-11.52869
1590	0.98262	-11.76616	0.2099	73.98409	0.2099	73.98409	0.98262	-11.76616
1610	0.98151	-11.9131	0.2128	73.73706	0.2128	73.73706	0.98151	-11.9131
1630	0.98308	-11.96809	0.21606	73.36186	0.21606	73.36186	0.98308	-11.96809
1650	0.98207	-11.95872	0.21871	73.27817	0.21871	73.27817	0.98207	-11.95872
1670	0.97589	-12.42803	0.22142	72.94243	0.22142	72.94243	0.97589	-12.42803
1690	0.97497	-12.70027	0.2241	72.691	0.2241	72.691	0.97497	-12.70027
1710	0.97796	-12.98079	0.22692	72.67746	0.22692	72.67746	0.97796	-12.98079
1730	0.98021	-13.35718	0.22979	72.69244	0.22979	72.69244	0.98021	-13.35718
1750	0.97379	-13.79933	0.2323	72.16371	0.2323	72.16371	0.97379	-13.79933
1770	0.97522	-13.49539	0.23564	72.32174	0.23564	72.32174	0.97522	-13.49539
1790	0.97896	-13.78717	0.2375	71.93716	0.2375	71.93716	0.97896	-13.78717
1810	0.97812	-14.06231	0.23918	71.60765	0.23918	71.60765	0.97812	-14.06231
1830	0.97341	-14.1049	0.24191	71.55532	0.24191	71.55532	0.97341	-14.1049
1850	0.97315	-14.09551	0.24684	71.62665	0.24684	71.62665	0.97315	-14.09551
1870	0.97174	-14.77388	0.24985	71.05135	0.24985	71.05135	0.97174	-14.77388
1890	0.96591	-15.14012	0.2509	70.94397	0.2509	70.94397	0.96591	-15.14012
1910	0.96721	-15.40091	0.25302	71.07215	0.25302	71.07215	0.96721	-15.40091
1930	0.97476	-15.70604	0.2567	71.12028	0.2567	71.12028	0.97476	-15.70604
1950	0.97525	-16.14833	0.25988	70.68947	0.25988	70.68947	0.97525	-16.14833
1970	0.97478	-16.16676	0.26062	70.5817	0.26062	70.5817	0.97478	-16.16676
1990	0.9777	-16.22685	0.26326	70.58293	0.26326	70.58293	0.9777	-16.22685
2010	0.97975	-16.11274	0.26632	70.5689	0.26632	70.5689	0.97975	-16.11274
2030	0.97847	-16.02992	0.26903	70.37007	0.26903	70.37007	0.97847	-16.02992
2050	0.97327	-16.60529	0.27136	69.77164	0.27136	69.77164	0.97327	-16.60529
2070	0.96819	-16.63459	0.27196	69.81303	0.27196	69.81303	0.96819	-16.63459
2090	0.96774	-16.83229	0.27568	70.00267	0.27568	70.00267	0.96774	-16.83229
2110	0.96795	-17.17799	0.27888	69.82226	0.27888	69.82226	0.96795	-17.17799
2130	0.96641	-17.53481	0.28048	69.3784	0.28048	69.3784	0.96641	-17.53481
2150	0.96226	-17.64942	0.28197	69.40259	0.28197	69.40259	0.96226	-17.64942
2170	0.96836	-17.81172	0.28561	68.94798	0.28561	68.94798	0.96836	-17.81172
2190	0.96998	-17.94606	0.28775	68.69222	0.28775	68.69222	0.96998	-17.94606
2210	0.96801	-17.96092	0.29005	68.71076	0.29005	68.71076	0.96801	-17.96092
2230	0.96511	-17.96991	0.29303	68.7108	0.29303	68.7108	0.96511	-17.96991
2250	0.96573	-18.29181	0.2960	68.03131	0.2960	68.03131	0.96573	-18.29181
2270	0.9586	-18.31432	0.29647	68.14455	0.29647	68.14455	0.9586	-18.31432
2290	0.95544	-18.6757	0.29918	68.2142	0.29918	68.2142	0.95544	-18.6757
2310	0.95699	-19.10342	0.30372	67.86513	0.30372	67.86513	0.95699	-19.10342
2330	0.9582	-19.49945	0.30765	67.21767	0.30765	67.21767	0.9582	-19.49945
2350	0.94817	-19.94025	0.30651	66.88755	0.30651	66.88755	0.94817	-19.94025
2370	0.95483	-19.55646	0.30966	67.28248	0.30966	67.28248	0.95483	-19.55646
2390	0.95696	-19.7883	0.31434	67.0116	0.31434	67.0116	0.95696	-19.7883
2410	0.95405	-20.12734	0.31747	66.60654	0.31747	66.60654	0.95405	-20.12734
2430	0.94922	-20.30246	0.3188	66.39304	0.3188	66.39304	0.94922	-20.30246
2450	0.94932	-20.27989	0.3209	66.4909	0.3209	66.4909	0.94932	-20.27989
2470	0.95252	-20.61124	0.3231	66.34629	0.3231	66.34629	0.95252	-20.61124
2490	0.94906	-20.9436	0.32697	66.23183	0.32697	66.23183	0.94906	-20.9436
2510	0.94595	-21.31799	0.33003	66.0545	0.33003	66.0545	0.94595	-21.31799
2530	0.9467	-21.63689	0.3317	65.8714	0.3317	65.8714	0.9467	-21.63689
2550	0.95132	-21.6642	0.33331	65.8897	0.33331	65.8897	0.95132	-21.6642
2570	0.95059	-22.03225	0.33677	65.69392	0.33677	65.69392	0.95059	-22.03225
2590	0.95121	-22.0464	0.33998	65.72737	0.33998	65.72737	0.95121	-22.0464
2610	0.9502	-22.02181	0.34257	65.46108	0.34257	65.46108	0.9502	-22.02181
2630	0.94681	-22.0754	0.3442	65.03764	0.3442	65.03764	0.94681	-22.0754
2650	0.94248	-22.12594	0.34459	65.27111	0.34459	65.27111	0.94248	-22.12594
2670	0.94379	-22.17529	0.34969	64.81558	0.34969	64.81558	0.94379	-22.17529
2690	0.94112	-22.50772	0.35235	64.48354	0.35235	64.48354	0.94112	-22.50772
2710	0.93653	-22.86603	0.35404	64.41804	0.35404	64.41804	0.93653	-22.86603
2730	0.93365	-23.0933	0.35561	64.52749	0.35561	64.52749	0.93365	-23.0933
2750	0.93767	-23.13297	0.35722	64.48573	0.35722	64.48573	0.93767	-23.13297
2770	0.93612	-23.70172	0.36135	64.30284	0.36135	64.30284	0.93612	-23.70172
2790	0.9372	-23.58828	0.36355	64.04971	0.36355	64.04971	0.9372	-23.58828
2810	0.93981	-23.49779	0.36695	63.81952	0.36695	63.81952	0.93981	-23.49779
2830	0.94049	-23.64161	0.3707	63.75825	0.3707	63.75825	0.94049	-23.64161
2850	0.9334	-23.73729	0.37003	64.06471	0.37003	64.06471	0.9334	-23.73729
2870	0.93288	-24.36406	0.37595	63.70178	0.37595	63.70178	0.93288	-24.36406
2890	0.93251	-24.75685	0.37782	63.36392	0.37782	63.36392	0.93251	-24.75685
2910	0.93457	-24.8561	0.37864	63.05609	0.37864	63.05609	0.93457	-24.8561
2930	0.93206	-24.58663	0.3800	62.84269	0.3800	62.84269	0.93206	-24.58663
2950	0.90867	-23.85757	0.38204	62.8475	0.38204	62.8475	0.90867	-23.85757
2970	0.9282	-24.90113	0.38655	62.82045	0.38655	62.82045	0.9282	-24.90113
2990	0.92597	-25.49656	0.38748	62.50567	0.38748	62.50567	0.92597	-25.49656
3010	0.92102	-25.51111	0.38937	62.30857	0.38937	62.30857	0.92102	-25.51111
3030	0.92032	-25.25877	0.39333	62.30382	0.39333	62.30382	0.92032	-25.25877
3050	0.91876	-25.50025	0.39699	62.23531	0.39699	62.23531	0.91876	-25.50025
3070	0.91336	-26.28556	0.39991	61.6161	0.39991	61.6161	0.91336	-26.28556
3090	0.90849	-26.42978	0.39951	61.37562	0.39951	61.37562	0.90849	-26.42978
3110	0.90912	-26.39731	0.40094	61.43142	0.40094	61.43142	0.90912	-26.39731
3130	0.91356	-26.55	0.40527	61.4835	0.40527	61.4835	0.91356	-26.55
3150	0.9135	-27.14715	0.40941	61.01426	0.40941	61.01426	0.9135	-27.14715
3170	0.91332	-27.13904	0.41055	60.73594	0.41055	60.73594	0.91332	-27.13904
3190	0.91415	-27.06517	0.41223	60.72576	0.41223	60.72576	0.91415	-27.06517
3210	0.91482	-27.08766	0.41428	60.78609	0.41428	60.78609	0.91482	-27.08766
3230	0.91285	-27.24536	0.41676	60.7245	0.41676	60.7245	0.91285	-27.24536
3250	0.90447	-27.45385	0.41997	60.35375	0.41997	60.35375	0.90447	-27.45385
3270	0.9064	-27.67411	0.42279	60.16423	0.42279	60.16423	0.9064	-27.67411
3290	0.90216	-27.84544	0.42461	60.12333	0.42461	60.12333	0.90216	-27.84544
3310	0.90027	-28.05181	0.4266	60.07659	0.4266	60.07659	0.90027	-28.05181
3330	0.90242	-28.29692	0.4296	59.94043	0.4296	59.94043	0.90242	-28.29692
3350	0.90346	-28.50419	0.43415	59.70211	0.43415	59.70211	0.90346	-28.50419
3370	0.8987	-28.91485	0.43535	59.31369	0.43535	59.31369	0.8987	-28.91485
3390	0.89505	-28.9402	0.4363	59.44044	0.4363	59.44044	0.89505	-28.9402
3410	0.89654	-28.92571	0.43946	59.50594	0.43946	59.50594	0.89654	-28.92571
3430	0.89978	-29.15605	0.44403	59.16896	0.44403	59.16896	0.89978	-29.15605
3450	0.89394	-29.85503	0.44592	58.3234	0.44592	58.3234	0.89394	-29.85503
3470	0.88591	-29.67014	0.4467	58.59789	0.4467	58.59789	0.88591	-29.67014
3490	0.88509	-29.46338	0.44802	58.88835	0.44802	58.88835	0.88509	-29.46338
3510	0.88783	-29.79382	0.45158	58.66042	0.45158	58.66042	0.88783	-29.79382
3530	0.88799	-30.42255	0.45564	58.14885	0.45564	58.14885	0.88799	-30.42255
3550	0.87698	-30.3127	0.45507	58.35751	0.45507	58.35751	0.87698	-30.3127
3570	0.88184	-30.37795	0.45774	58.14321	0.45774	58.14321	0.88184	-30.37795
3590	0.88542	-30.8672	0.46031	57.78591	0.46031	57.78591	0.88542	-30.8672
3610	0.88326	-30.9981	0.46233	57.66552	0.46233	57.66552	0.88326	-30.9981
3630	0.87917	-30.83561	0.46432	57.7243	0.46432	57.7243	0.87917	-30.83561
3650	0.88521	-31.29201	0.46782	57.46689	0.46782	57.46689	0.88521	-31.29201
3670	0.87528	-31.67974	0.46865	57.08829	0.46865	57.08829	0.87528	-31.67974
3690	0.87192	-31.76139	0.47018	57.35437	0.47018	57.35437	0.87192	-31.76139
3710	0.87254	-31.87771	0.47436	57.39049	0.47436	57.39049	0.87254	-31.87771
3730	0.87307	-32.21087	0.4785	57.01303	0.4785	57.01303	0.87307	-32.21087
3750	0.8680	-32.78437	0.47524	56.72934	0.47524	56.72934	0.8680	-32.78437
3770	0.86681	-32.57221	0.48013	56.83309	0.48013	56.83309	0.86681	-32.57221
3790	0.86811	-32.69275	0.48363	56.7119	0.48363	56.7119	0.86811	-32.69275
3810	0.86617	-32.96255	0.48547	56.58008	0.48547	56.58008	0.86617	-32.96255
3830	0.86222	-33.23752	0.48662	56.47943	0.48662	56.47943	0.86222	-33.23752
3850	0.86443	-33.41293	0.48931	56.27921	0.48931	56.27921	0.86443	-33.41293
3870	0.85887	-33.71925	0.49121	56.20831	0.49121	56.20831	0.85887	-33.71925
3890	0.85577	-33.90056	0.49281	56.2168	0.49281	56.2168	0.85577	-33.90056
3910	0.85537	-34.27434	0.49626	55.95163	0.49626	55.95163	0.85537	-34.27434
3930	0.85457	-34.74545	0.49981	55.54169	0.49981	55.54169	0.85457	-34.74545
3950	0.84693	-34.80614	0.49784	55.59784	0.49784	55.59784	0.84693	-34.80614
3970	0.85185	-34.62868	0.50325	55.71235	0.50325	55.71235	0.85185	-34.62868
3990	0.85224	-35.02159	0.50733	55.18386	0.50733	55.18386	0.85224	-35.02159
4010	0.84948	-35.46135	0.50922	54.7281	0.50922	54.7281	0.84948	-35.46135
4030	0.84531	-35.72329	0.50941	54.63931	0.50941	54.63931	0.84531	-35.72329
4050	0.84178	-35.88153	0.50966	54.79016	0.50966	54.79016	0.84178	-35.88153
4070	0.84238	-35.80717	0.51504	54.86988	0.51504	54.86988	0.84238	-35.80717
4090	0.84153	-36.43088	0.51784	54.56162	0.51784	54.56162	0.84153	-36.43088
4110	0.83481	-37.05654	0.51783	54.16278	0.51783	54.16278	0.83481	-37.05654
4130	0.82705	-37.30329	0.5178	53.95647	0.5178	53.95647	0.82705	-37.30329
4150	0.83239	-37.10559	0.52357	54.21153	0.52357	54.21153	0.83239	-37.10559
4170	0.83481	-37.66486	0.52804	53.79262	0.52804	53.79262	0.83481	-37.66486
4190	0.82635	-38.15477	0.52802	53.4933	0.52802	53.4933	0.82635	-38.15477
4210	0.82138	-38.40285	0.52882	53.38685	0.52882	53.38685	0.82138	-38.40285
4230	0.82421	-38.5025	0.53279	53.47263	0.53279	53.47263	0.82421	-38.5025
4250	0.82913	-38.81296	0.53931	53.67609	0.53931	53.67609	0.82913	-38.81296
4270	0.8206	-39.41754	0.53602	53.25341	0.53602	53.25341	0.8206	-39.41754
4290	0.82216	-39.70333	0.53841	53.2016	0.53841	53.2016	0.82216	-39.70333
4310	0.82207	-40.00493	0.53994	53.01704	0.53994	53.01704	0.82207	-40.00493
4330	0.81899	-40.33356	0.53985	52.67799	0.53985	52.67799	0.81899	-40.33356
4350	0.82195	-40.37702	0.5431	52.64459	0.5431	52.64459	0.82195	-40.37702
4370	0.82009	-40.74655	0.54811	52.41831	0.54811	52.41831	0.82009	-40.74655
4390	0.81401	-41.15237	0.54853	52.18327	0.54853	52.18327	0.81401	-41.15237
4410	0.81123	-41.40159	0.55049	52.03833	0.55049	52.03833	0.81123	-41.40159
4430	0.81265	-41.58445	0.55413	51.98674	0.55413	51.98674	0.81265	-41.58445
4450	0.81257	-42.07422	0.55359	51.93609	0.55359	51.93609	0.81257	-42.07422
4470	0.81614	-42.00945	0.55781	51.871	0.55781	51.871	0.81614	-42.00945
4490	0.81633	-42.43122	0.5611	51.55387	0.5611	51.55387	0.81633	-42.43122
4510	0.80946	-42.62821	0.56163	51.39095	0.56163	51.39095	0.80946	-42.62821
4530	0.8012	-42.49918	0.56146	51.51534	0.56146	51.51534	0.8012	-42.49918
4550	0.80663	-42.55293	0.5666	51.78696	0.5666	51.78696	0.80663	-42.55293
4570	0.80094	-43.79054	0.56912	50.77385	0.56912	50.77385	0.80094	-43.79054
4590	0.79072	-44.06717	0.56738	50.66224	0.56738	50.66224	0.79072	-44.06717
4610	0.78975	-44.07785	0.57097	50.87873	0.57097	50.87873	0.78975	-44.07785
4630	0.79654	-44.33121	0.57817	50.90309	0.57817	50.90309	0.79654	-44.33121
4650	0.79438	-45.14942	0.57603	50.26827	0.57603	50.26827	0.79438	-45.14942
4670	0.78904	-45.14415	0.57461	50.48896	0.57461	50.48896	0.78904	-45.14415
4690	0.78835	-45.14648	0.57534	50.57891	0.57534	50.57891	0.78835	-45.14648
4710	0.78793	-45.33328	0.57657	50.29788	0.57657	50.29788	0.78793	-45.33328
4730	0.78462	-45.68596	0.57852	49.79537	0.57852	49.79537	0.78462	-45.68596
4750	0.77649	-45.99045	0.58334	49.61068	0.58334	49.61068	0.77649	-45.99045
4770	0.77542	-46.35684	0.58427	49.63215	0.58427	49.63215	0.77542	-46.35684
4790	0.77562	-46.64269	0.58781	49.5762	0.58781	49.5762	0.77562	-46.64269
4810	0.77602	-47.17948	0.58977	49.3167	0.58977	49.3167	0.77602	-47.17948
4830	0.7753	-47.7704	0.58937	49.01263	0.58937	49.01263	0.7753	-47.7704
4850	0.7719	-47.69035	0.5892	49.10804	0.5892	49.10804	0.7719	-47.69035
4870	0.77407	-47.9628	0.59196	48.92327	0.59196	48.92327	0.77407	-47.9628
4890	0.77241	-48.42515	0.59378	48.66713	0.59378	48.66713	0.77241	-48.42515
4910	0.76878	-48.54693	0.59602	48.53327	0.59602	48.53327	0.76878	-48.54693
4930	0.76661	-48.46895	0.59991	48.49929	0.59991	48.49929	0.76661	-48.46895
4950	0.77088	-49.00334	0.60651	48.32672	0.60651	48.32672	0.77088	-49.00334
4970	0.75946	-49.48206	0.60062	47.68338	0.60062	47.68338	0.75946	-49.48206
4990	0.75777	-49.53978	0.60226	47.90159	0.60226	47.90159	0.75777	-49.53978
5010	0.76026	-50.04615	0.6072	47.86662	0.6072	47.86662	0.76026	-50.04615
5030	0.76096	-50.89534	0.6107	47.44769	0.6107	47.44769	0.76096	-50.89534
5050	0.75339	-51.006	0.60749	47.49804	0.60749	47.49804	0.75339	-51.006
5070	0.75758	-50.67523	0.60932	47.79747	0.60932	47.79747	0.75758	-50.67523
5090	0.76259	-51.22741	0.61592	47.41388	0.61592	47.41388	0.76259	-51.22741
5110	0.75812	-51.69029	0.61681	46.93417	0.61681	46.93417	0.75812	-51.69029
5130	0.7473	-51.70733	0.61171	46.70054	0.61171	46.70054	0.7473	-51.70733
5150	0.74675	-51.53766	0.61061	46.81053	0.61061	46.81053	0.74675	-51.53766
5170	0.75281	-51.62614	0.61859	46.78243	0.61859	46.78243	0.75281	-51.62614
5190	0.74863	-52.55709	0.62389	46.29671	0.62389	46.29671	0.74863	-52.55709
5210	0.74173	-52.99572	0.62447	46.12406	0.62447	46.12406	0.74173	-52.99572
5230	0.73971	-52.75235	0.62318	46.38508	0.62318	46.38508	0.73971	-52.75235
5250	0.75027	-52.78238	0.62773	46.55029	0.62773	46.55029	0.75027	-52.78238
5270	0.7486	-53.45169	0.62802	45.58407	0.62802	45.58407	0.7486	-53.45169
5290	0.74158	-53.32453	0.62628	45.85864	0.62628	45.85864	0.74158	-53.32453
5310	0.7395	-52.94729	0.62998	46.05376	0.62998	46.05376	0.7395	-52.94729
5330	0.74247	-52.97553	0.63662	45.65333	0.63662	45.65333	0.74247	-52.97553
5350	0.74036	-54.17405	0.63374	44.94537	0.63374	44.94537	0.74036	-54.17405
5370	0.72569	-54.079	0.63347	45.28265	0.63347	45.28265	0.72569	-54.079
5390	0.72663	-54.04277	0.63699	45.26398	0.63699	45.26398	0.72663	-54.04277
5410	0.72757	-54.35276	0.64216	44.98099	0.64216	44.98099	0.72757	-54.35276
5430	0.72461	-54.91172	0.64487	44.67729	0.64487	44.67729	0.72461	-54.91172
5450	0.72556	-55.23778	0.63897	44.74845	0.63897	44.74845	0.72556	-55.23778
