! 500R07S0R3BV4
! Data taken April 11, 2003
! Data taken on a HP 8720C VNA using a series-through test fixture and TRL* de-embedding
#	mhz	s	ma	r	50
0	0.99999	0.00000	0.00000	90.00000	0.00000	90.00000	0.99999	0.00000
50	0.99999	0.65244	0.00869	94.11786	0.00869	94.11786	0.99999	0.65244
70	0.99999	-0.98993	0.0096	91.46868	0.0096	91.46868	0.99999	-0.98993
90	0.99999	-0.68345	0.01407	88.24971	0.01407	88.24971	0.99999	-0.68345
110	0.99999	-0.94504	0.01824	87.22673	0.01824	87.22673	0.99999	-0.94504
130	0.99999	-1.89452	0.02105	88.63796	0.02105	88.63796	0.99999	-1.89452
150	0.99999	-1.2546	0.02421	90.19407	0.02421	90.19407	0.99999	-1.2546
170	0.99999	-1.58645	0.02864	89.548	0.02864	89.548	0.99999	-1.58645
190	0.99999	-2.06093	0.03208	88.01261	0.03208	88.01261	0.99999	-2.06093
210	0.99999	-2.08138	0.0355	87.31514	0.0355	87.31514	0.99999	-2.08138
230	0.99999	-1.97657	0.03915	87.62865	0.03915	87.62865	0.99999	-1.97657
250	0.99999	-3.00072	0.04255	87.57203	0.04255	87.57203	0.99999	-3.00072
270	0.99861	-2.99831	0.04571	87.44567	0.04571	87.44567	0.99861	-2.99831
290	0.99999	-2.8235	0.04896	87.21674	0.04896	87.21674	0.99999	-2.8235
310	0.99999	-3.08634	0.05251	86.65004	0.05251	86.65004	0.99999	-3.08634
330	0.99999	-3.70074	0.05609	86.07157	0.05609	86.07157	0.99999	-3.70074
350	0.99826	-3.88445	0.0589	86.36858	0.0589	86.36858	0.99826	-3.88445
370	0.99999	-4.31827	0.06246	85.95586	0.06246	85.95586	0.99999	-4.31827
390	0.99999	-4.62278	0.06553	85.62467	0.06553	85.62467	0.99999	-4.62278
410	0.99999	-4.6606	0.0688	85.44949	0.0688	85.44949	0.99999	-4.6606
430	0.99999	-4.71775	0.07241	85.27405	0.07241	85.27405	0.99999	-4.71775
450	0.99999	-5.50361	0.07594	84.71125	0.07594	84.71125	0.99999	-5.50361
470	0.99999	-5.36504	0.07901	84.62697	0.07901	84.62697	0.99999	-5.36504
490	0.99999	-4.53497	0.07818	84.25084	0.07818	84.25084	0.99999	-4.53497
510	0.99999	-3.91438	0.07878	83.57502	0.07878	83.57502	0.99999	-3.91438
530	0.99999	-3.69467	0.0821	82.90449	0.0821	82.90449	0.99999	-3.69467
550	0.99999	-3.3577	0.08483	82.85709	0.08483	82.85709	0.99999	-3.3577
570	0.99999	-3.43066	0.08839	82.47668	0.08839	82.47668	0.99999	-3.43066
590	0.99999	-3.26534	0.09159	82.35797	0.09159	82.35797	0.99999	-3.26534
610	0.99999	-3.41679	0.09479	82.42627	0.09479	82.42627	0.99999	-3.41679
630	0.99999	-3.94752	0.09813	82.41072	0.09813	82.41072	0.99999	-3.94752
650	0.99699	-4.42749	0.10148	81.84431	0.10148	81.84431	0.99699	-4.42749
670	0.99964	-4.00355	0.10356	82.10331	0.10356	82.10331	0.99964	-4.00355
690	0.99999	-4.2077	0.10664	81.89707	0.10664	81.89707	0.99999	-4.2077
710	0.99999	-4.47401	0.10957	81.60466	0.10957	81.60466	0.99999	-4.47401
730	0.99999	-4.54524	0.11232	81.38761	0.11232	81.38761	0.99999	-4.54524
750	0.99865	-4.47283	0.11602	81.18996	0.11602	81.18996	0.99865	-4.47283
770	0.99659	-4.65113	0.11897	80.65469	0.11897	80.65469	0.99659	-4.65113
790	0.99513	-4.94375	0.12208	80.62509	0.12208	80.62509	0.99513	-4.94375
810	0.99739	-5.2177	0.12561	80.57188	0.12561	80.57188	0.99739	-5.2177
830	0.99999	-5.44715	0.12918	80.33546	0.12918	80.33546	0.99999	-5.44715
850	0.9969	-5.71339	0.13178	80.12595	0.13178	80.12595	0.9969	-5.71339
870	0.99587	-5.30153	0.13466	80.22814	0.13466	80.22814	0.99587	-5.30153
890	0.99744	-5.64711	0.13815	79.97655	0.13815	79.97655	0.99744	-5.64711
910	0.99544	-5.91585	0.14126	79.66105	0.14126	79.66105	0.99544	-5.91585
930	0.99054	-5.85877	0.14395	79.43644	0.14395	79.43644	0.99054	-5.85877
950	0.99026	-5.81215	0.14709	79.32247	0.14709	79.32247	0.99026	-5.81215
970	0.99302	-6.7081	0.15086	78.86128	0.15086	78.86128	0.99302	-6.7081
990	0.98998	-7.01622	0.15333	78.81208	0.15333	78.81208	0.98998	-7.01622
1010	0.9886	-7.17539	0.15618	78.76533	0.15618	78.76533	0.9886	-7.17539
1030	0.99133	-7.30443	0.15968	78.5824	0.15968	78.5824	0.99133	-7.30443
1050	0.99559	-7.20213	0.16271	78.39554	0.16271	78.39554	0.99559	-7.20213
1070	0.99695	-7.30815	0.16579	78.30875	0.16579	78.30875	0.99695	-7.30815
1090	0.99311	-7.36366	0.16843	77.73819	0.16843	77.73819	0.99311	-7.36366
1110	0.98955	-7.32176	0.17118	77.47089	0.17118	77.47089	0.98955	-7.32176
1130	0.98685	-7.32401	0.17455	77.52431	0.17455	77.52431	0.98685	-7.32401
1150	0.98071	-7.70045	0.17906	77.14628	0.17906	77.14628	0.98071	-7.70045
1170	0.97656	-8.10987	0.18209	77.1104	0.18209	77.1104	0.97656	-8.10987
1190	0.97653	-8.62058	0.1855	77.00244	0.1855	77.00244	0.97653	-8.62058
1210	0.97695	-9.1258	0.18863	76.77577	0.18863	76.77577	0.97695	-9.1258
1230	0.97681	-9.47809	0.19131	76.6367	0.19131	76.6367	0.97681	-9.47809
1250	0.97773	-9.48937	0.19377	77.04444	0.19377	77.04444	0.97773	-9.48937
1270	0.98394	-9.94751	0.19686	76.17389	0.19686	76.17389	0.98394	-9.94751
1290	0.98397	-10.31426	0.19942	75.80919	0.19942	75.80919	0.98397	-10.31426
1310	0.98146	-10.29677	0.20183	75.7039	0.20183	75.7039	0.98146	-10.29677
1330	0.98092	-10.06929	0.20503	75.60478	0.20503	75.60478	0.98092	-10.06929
1350	0.9877	-10.27318	0.21057	75.25179	0.21057	75.25179	0.9877	-10.27318
1370	0.97763	-10.64456	0.21187	75.03388	0.21187	75.03388	0.97763	-10.64456
1390	0.97551	-10.74608	0.21516	75.06201	0.21516	75.06201	0.97551	-10.74608
1410	0.97691	-11.00803	0.21874	74.76681	0.21874	74.76681	0.97691	-11.00803
1430	0.97806	-11.41987	0.22156	74.30529	0.22156	74.30529	0.97806	-11.41987
1450	0.9759	-11.53025	0.22325	74.56079	0.22325	74.56079	0.9759	-11.53025
1470	0.98141	-11.76991	0.2272	74.24594	0.2272	74.24594	0.98141	-11.76991
1490	0.98043	-11.89267	0.23027	73.96529	0.23027	73.96529	0.98043	-11.89267
1510	0.9771	-11.82294	0.23269	73.87799	0.23269	73.87799	0.9771	-11.82294
1530	0.97482	-11.69704	0.23526	73.84864	0.23526	73.84864	0.97482	-11.69704
1550	0.9762	-11.8632	0.23946	73.44728	0.23946	73.44728	0.9762	-11.8632
1570	0.96771	-12.22551	0.24177	72.92537	0.24177	72.92537	0.96771	-12.22551
1590	0.96297	-12.49758	0.24496	72.63933	0.24496	72.63933	0.96297	-12.49758
1610	0.96004	-12.79777	0.24833	72.37845	0.24833	72.37845	0.96004	-12.79777
1630	0.95878	-13.2048	0.25189	72.16635	0.25189	72.16635	0.95878	-13.2048
1650	0.96089	-13.75776	0.25626	72.26092	0.25626	72.26092	0.96089	-13.75776
1670	0.96009	-14.25764	0.25735	71.87851	0.25735	71.87851	0.96009	-14.25764
1690	0.95858	-14.19711	0.26069	72.00954	0.26069	72.00954	0.95858	-14.19711
1710	0.96013	-14.23563	0.26477	71.90795	0.26477	71.90795	0.96013	-14.23563
1730	0.96152	-14.4943	0.26834	71.47991	0.26834	71.47991	0.96152	-14.4943
1750	0.95248	-14.55585	0.27039	71.28387	0.27039	71.28387	0.95248	-14.55585
1770	0.95174	-14.55375	0.27423	71.38826	0.27423	71.38826	0.95174	-14.55375
1790	0.95219	-14.99687	0.27766	70.99402	0.27766	70.99402	0.95219	-14.99687
1810	0.95054	-15.49634	0.28047	70.69846	0.28047	70.69846	0.95054	-15.49634
1830	0.9474	-15.87721	0.28323	70.72022	0.28323	70.72022	0.9474	-15.87721
1850	0.9473	-16.1784	0.28738	70.89932	0.28738	70.89932	0.9473	-16.1784
1870	0.95089	-16.68123	0.29064	70.13105	0.29064	70.13105	0.95089	-16.68123
1890	0.94862	-16.67735	0.29171	70.14619	0.29171	70.14619	0.94862	-16.67735
1910	0.94843	-16.62096	0.29443	70.16473	0.29443	70.16473	0.94843	-16.62096
1930	0.95058	-16.81963	0.29886	69.87795	0.29886	69.87795	0.95058	-16.81963
1950	0.94768	-17.43426	0.30126	69.44837	0.30126	69.44837	0.94768	-17.43426
1970	0.94457	-17.51065	0.3037	69.46313	0.3037	69.46313	0.94457	-17.51065
1990	0.94488	-17.70448	0.30671	69.24521	0.30671	69.24521	0.94488	-17.70448
2010	0.94341	-17.9047	0.31057	69.04364	0.31057	69.04364	0.94341	-17.9047
2030	0.94038	-18.18253	0.31475	68.84659	0.31475	68.84659	0.94038	-18.18253
2050	0.94142	-18.79147	0.31791	68.38141	0.31791	68.38141	0.94142	-18.79147
2070	0.93785	-18.62758	0.31891	68.31573	0.31891	68.31573	0.93785	-18.62758
2090	0.94106	-18.72235	0.32272	68.29371	0.32272	68.29371	0.94106	-18.72235
2110	0.94199	-19.07189	0.32651	68.14435	0.32651	68.14435	0.94199	-19.07189
2130	0.93839	-19.45944	0.32903	67.88929	0.32903	67.88929	0.93839	-19.45944
2150	0.93485	-19.45529	0.33058	67.74285	0.33058	67.74285	0.93485	-19.45529
2170	0.93374	-19.5366	0.33601	67.28125	0.33601	67.28125	0.93374	-19.5366
2190	0.93324	-19.78266	0.33889	67.03776	0.33889	67.03776	0.93324	-19.78266
2210	0.93097	-20.08208	0.3421	67.02986	0.3421	67.02986	0.93097	-20.08208
2230	0.92871	-20.45597	0.34641	67.06189	0.34641	67.06189	0.92871	-20.45597
2250	0.93248	-21.05797	0.35052	66.7251	0.35052	66.7251	0.93248	-21.05797
2270	0.92516	-21.18909	0.35098	66.44688	0.35098	66.44688	0.92516	-21.18909
2290	0.92578	-21.31016	0.35372	66.48374	0.35372	66.48374	0.92578	-21.31016
2310	0.92839	-21.63179	0.35749	66.12641	0.35749	66.12641	0.92839	-21.63179
2330	0.92802	-22.01185	0.36075	65.50737	0.36075	65.50737	0.92802	-22.01185
2350	0.92062	-21.95554	0.36166	65.60086	0.36166	65.60086	0.92062	-21.95554
2370	0.92025	-21.64394	0.36655	65.54738	0.36655	65.54738	0.92025	-21.64394
2390	0.9183	-22.11069	0.37074	65.3208	0.37074	65.3208	0.9183	-22.11069
2410	0.91522	-22.72868	0.37427	65.06431	0.37427	65.06431	0.91522	-22.72868
2430	0.91173	-23.11444	0.37699	64.90198	0.37699	64.90198	0.91173	-23.11444
2450	0.9088	-23.12811	0.3786	64.93874	0.3786	64.93874	0.9088	-23.12811
2470	0.91345	-23.32648	0.38471	64.7189	0.38471	64.7189	0.91345	-23.32648
2490	0.91226	-23.80886	0.38557	64.3237	0.38557	64.3237	0.91226	-23.80886
2510	0.90888	-24.14774	0.38707	63.96043	0.38707	63.96043	0.90888	-24.14774
2530	0.90637	-24.21619	0.39086	63.74395	0.39086	63.74395	0.90637	-24.21619
2550	0.90719	-24.18793	0.39435	63.6967	0.39435	63.6967	0.90719	-24.18793
2570	0.90617	-24.56118	0.39666	63.40541	0.39666	63.40541	0.90617	-24.56118
2590	0.90318	-24.71639	0.3996	63.19752	0.3996	63.19752	0.90318	-24.71639
2610	0.90016	-24.94752	0.40334	63.05768	0.40334	63.05768	0.90016	-24.94752
2630	0.89819	-25.25871	0.40736	62.89582	0.40736	62.89582	0.89819	-25.25871
2650	0.89749	-25.36434	0.41048	62.54719	0.41048	62.54719	0.89749	-25.36434
2670	0.89908	-25.55915	0.41424	62.60044	0.41424	62.60044	0.89908	-25.55915
2690	0.89945	-25.94065	0.41812	62.30558	0.41812	62.30558	0.89945	-25.94065
2710	0.8968	-26.292	0.42061	62.0016	0.42061	62.0016	0.8968	-26.292
2730	0.89217	-26.38911	0.42214	61.89662	0.42214	61.89662	0.89217	-26.38911
2750	0.88946	-26.00063	0.42503	62.06787	0.42503	62.06787	0.88946	-26.00063
2770	0.89454	-26.50035	0.43026	61.69723	0.43026	61.69723	0.89454	-26.50035
2790	0.89294	-26.73763	0.43198	61.36088	0.43198	61.36088	0.89294	-26.73763
2810	0.8885	-26.88113	0.43442	61.24809	0.43442	61.24809	0.8885	-26.88113
2830	0.88469	-26.94901	0.43769	61.27554	0.43769	61.27554	0.88469	-26.94901
2850	0.88464	-26.80902	0.43781	61.08737	0.43781	61.08737	0.88464	-26.80902
2870	0.88494	-27.2783	0.44149	60.68511	0.44149	60.68511	0.88494	-27.2783
2890	0.8811	-27.74442	0.44543	60.38747	0.44543	60.38747	0.8811	-27.74442
2910	0.87887	-28.16384	0.44854	60.10174	0.44854	60.10174	0.87887	-28.16384
2930	0.87956	-28.42722	0.451	59.89753	0.451	59.89753	0.87956	-28.42722
2950	0.88	-28.35943	0.4542	60.00682	0.4542	60.00682	0.88	-28.35943
2970	0.87803	-28.29284	0.45792	59.61934	0.45792	59.61934	0.87803	-28.29284
2990	0.87439	-28.7388	0.46019	59.32985	0.46019	59.32985	0.87439	-28.7388
3010	0.87006	-29.0341	0.46105	59.12287	0.46105	59.12287	0.87006	-29.0341
3030	0.86737	-29.01599	0.46254	58.98247	0.46254	58.98247	0.86737	-29.01599
3050	0.87002	-29.0222	0.46871	58.89229	0.46871	58.89229	0.87002	-29.0222
3070	0.86689	-29.67907	0.47237	58.39565	0.47237	58.39565	0.86689	-29.67907
3090	0.86106	-29.92944	0.47238	58.10371	0.47238	58.10371	0.86106	-29.92944
3110	0.85908	-29.96502	0.47518	58.1816	0.47518	58.1816	0.85908	-29.96502
3130	0.861	-30.09221	0.48147	58.28832	0.48147	58.28832	0.861	-30.09221
3150	0.86043	-30.73199	0.48619	57.5768	0.48619	57.5768	0.86043	-30.73199
3170	0.8511	-30.79191	0.48345	57.57596	0.48345	57.57596	0.8511	-30.79191
3190	0.85522	-30.79195	0.48839	57.48382	0.48839	57.48382	0.85522	-30.79195
3210	0.85718	-30.96668	0.49346	57.18461	0.49346	57.18461	0.85718	-30.96668
3230	0.8526	-31.27794	0.49501	56.83685	0.49501	56.83685	0.8526	-31.27794
3250	0.84832	-31.41481	0.49326	56.8733	0.49326	56.8733	0.84832	-31.41481
3270	0.8449	-31.35638	0.49771	56.8286	0.49771	56.8286	0.8449	-31.35638
3290	0.84316	-31.81821	0.5011	56.35952	0.5011	56.35952	0.84316	-31.81821
3310	0.84152	-32.15285	0.50388	56.12009	0.50388	56.12009	0.84152	-32.15285
3330	0.84148	-32.3252	0.50691	56.10982	0.50691	56.10982	0.84148	-32.3252
3350	0.84758	-32.91248	0.51147	55.67371	0.51147	55.67371	0.84758	-32.91248
3370	0.84249	-32.92114	0.51465	55.55043	0.51465	55.55043	0.84249	-32.92114
3390	0.83974	-33.0021	0.51468	55.62368	0.51468	55.62368	0.83974	-33.0021
3410	0.83821	-33.057	0.51573	55.49347	0.51573	55.49347	0.83821	-33.057
3430	0.838	-33.16845	0.51934	55.10926	0.51934	55.10926	0.838	-33.16845
3450	0.84043	-33.60005	0.52443	54.77007	0.52443	54.77007	0.84043	-33.60005
3470	0.82755	-33.86126	0.52129	54.60197	0.52129	54.60197	0.82755	-33.86126
3490	0.82492	-33.71098	0.52499	54.6961	0.52499	54.6961	0.82492	-33.71098
3510	0.82672	-33.94663	0.53149	54.61388	0.53149	54.61388	0.82672	-33.94663
3530	0.82709	-34.56143	0.53562	54.28167	0.53562	54.28167	0.82709	-34.56143
3550	0.82019	-34.74437	0.53107	53.99078	0.53107	53.99078	0.82019	-34.74437
3570	0.82305	-34.76943	0.53761	54.01822	0.53761	54.01822	0.82305	-34.76943
3590	0.82372	-35.18921	0.5413	53.59249	0.5413	53.59249	0.82372	-35.18921
3610	0.82142	-35.43089	0.54235	53.36435	0.54235	53.36435	0.82142	-35.43089
3630	0.81814	-35.4413	0.543	53.42301	0.543	53.42301	0.81814	-35.4413
3650	0.81861	-35.68691	0.54752	53.29617	0.54752	53.29617	0.81861	-35.68691
3670	0.81247	-36.21724	0.54872	52.66494	0.54872	52.66494	0.81247	-36.21724
3690	0.80983	-36.17094	0.55015	52.63297	0.55015	52.63297	0.80983	-36.17094
3710	0.80977	-36.35464	0.55398	52.58741	0.55398	52.58741	0.80977	-36.35464
3730	0.80949	-36.9349	0.55813	52.30822	0.55813	52.30822	0.80949	-36.9349
3750	0.80432	-37.43817	0.55621	51.96813	0.55621	51.96813	0.80432	-37.43817
3770	0.80698	-37.34831	0.56038	52.19307	0.56038	52.19307	0.80698	-37.34831
3790	0.81006	-37.70816	0.56596	51.72515	0.56596	51.72515	0.81006	-37.70816
3810	0.80697	-37.98502	0.56849	51.42249	0.56849	51.42249	0.80697	-37.98502
3830	0.7997	-38.0875	0.56875	51.46865	0.56875	51.46865	0.7997	-38.0875
3850	0.79884	-38.36548	0.57275	51.37261	0.57275	51.37261	0.79884	-38.36548
3870	0.79772	-38.34617	0.57161	51.26179	0.57161	51.26179	0.79772	-38.34617
3890	0.79784	-38.586	0.57633	51.05128	0.57633	51.05128	0.79784	-38.586
3910	0.79799	-39.09593	0.58036	50.7514	0.58036	50.7514	0.79799	-39.09593
3930	0.79532	-39.66915	0.5815	50.44671	0.5815	50.44671	0.79532	-39.66915
3950	0.78531	-39.88112	0.58191	50.296	0.58191	50.296	0.78531	-39.88112
3970	0.79037	-39.72317	0.58597	50.62147	0.58597	50.62147	0.79037	-39.72317
3990	0.79168	-40.21255	0.58939	50.16277	0.58939	50.16277	0.79168	-40.21255
4010	0.78802	-40.59675	0.59132	49.76739	0.59132	49.76739	0.78802	-40.59675
4030	0.78129	-40.69438	0.59215	49.63302	0.59215	49.63302	0.78129	-40.69438
4050	0.77656	-40.8951	0.59355	49.30764	0.59355	49.30764	0.77656	-40.8951
4070	0.77908	-41.20978	0.59552	49.45813	0.59552	49.45813	0.77908	-41.20978
4090	0.77812	-41.61749	0.6008	49.01436	0.6008	49.01436	0.77812	-41.61749
4110	0.77341	-41.98751	0.60264	48.76688	0.60264	48.76688	0.77341	-41.98751
4130	0.76893	-42.17584	0.60159	48.89017	0.60159	48.89017	0.76893	-42.17584
4150	0.77299	-42.02521	0.60541	48.94259	0.60541	48.94259	0.77299	-42.02521
4170	0.77529	-42.78564	0.61433	48.20566	0.61433	48.20566	0.77529	-42.78564
4190	0.76959	-43.2326	0.61258	47.96319	0.61258	47.96319	0.76959	-43.2326
4210	0.76361	-43.42803	0.61157	47.94237	0.61157	47.94237	0.76361	-43.42803
4230	0.76171	-43.61658	0.61458	47.85232	0.61458	47.85232	0.76171	-43.61658
4250	0.76486	-44.22567	0.61681	47.38402	0.61681	47.38402	0.76486	-44.22567
4270	0.76127	-44.21421	0.61774	47.44453	0.61774	47.44453	0.76127	-44.21421
4290	0.76039	-44.44552	0.61945	47.2767	0.61945	47.2767	0.76039	-44.44552
4310	0.75674	-44.91437	0.6214	47.07351	0.6214	47.07351	0.75674	-44.91437
4330	0.75196	-45.4411	0.62348	46.88649	0.62348	46.88649	0.75196	-45.4411
4350	0.75481	-45.67161	0.62598	46.62575	0.62598	46.62575	0.75481	-45.67161
4370	0.7538	-46.13198	0.63011	46.23731	0.63011	46.23731	0.7538	-46.13198
4390	0.75193	-46.22902	0.62969	46.12867	0.62969	46.12867	0.75193	-46.22902
4410	0.75239	-46.38426	0.63385	45.94473	0.63385	45.94473	0.75239	-46.38426
4430	0.75369	-46.71333	0.64108	45.73343	0.64108	45.73343	0.75369	-46.71333
4450	0.74957	-47.02598	0.63928	45.94578	0.63928	45.94578	0.74957	-47.02598
4470	0.74873	-47.25701	0.64189	45.73411	0.64189	45.73411	0.74873	-47.25701
4490	0.74422	-47.78102	0.64244	45.2771	0.64244	45.2771	0.74422	-47.78102
4510	0.73872	-47.98297	0.64148	45.13132	0.64148	45.13132	0.73872	-47.98297
4530	0.73666	-47.89201	0.64195	45.2816	0.64195	45.2816	0.73666	-47.89201
4550	0.7442	-48.18149	0.64919	45.14093	0.64919	45.14093	0.7442	-48.18149
4570	0.74172	-49.10838	0.64829	44.37035	0.64829	44.37035	0.74172	-49.10838
4590	0.73661	-49.19843	0.64771	44.31246	0.64771	44.31246	0.73661	-49.19843
4610	0.73619	-48.99051	0.65144	44.5022	0.65144	44.5022	0.73619	-48.99051
4630	0.73942	-49.0205	0.65607	44.41917	0.65607	44.41917	0.73942	-49.0205
4650	0.73686	-49.82133	0.65084	43.48767	0.65084	43.48767	0.73686	-49.82133
4670	0.72629	-49.96463	0.65277	43.63148	0.65277	43.63148	0.72629	-49.96463
4690	0.72613	-50.24235	0.65662	43.47377	0.65662	43.47377	0.72613	-50.24235
4710	0.72748	-50.57466	0.65984	43.22961	0.65984	43.22961	0.72748	-50.57466
4730	0.72672	-50.90541	0.66166	43.03573	0.66166	43.03573	0.72672	-50.90541
4750	0.72547	-51.20205	0.66314	42.95053	0.66314	42.95053	0.72547	-51.20205
4770	0.72033	-51.62307	0.66122	43.09735	0.66122	43.09735	0.72033	-51.62307
4790	0.72183	-51.69717	0.66356	42.81509	0.66356	42.81509	0.72183	-51.69717
4810	0.72229	-51.82357	0.6671	42.45387	0.6671	42.45387	0.72229	-51.82357
4830	0.71934	-52.02854	0.66955	42.20127	0.66955	42.20127	0.71934	-52.02854
4850	0.71586	-51.96542	0.66941	42.08235	0.66941	42.08235	0.71586	-51.96542
4870	0.71553	-52.38256	0.67162	42.17593	0.67162	42.17593	0.71553	-52.38256
4890	0.71276	-52.91766	0.67096	41.82839	0.67096	41.82839	0.71276	-52.91766
4910	0.70939	-53.03686	0.67051	41.58001	0.67051	41.58001	0.70939	-53.03686
4930	0.70851	-52.86467	0.67304	41.46751	0.67304	41.46751	0.70851	-52.86467
4950	0.71445	-53.18394	0.68095	41.02408	0.68095	41.02408	0.71445	-53.18394
4970	0.70758	-53.75443	0.67225	40.87764	0.67225	40.87764	0.70758	-53.75443
4990	0.70657	-53.6642	0.67578	41.09705	0.67578	41.09705	0.70657	-53.6642
5010	0.7076	-53.64058	0.68178	40.93084	0.68178	40.93084	0.7076	-53.64058
5030	0.70705	-53.97989	0.68364	40.35647	0.68364	40.35647	0.70705	-53.97989
5050	0.7015	-54.54751	0.67788	40.08035	0.67788	40.08035	0.7015	-54.54751
5070	0.70055	-54.21419	0.68018	40.29384	0.68018	40.29384	0.70055	-54.21419
5090	0.70547	-54.30772	0.6857	40.12458	0.6857	40.12458	0.70547	-54.30772
5110	0.7037	-54.73415	0.68827	39.80393	0.68827	39.80393	0.7037	-54.73415
5130	0.6958	-55.13654	0.6875	39.57399	0.6875	39.57399	0.6958	-55.13654
5150	0.69544	-54.8949	0.68872	39.68757	0.68872	39.68757	0.69544	-54.8949
5170	0.70279	-55.13271	0.69206	39.76052	0.69206	39.76052	0.70279	-55.13271
5190	0.69703	-55.4831	0.69055	39.24698	0.69055	39.24698	0.69703	-55.4831
5210	0.69128	-55.64103	0.68853	38.9166	0.68853	38.9166	0.69128	-55.64103
5230	0.69231	-55.42414	0.68987	38.99248	0.68987	38.99248	0.69231	-55.42414
5250	0.70048	-54.77281	0.69797	39.15122	0.69797	39.15122	0.70048	-54.77281
5270	0.69448	-55.92693	0.69708	38.41826	0.69708	38.41826	0.69448	-55.92693
5290	0.68248	-55.99688	0.69308	38.43153	0.69308	38.43153	0.68248	-55.99688
5310	0.68329	-55.58974	0.69623	38.66809	0.69623	38.66809	0.68329	-55.58974
5330	0.69426	-55.48587	0.7038	38.51614	0.7038	38.51614	0.69426	-55.48587
5350	0.6913	-56.63894	0.7001	37.275	0.7001	37.275	0.6913	-56.63894
5370	0.68417	-56.69867	0.69786	37.89504	0.69786	37.89504	0.68417	-56.69867
5390	0.68276	-56.17659	0.70256	38.02698	0.70256	38.02698	0.68276	-56.17659
5410	0.68464	-55.94229	0.70647	37.81606	0.70647	37.81606	0.68464	-55.94229
