! P/N: 500R07S0R4BV4								
! Measured by Marlon								
! Oct. 28, 2003								
#	mhz	s	ma	r	50
0	0.99999	0.00000	0.00000	90.00000	0.00000	90.00000	0.99999	0.00000			
50	0.9999	-0.75548	0.01649	80.51207	0.01649	80.51207	0.9999	-0.75548
70	0.9999	-2.18143	0.02355	89.0676	0.02355	89.0676	0.9999	-2.18143
90	0.9999	-1.78335	0.02804	90.543	0.02804	90.543	0.9999	-1.78335
110	0.9999	-1.86113	0.03311	88.41378	0.03311	88.41378	0.9999	-1.86113
130	0.9999	-2.71482	0.03942	86.21768	0.03942	86.21768	0.9999	-2.71482
150	0.9999	-2.64458	0.04511	87.55465	0.04511	87.55465	0.9999	-2.64458
170	0.9999	-2.99683	0.05114	86.6248	0.05114	86.6248	0.9999	-2.99683
190	0.9999	-3.58058	0.05654	86.00617	0.05654	86.00617	0.9999	-3.58058
210	0.9999	-3.82054	0.06251	85.72993	0.06251	85.72993	0.9999	-3.82054
230	0.9999	-4.0016	0.06918	85.51391	0.06918	85.51391	0.9999	-4.0016
250	0.9999	-5.2688	0.07556	84.76262	0.07556	84.76262	0.9999	-5.2688
270	0.9999	-5.15068	0.08065	84.49938	0.08065	84.49938	0.9999	-5.15068
290	0.9999	-5.19026	0.0867	84.26622	0.0867	84.26622	0.9999	-5.19026
310	0.9999	-5.58175	0.09286	83.82901	0.09286	83.82901	0.9999	-5.58175
330	0.9999	-6.08996	0.09862	83.36867	0.09862	83.36867	0.9999	-6.08996
350	0.9999	-6.0503	0.10389	83.48115	0.10389	83.48115	0.9999	-6.0503
370	0.9999	-6.33746	0.11031	82.82762	0.11031	82.82762	0.9999	-6.33746
390	0.9999	-6.7616	0.11597	82.17138	0.11597	82.17138	0.9999	-6.7616
410	0.99506	-7.06291	0.1217	81.91828	0.1217	81.91828	0.99506	-7.06291
430	0.99392	-7.3964	0.12779	81.86494	0.12779	81.86494	0.99392	-7.3964
450	0.99278	-8.33186	0.13393	81.19875	0.13393	81.19875	0.99278	-8.33186
470	0.98732	-8.73989	0.1397	80.70859	0.1397	80.70859	0.98732	-8.73989
490	0.97948	-6.54432	0.13757	81.04986	0.13757	81.04986	0.97948	-6.54432
510	0.97331	-5.99952	0.13838	81.07548	0.13838	81.07548	0.97331	-5.99952
530	0.97035	-7.75244	0.1445	80.50746	0.1445	80.50746	0.97035	-7.75244
550	0.96959	-8.84269	0.14976	79.9369	0.14976	79.9369	0.96959	-8.84269
570	0.99055	-9.60859	0.1553	79.39335	0.1553	79.39335	0.99055	-9.60859
590	0.9999	-9.6519	0.16161	78.91484	0.16161	78.91484	0.9999	-9.6519
610	0.9999	-9.53098	0.16785	78.42336	0.16785	78.42336	0.9999	-9.53098
630	0.9999	-9.29413	0.17376	77.89914	0.17376	77.89914	0.9999	-9.29413
650	0.9999	-8.47959	0.17967	77.38068	0.17967	77.38068	0.9999	-8.47959
670	0.9999	-8.14992	0.18487	77.68698	0.18487	77.68698	0.9999	-8.14992
690	0.99586	-8.49917	0.1906	77.6146	0.1906	77.6146	0.99586	-8.49917
710	0.9820	-9.12571	0.19564	77.34785	0.19564	77.34785	0.9820	-9.12571
730	0.97082	-9.79749	0.19991	77.07837	0.19991	77.07837	0.97082	-9.79749
750	0.97939	-10.45208	0.20445	77.00506	0.20445	77.00506	0.97939	-10.45208
770	0.98441	-11.07435	0.20843	76.39477	0.20843	76.39477	0.98441	-11.07435
790	0.98633	-11.50645	0.21256	75.90859	0.21256	75.90859	0.98633	-11.50645
810	0.99101	-11.6119	0.21886	75.42203	0.21886	75.42203	0.99101	-11.6119
830	0.9955	-11.42738	0.22615	74.8037	0.22615	74.8037	0.9955	-11.42738
850	0.98805	-11.16278	0.23004	73.91522	0.23004	73.91522	0.98805	-11.16278
870	0.98302	-11.20617	0.23622	74.1633	0.23622	74.1633	0.98302	-11.20617
890	0.97386	-11.6836	0.2424	73.93828	0.2424	73.93828	0.97386	-11.6836
910	0.96331	-12.20434	0.24737	73.63285	0.24737	73.63285	0.96331	-12.20434
930	0.95678	-12.63734	0.25119	73.47805	0.25119	73.47805	0.95678	-12.63734
950	0.96231	-13.1112	0.25525	73.5432	0.25525	73.5432	0.96231	-13.1112
970	0.96729	-14.02953	0.25911	73.00253	0.25911	73.00253	0.96729	-14.02953
990	0.9688	-14.38352	0.26335	72.41269	0.26335	72.41269	0.9688	-14.38352
1010	0.96918	-14.52465	0.26779	71.67194	0.26779	71.67194	0.96918	-14.52465
1030	0.96847	-14.60601	0.27237	70.91158	0.27237	70.91158	0.96847	-14.60601
1050	0.96448	-14.58236	0.27723	70.49594	0.27723	70.49594	0.96448	-14.58236
1070	0.95915	-15.0204	0.28273	69.93182	0.28273	69.93182	0.95915	-15.0204
1090	0.95383	-15.52921	0.28998	69.66813	0.28998	69.66813	0.95383	-15.52921
1110	0.95028	-16.02387	0.29682	69.42775	0.29682	69.42775	0.95028	-16.02387
1130	0.94992	-16.51784	0.30255	69.154	0.30255	69.154	0.94992	-16.51784
1150	0.95381	-17.12295	0.30791	69.0106	0.30791	69.0106	0.95381	-17.12295
1170	0.95482	-17.52318	0.31073	69.10626	0.31073	69.10626	0.95482	-17.52318
1190	0.95997	-17.5695	0.31554	68.73374	0.31554	68.73374	0.95997	-17.5695
1210	0.96018	-17.67616	0.31966	68.12394	0.31966	68.12394	0.96018	-17.67616
1230	0.95475	-17.85696	0.32266	67.65441	0.32266	67.65441	0.95475	-17.85696
1250	0.95135	-17.72528	0.32635	67.84937	0.32635	67.84937	0.95135	-17.72528
1270	0.9488	-18.27902	0.33522	67.00284	0.33522	67.00284	0.9488	-18.27902
1290	0.94245	-18.89522	0.33968	66.46341	0.33968	66.46341	0.94245	-18.89522
1310	0.93858	-19.27577	0.34319	66.29413	0.34319	66.29413	0.93858	-19.27577
1330	0.94056	-19.58259	0.34766	66.33285	0.34766	66.33285	0.94056	-19.58259
1350	0.94886	-20.43764	0.35351	66.19219	0.35351	66.19219	0.94886	-20.43764
1370	0.9455	-20.64484	0.3565	65.84303	0.3565	65.84303	0.9455	-20.64484
1390	0.9481	-20.69265	0.36133	65.42795	0.36133	65.42795	0.9481	-20.69265
1410	0.94829	-20.78166	0.3658	64.99378	0.3658	64.99378	0.94829	-20.78166
1430	0.94358	-20.89449	0.36929	64.62212	0.36929	64.62212	0.94358	-20.89449
1450	0.93735	-20.79577	0.37275	64.42936	0.37275	64.42936	0.93735	-20.79577
1470	0.93459	-21.3163	0.3797	63.8372	0.3797	63.8372	0.93459	-21.3163
1490	0.92518	-21.76346	0.38374	63.37832	0.38374	63.37832	0.92518	-21.76346
1510	0.91927	-22.10371	0.3870	63.4027	0.3870	63.4027	0.91927	-22.10371
1530	0.91934	-22.45954	0.39096	63.54506	0.39096	63.54506	0.91934	-22.45954
1550	0.92022	-23.10952	0.3965	62.72495	0.3965	62.72495	0.92022	-23.10952
1570	0.91877	-23.61297	0.40058	62.18842	0.40058	62.18842	0.91877	-23.61297
1590	0.91717	-23.80165	0.40391	61.85844	0.40391	61.85844	0.91717	-23.80165
1610	0.91589	-23.95303	0.40784	61.58792	0.40784	61.58792	0.91589	-23.95303
1630	0.91435	-24.15396	0.41282	61.27005	0.41282	61.27005	0.91435	-24.15396
1650	0.91087	-24.30066	0.41842	60.83824	0.41842	60.83824	0.91087	-24.30066
1670	0.90248	-25.02682	0.4212	60.66537	0.4212	60.66537	0.90248	-25.02682
1690	0.90058	-25.40612	0.42544	60.38186	0.42544	60.38186	0.90058	-25.40612
1710	0.90054	-25.80913	0.43038	59.98532	0.43038	59.98532	0.90054	-25.80913
1730	0.89996	-26.32818	0.43514	59.5592	0.43514	59.5592	0.89996	-26.32818
1750	0.89868	-26.77736	0.43869	59.27275	0.43869	59.27275	0.89868	-26.77736
1770	0.89841	-26.75096	0.44439	59.14597	0.44439	59.14597	0.89841	-26.75096
1790	0.89845	-27.07541	0.44801	58.78244	0.44801	58.78244	0.89845	-27.07541
1810	0.89466	-27.38269	0.45083	58.46226	0.45083	58.46226	0.89466	-27.38269
1830	0.88882	-27.59747	0.45483	58.27812	0.45483	58.27812	0.88882	-27.59747
1850	0.88855	-27.93717	0.46263	58.13524	0.46263	58.13524	0.88855	-27.93717
1870	0.88236	-28.57923	0.4684	57.46856	0.4684	57.46856	0.88236	-28.57923
1890	0.87919	-29.06571	0.46996	57.34064	0.46996	57.34064	0.87919	-29.06571
1910	0.88104	-29.38047	0.47301	57.24939	0.47301	57.24939	0.88104	-29.38047
1930	0.88504	-29.70463	0.47853	56.9662	0.47853	56.9662	0.88504	-29.70463
1950	0.88343	-30.41657	0.48288	56.5359	0.48288	56.5359	0.88343	-30.41657
1970	0.88111	-30.37617	0.48375	56.41685	0.48375	56.41685	0.88111	-30.37617
1990	0.87892	-30.50538	0.48737	56.20649	0.48737	56.20649	0.87892	-30.50538
2010	0.87907	-30.62789	0.4927	55.95133	0.4927	55.95133	0.87907	-30.62789
2030	0.87896	-30.79659	0.49765	55.63572	0.49765	55.63572	0.87896	-30.79659
2050	0.87119	-31.29351	0.49915	55.18189	0.49915	55.18189	0.87119	-31.29351
2070	0.86687	-31.44838	0.50238	55.04413	0.50238	55.04413	0.86687	-31.44838
2090	0.86629	-31.83272	0.50815	55.10882	0.50815	55.10882	0.86629	-31.83272
2110	0.86376	-32.24576	0.51282	54.78248	0.51282	54.78248	0.86376	-32.24576
2130	0.85847	-32.57194	0.51528	54.18905	0.51528	54.18905	0.85847	-32.57194
2150	0.85449	-32.78084	0.5170	54.16981	0.5170	54.16981	0.85449	-32.78084
2170	0.85978	-33.27484	0.52193	53.80329	0.52193	53.80329	0.85978	-33.27484
2190	0.85568	-33.42927	0.52478	53.58896	0.52478	53.58896	0.85568	-33.42927
2210	0.85103	-33.4706	0.52805	53.42874	0.52805	53.42874	0.85103	-33.4706
2230	0.84854	-33.63808	0.5326	53.11792	0.5326	53.11792	0.84854	-33.63808
2250	0.84484	-34.18373	0.53776	52.34517	0.53776	52.34517	0.84484	-34.18373
2270	0.83802	-34.38214	0.53764	52.35435	0.53764	52.35435	0.83802	-34.38214
2290	0.8353	-34.51737	0.54363	52.26438	0.54363	52.26438	0.8353	-34.51737
2310	0.83331	-35.00698	0.54902	51.85125	0.54902	51.85125	0.83331	-35.00698
2330	0.83017	-35.76762	0.55092	51.27033	0.55092	51.27033	0.83017	-35.76762
2350	0.82557	-36.21501	0.55019	51.05629	0.55019	51.05629	0.82557	-36.21501
2370	0.82546	-36.00273	0.55502	51.11256	0.55502	51.11256	0.82546	-36.00273
2390	0.82346	-36.43978	0.55991	50.85561	0.55991	50.85561	0.82346	-36.43978
2410	0.81995	-36.8012	0.56343	50.50159	0.56343	50.50159	0.81995	-36.8012
2430	0.81768	-36.89373	0.5663	50.18459	0.5663	50.18459	0.81768	-36.89373
2450	0.82175	-37.05587	0.57144	49.95662	0.57144	49.95662	0.82175	-37.05587
2470	0.81157	-37.72496	0.57327	49.78849	0.57327	49.78849	0.81157	-37.72496
2490	0.80605	-38.18079	0.57799	49.42849	0.57799	49.42849	0.80605	-38.18079
2510	0.80439	-38.57685	0.58231	49.11327	0.58231	49.11327	0.80439	-38.57685
2530	0.80444	-38.85725	0.58522	48.97539	0.58522	48.97539	0.80444	-38.85725
2550	0.80265	-38.75677	0.58792	49.04321	0.58792	49.04321	0.80265	-38.75677
2570	0.80362	-39.48909	0.59234	48.62885	0.59234	48.62885	0.80362	-39.48909
2590	0.8024	-39.57404	0.59517	48.28826	0.59517	48.28826	0.8024	-39.57404
2610	0.7989	-39.59305	0.5983	47.89842	0.5983	47.89842	0.7989	-39.59305
2630	0.7942	-39.75834	0.60147	47.55969	0.60147	47.55969	0.7942	-39.75834
2650	0.79045	-39.91291	0.60225	47.59585	0.60225	47.59585	0.79045	-39.91291
2670	0.78667	-40.30779	0.60827	47.38511	0.60827	47.38511	0.78667	-40.30779
2690	0.78196	-40.76704	0.61261	47.04379	0.61261	47.04379	0.78196	-40.76704
2710	0.77716	-41.25365	0.61385	46.80814	0.61385	46.80814	0.77716	-41.25365
2730	0.77426	-41.62767	0.61372	46.70322	0.61372	46.70322	0.77426	-41.62767
2750	0.77648	-41.64626	0.61709	46.54296	0.61709	46.54296	0.77648	-41.64626
2770	0.77206	-42.39523	0.62512	46.04676	0.62512	46.04676	0.77206	-42.39523
2790	0.76946	-42.25982	0.62742	45.81589	0.62742	45.81589	0.76946	-42.25982
2810	0.76906	-42.30483	0.62969	45.57029	0.62969	45.57029	0.76906	-42.30483
2830	0.76833	-42.6859	0.63313	45.31323	0.63313	45.31323	0.76833	-42.6859
2850	0.76187	-42.64946	0.63444	45.3313	0.63444	45.3313	0.76187	-42.64946
2870	0.75732	-43.21645	0.64068	45.13094	0.64068	45.13094	0.75732	-43.21645
2890	0.75464	-43.75853	0.64346	44.86193	0.64346	44.86193	0.75464	-43.75853
2910	0.75574	-44.10311	0.64487	44.5577	0.64487	44.5577	0.75574	-44.10311
2930	0.75352	-44.07563	0.64648	44.29514	0.64648	44.29514	0.75352	-44.07563
2950	0.73183	-43.49959	0.64936	44.19457	0.64936	44.19457	0.73183	-43.49959
2970	0.74345	-44.3527	0.65341	44.02573	0.65341	44.02573	0.74345	-44.3527
2990	0.74322	-44.98654	0.65345	43.49774	0.65345	43.49774	0.74322	-44.98654
3010	0.73852	-45.13794	0.6551	43.2817	0.6551	43.2817	0.73852	-45.13794
3030	0.73354	-45.03255	0.66002	43.38553	0.66002	43.38553	0.73354	-45.03255
3050	0.7292	-45.38489	0.66585	43.15395	0.66585	43.15395	0.7292	-45.38489
3070	0.72023	-46.20399	0.66733	42.61843	0.66733	42.61843	0.72023	-46.20399
3090	0.71796	-46.46772	0.6674	42.26527	0.6674	42.26527	0.71796	-46.46772
3110	0.71874	-46.66824	0.67011	42.24015	0.67011	42.24015	0.71874	-46.66824
3130	0.71869	-47.08297	0.67543	42.26025	0.67543	42.26025	0.71869	-47.08297
3150	0.71371	-47.7746	0.67927	41.6143	0.67927	41.6143	0.71371	-47.7746
3170	0.70999	-47.50706	0.67894	41.58931	0.67894	41.58931	0.70999	-47.50706
3190	0.7110	-47.49296	0.68217	41.44212	0.68217	41.44212	0.7110	-47.49296
3210	0.71027	-47.72649	0.68553	41.26345	0.68553	41.26345	0.71027	-47.72649
3230	0.70522	-48.04666	0.68767	41.0527	0.68767	41.0527	0.70522	-48.04666
3250	0.6971	-48.13733	0.68929	40.71796	0.68929	40.71796	0.6971	-48.13733
3270	0.69614	-48.44066	0.69418	40.39859	0.69418	40.39859	0.69614	-48.44066
3290	0.6919	-48.80659	0.69461	40.18579	0.69461	40.18579	0.6919	-48.80659
3310	0.68858	-49.29738	0.69681	40.09002	0.69681	40.09002	0.68858	-49.29738
3330	0.68684	-49.83701	0.70144	40.03061	0.70144	40.03061	0.68684	-49.83701
3350	0.68378	-50.21113	0.70364	39.8358	0.70364	39.8358	0.68378	-50.21113
3370	0.68088	-50.24069	0.70489	39.54495	0.70489	39.54495	0.68088	-50.24069
3390	0.67811	-50.28159	0.70648	39.42745	0.70648	39.42745	0.67811	-50.28159
3410	0.67607	-50.44917	0.71103	39.26284	0.71103	39.26284	0.67607	-50.44917
3430	0.67276	-50.77533	0.71659	38.93283	0.71659	38.93283	0.67276	-50.77533
3450	0.66365	-51.20852	0.71668	38.42129	0.71668	38.42129	0.66365	-51.20852
3470	0.66167	-51.32509	0.71944	38.37609	0.71944	38.37609	0.66167	-51.32509
3490	0.66044	-51.41781	0.71967	38.44249	0.71967	38.44249	0.66044	-51.41781
3510	0.66024	-51.89418	0.72268	38.15789	0.72268	38.15789	0.66024	-51.89418
3530	0.65856	-52.57987	0.72701	37.6927	0.72701	37.6927	0.65856	-52.57987
3550	0.65022	-52.71866	0.72439	37.85043	0.72439	37.85043	0.65022	-52.71866
3570	0.65339	-52.82458	0.72859	37.79071	0.72859	37.79071	0.65339	-52.82458
3590	0.65234	-53.36846	0.73152	37.34908	0.73152	37.34908	0.65234	-53.36846
3610	0.64696	-53.69534	0.73223	37.12634	0.73223	37.12634	0.64696	-53.69534
3630	0.64133	-53.70177	0.73334	37.14043	0.73334	37.14043	0.64133	-53.70177
3650	0.64371	-53.83583	0.7410	36.82648	0.7410	36.82648	0.64371	-53.83583
3670	0.6360	-54.66836	0.74055	36.44332	0.74055	36.44332	0.6360	-54.66836
3690	0.63195	-54.84443	0.7416	36.51681	0.7416	36.51681	0.63195	-54.84443
3710	0.63041	-55.06722	0.74523	36.40548	0.74523	36.40548	0.63041	-55.06722
3730	0.62906	-55.51228	0.74895	36.01953	0.74895	36.01953	0.62906	-55.51228
3750	0.62433	-55.82756	0.74671	35.82078	0.74671	35.82078	0.62433	-55.82756
3770	0.6244	-55.69899	0.75074	35.80109	0.75074	35.80109	0.6244	-55.69899
3790	0.62076	-55.87246	0.75477	35.67234	0.75477	35.67234	0.62076	-55.87246
3810	0.6167	-56.1998	0.75749	35.4386	0.75749	35.4386	0.6167	-56.1998
3830	0.61411	-56.54011	0.75814	35.1993	0.75814	35.1993	0.61411	-56.54011
3850	0.61347	-56.75974	0.75654	35.14917	0.75654	35.14917	0.61347	-56.75974
3870	0.60898	-57.09242	0.76164	35.00513	0.76164	35.00513	0.60898	-57.09242
3890	0.60403	-57.55127	0.76392	34.91339	0.76392	34.91339	0.60403	-57.55127
3910	0.60046	-58.14452	0.76576	34.56555	0.76576	34.56555	0.60046	-58.14452
3930	0.59782	-58.71907	0.76706	34.13169	0.76706	34.13169	0.59782	-58.71907
3950	0.59339	-58.96044	0.76522	34.26045	0.76522	34.26045	0.59339	-58.96044
3970	0.59526	-58.89866	0.77276	34.25189	0.77276	34.25189	0.59526	-58.89866
3990	0.59048	-59.28493	0.77507	33.73681	0.77507	33.73681	0.59048	-59.28493
4010	0.58616	-59.57992	0.7742	33.43609	0.7742	33.43609	0.58616	-59.57992
4030	0.58388	-59.76494	0.77324	33.46342	0.77324	33.46342	0.58388	-59.76494
4050	0.57973	-60.34191	0.77634	33.32526	0.77634	33.32526	0.57973	-60.34191
4070	0.57523	-60.71039	0.78041	33.43341	0.78041	33.43341	0.57523	-60.71039
4090	0.57246	-61.36194	0.78421	32.94817	0.78421	32.94817	0.57246	-61.36194
4110	0.56847	-61.91532	0.78404	32.59093	0.78404	32.59093	0.56847	-61.91532
4130	0.5648	-62.20561	0.78275	32.52264	0.78275	32.52264	0.5648	-62.20561
4150	0.56746	-62.28423	0.78969	32.34383	0.78969	32.34383	0.56746	-62.28423
4170	0.56163	-62.86475	0.79217	32.16397	0.79217	32.16397	0.56163	-62.86475
4190	0.55527	-63.33419	0.79192	31.88332	0.79192	31.88332	0.55527	-63.33419
4210	0.55182	-63.7597	0.79157	31.71841	0.79157	31.71841	0.55182	-63.7597
4230	0.55197	-64.17418	0.79382	31.72142	0.79382	31.72142	0.55197	-64.17418
4250	0.55361	-64.57631	0.8015	31.78015	0.8015	31.78015	0.55361	-64.57631
4270	0.5478	-65.14111	0.79627	31.44329	0.79627	31.44329	0.5478	-65.14111
4290	0.54826	-65.40958	0.79966	31.27115	0.79966	31.27115	0.54826	-65.40958
4310	0.54711	-65.75935	0.80061	31.07571	0.80061	31.07571	0.54711	-65.75935
4330	0.54337	-66.17027	0.79816	30.87747	0.79816	30.87747	0.54337	-66.17027
4350	0.54293	-66.22439	0.80141	30.90538	0.80141	30.90538	0.54293	-66.22439
4370	0.53984	-66.62161	0.8064	30.5089	0.8064	30.5089	0.53984	-66.62161
4390	0.53642	-66.85758	0.80601	30.29957	0.80601	30.29957	0.53642	-66.85758
4410	0.53401	-67.36009	0.80706	30.0865	0.80706	30.0865	0.53401	-67.36009
4430	0.5326	-68.0146	0.81097	29.90385	0.81097	29.90385	0.5326	-68.0146
4450	0.53085	-68.16434	0.81382	30.01084	0.81382	30.01084	0.53085	-68.16434
4470	0.53125	-68.20983	0.81593	29.73177	0.81593	29.73177	0.53125	-68.20983
4490	0.52948	-68.499	0.81646	29.43186	0.81646	29.43186	0.52948	-68.499
4510	0.52429	-68.75943	0.8147	29.31053	0.8147	29.31053	0.52429	-68.75943
4530	0.51802	-68.9457	0.81398	29.37311	0.81398	29.37311	0.51802	-68.9457
4550	0.51666	-69.23937	0.82167	29.43078	0.82167	29.43078	0.51666	-69.23937
4570	0.51311	-70.07779	0.82082	28.83248	0.82082	28.83248	0.51311	-70.07779
4590	0.50791	-70.41643	0.8211	28.64963	0.8211	28.64963	0.50791	-70.41643
4610	0.50603	-70.82878	0.82456	28.64381	0.82456	28.64381	0.50603	-70.82878
4630	0.50678	-71.43843	0.82865	28.57482	0.82865	28.57482	0.50678	-71.43843
4650	0.50379	-71.91901	0.82622	28.20071	0.82622	28.20071	0.50379	-71.91901
4670	0.5030	-71.79024	0.82712	28.3593	0.82712	28.3593	0.5030	-71.79024
4690	0.50134	-71.87597	0.82908	28.3058	0.82908	28.3058	0.50134	-71.87597
4710	0.49816	-72.15344	0.82867	28.08858	0.82867	28.08858	0.49816	-72.15344
4730	0.4931	-72.47642	0.82703	27.79263	0.82703	27.79263	0.4931	-72.47642
4750	0.48611	-72.57517	0.8298	27.53949	0.8298	27.53949	0.48611	-72.57517
4770	0.48408	-73.1005	0.8327	27.50007	0.8327	27.50007	0.48408	-73.1005
4790	0.48307	-73.88148	0.83415	27.3736	0.83415	27.3736	0.48307	-73.88148
4810	0.48178	-74.81375	0.83537	27.08953	0.83537	27.08953	0.48178	-74.81375
4830	0.48018	-75.46497	0.83612	26.818	0.83612	26.818	0.48018	-75.46497
4850	0.47946	-75.07481	0.83467	26.96978	0.83467	26.96978	0.47946	-75.07481
4870	0.47937	-75.23779	0.83618	26.69984	0.83618	26.69984	0.47937	-75.23779
4890	0.47828	-75.55141	0.83684	26.50229	0.83684	26.50229	0.47828	-75.55141
4910	0.47383	-75.79325	0.83817	26.31374	0.83817	26.31374	0.47383	-75.79325
4930	0.46866	-75.9812	0.84075	26.14879	0.84075	26.14879	0.46866	-75.9812
4950	0.47047	-76.37344	0.8442	26.10006	0.8442	26.10006	0.47047	-76.37344
4970	0.46369	-76.6912	0.83749	25.78194	0.83749	25.78194	0.46369	-76.6912
4990	0.46258	-77.03182	0.84203	25.81633	0.84203	25.81633	0.46258	-77.03182
5010	0.46162	-77.70409	0.84705	25.61125	0.84705	25.61125	0.46162	-77.70409
5030	0.45941	-78.37024	0.84793	25.24704	0.84793	25.24704	0.45941	-78.37024
5050	0.45866	-78.04596	0.84613	25.47632	0.84613	25.47632	0.45866	-78.04596
5070	0.46044	-78.05082	0.84893	25.3827	0.84893	25.3827	0.46044	-78.05082
5090	0.46006	-78.65583	0.85309	25.0602	0.85309	25.0602	0.46006	-78.65583
5110	0.45534	-78.91501	0.8517	24.74537	0.8517	24.74537	0.45534	-78.91501
5130	0.4487	-78.64625	0.84712	24.53181	0.84712	24.53181	0.4487	-78.64625
5150	0.44716	-78.43125	0.85097	24.37015	0.85097	24.37015	0.44716	-78.43125
5170	0.44844	-79.12217	0.85254	24.53859	0.85254	24.53859	0.44844	-79.12217
5190	0.44277	-79.92952	0.85538	24.25328	0.85538	24.25328	0.44277	-79.92952
5210	0.43792	-80.27732	0.8557	24.08169	0.8557	24.08169	0.43792	-80.27732
5230	0.43807	-80.19066	0.85532	24.13803	0.85532	24.13803	0.43807	-80.19066
5250	0.44384	-80.29577	0.86169	24.08322	0.86169	24.08322	0.44384	-80.29577
5270	0.44106	-80.91177	0.85952	23.50381	0.85952	23.50381	0.44106	-80.91177
5290	0.43572	-80.48698	0.85714	23.80869	0.85714	23.80869	0.43572	-80.48698
5310	0.43322	-80.02757	0.86069	23.71788	0.86069	23.71788	0.43322	-80.02757
5330	0.43297	-80.14254	0.86602	23.12451	0.86602	23.12451	0.43297	-80.14254
5350	0.42832	-81.04372	0.85861	23.09484	0.85861	23.09484	0.42832	-81.04372
5370	0.41814	-81.23817	0.85873	23.19752	0.85873	23.19752	0.41814	-81.23817
5390	0.41866	-81.53103	0.86215	23.14819	0.86215	23.14819	0.41866	-81.53103
5410	0.41993	-81.90788	0.8640	22.87583	0.8640	22.87583	0.41993	-81.90788
