! 500R07S0R5BV4
! Data taken April 11, 2003
! Data taken on a HP 8720C VNA using a series-through test fixture and TRL* de-embedding
#	mhz	s	ma	r	50
0	0.99999	0.00000	0.00000	90.00000	0.00000	90.00000	0.99999	0.00000
50	0.99999	-0.36725	0.01891	90.71067	0.01891	90.71067	0.99999	-0.36725
70	0.99999	-1.88345	0.0251	89.36244	0.0251	89.36244	0.99999	-1.88345
90	0.99999	-1.65136	0.03235	87.24889	0.03235	87.24889	0.99999	-1.65136
110	0.99999	-2.13723	0.0411	86.30065	0.0411	86.30065	0.99999	-2.13723
130	0.99999	-3.42887	0.04742	86.67566	0.04742	86.67566	0.99999	-3.42887
150	0.99999	-3.23562	0.05459	86.75921	0.05459	86.75921	0.99999	-3.23562
170	0.99999	-3.81512	0.06227	86.41346	0.06227	86.41346	0.99999	-3.81512
190	0.99999	-4.2205	0.06935	85.75492	0.06935	85.75492	0.99999	-4.2205
210	0.99999	-4.30906	0.07641	85.4942	0.07641	85.4942	0.99999	-4.30906
230	0.99999	-4.45175	0.08366	85.38295	0.08366	85.38295	0.99999	-4.45175
250	0.99999	-5.53319	0.09092	84.21382	0.09092	84.21382	0.99999	-5.53319
270	0.99838	-5.93181	0.09736	83.91617	0.09736	83.91617	0.99838	-5.93181
290	0.99999	-6.04249	0.10476	83.73312	0.10476	83.73312	0.99999	-6.04249
310	0.99999	-6.61291	0.11209	83.2218	0.11209	83.2218	0.99999	-6.61291
330	0.99746	-7.47709	0.11891	82.561	0.11891	82.561	0.99746	-7.47709
350	0.99013	-7.55543	0.12533	82.54619	0.12533	82.54619	0.99013	-7.55543
370	0.99611	-8.40781	0.1338	81.93347	0.1338	81.93347	0.99611	-8.40781
390	0.99322	-9.0068	0.14054	81.20104	0.14054	81.20104	0.99322	-9.0068
410	0.99517	-9.24129	0.14715	80.85807	0.14715	80.85807	0.99517	-9.24129
430	0.99999	-9.40927	0.15431	80.68162	0.15431	80.68162	0.99999	-9.40927
450	0.99797	-10.21787	0.16185	79.71665	0.16185	79.71665	0.99797	-10.21787
470	0.99154	-10.42724	0.16744	79.58311	0.16744	79.58311	0.99154	-10.42724
490	0.99308	-9.65016	0.16578	79.13382	0.16578	79.13382	0.99308	-9.65016
510	0.99651	-9.04957	0.16706	78.34066	0.16706	78.34066	0.99651	-9.04957
530	0.99734	-8.95876	0.1736	77.49877	0.1736	77.49877	0.99734	-8.95876
550	0.99268	-8.88142	0.17985	77.22655	0.17985	77.22655	0.99268	-8.88142
570	0.9868	-9.15336	0.1865	76.8546	0.1865	76.8546	0.9868	-9.15336
590	0.98702	-9.34743	0.19323	76.51391	0.19323	76.51391	0.98702	-9.34743
610	0.98734	-9.77195	0.19981	76.29177	0.19981	76.29177	0.98734	-9.77195
630	0.98481	-10.42579	0.20616	76.11983	0.20616	76.11983	0.98481	-10.42579
650	0.9796	-10.99838	0.21242	75.77409	0.21242	75.77409	0.9796	-10.99838
670	0.97755	-10.76805	0.21753	75.63509	0.21753	75.63509	0.97755	-10.76805
690	0.98264	-11.24954	0.22375	75.03438	0.22375	75.03438	0.98264	-11.24954
710	0.98303	-11.71625	0.22953	74.4029	0.22953	74.4029	0.98303	-11.71625
730	0.97719	-11.88548	0.23533	73.97826	0.23533	73.97826	0.97719	-11.88548
750	0.97381	-11.91844	0.24362	73.80468	0.24362	73.80468	0.97381	-11.91844
770	0.97008	-12.30466	0.24868	73.11476	0.24868	73.11476	0.97008	-12.30466
790	0.96721	-12.74049	0.25483	72.80305	0.25483	72.80305	0.96721	-12.74049
810	0.9671	-13.22047	0.26183	72.38944	0.26183	72.38944	0.9671	-13.22047
830	0.96767	-13.70131	0.26869	71.8392	0.26869	71.8392	0.96767	-13.70131
850	0.96282	-14.10187	0.27366	71.56303	0.27366	71.56303	0.96282	-14.10187
870	0.96069	-13.89955	0.27991	71.75402	0.27991	71.75402	0.96069	-13.89955
890	0.96259	-14.47489	0.28672	71.099	0.28672	71.099	0.96259	-14.47489
910	0.95923	-14.92623	0.29217	70.46351	0.29217	70.46351	0.95923	-14.92623
930	0.95194	-15.05749	0.29683	70.17249	0.29683	70.17249	0.95194	-15.05749
950	0.95263	-15.37811	0.30375	70.01025	0.30375	70.01025	0.95263	-15.37811
970	0.95019	-16.2427	0.31153	69.53006	0.31153	69.53006	0.95019	-16.2427
990	0.94626	-16.73316	0.31663	69.06824	0.31663	69.06824	0.94626	-16.73316
1010	0.94422	-17.13134	0.3221	68.69384	0.3221	68.69384	0.94422	-17.13134
1030	0.94503	-17.46409	0.32843	68.41065	0.32843	68.41065	0.94503	-17.46409
1050	0.94721	-17.50324	0.33355	68.15722	0.33355	68.15722	0.94721	-17.50324
1070	0.94804	-17.69627	0.33906	67.98011	0.33906	67.98011	0.94804	-17.69627
1090	0.94361	-17.91468	0.34402	67.37865	0.34402	67.37865	0.94361	-17.91468
1110	0.93786	-18.02933	0.34971	66.83619	0.34971	66.83619	0.93786	-18.02933
1130	0.9323	-18.15692	0.35635	66.43703	0.35635	66.43703	0.9323	-18.15692
1150	0.92606	-18.66005	0.3632	65.86643	0.3632	65.86643	0.92606	-18.66005
1170	0.91969	-19.32173	0.36772	65.72797	0.36772	65.72797	0.91969	-19.32173
1190	0.91816	-20.12795	0.37475	65.53416	0.37475	65.53416	0.91816	-20.12795
1210	0.91627	-20.82188	0.38051	65.14257	0.38051	65.14257	0.91627	-20.82188
1230	0.91385	-21.25573	0.38449	64.75244	0.38449	64.75244	0.91385	-21.25573
1250	0.91571	-21.3908	0.38949	64.90473	0.38949	64.90473	0.91571	-21.3908
1270	0.92071	-22.14332	0.39644	64.22224	0.39644	64.22224	0.92071	-22.14332
1290	0.91618	-22.54536	0.40055	63.67578	0.40055	63.67578	0.91618	-22.54536
1310	0.91103	-22.56409	0.4049	63.4337	0.4049	63.4337	0.91103	-22.56409
1330	0.90986	-22.505	0.41091	63.25009	0.41091	63.25009	0.90986	-22.505
1350	0.91305	-23.01201	0.41833	62.46475	0.41833	62.46475	0.91305	-23.01201
1370	0.90277	-23.64791	0.42184	62.13385	0.42184	62.13385	0.90277	-23.64791
1390	0.90058	-23.88677	0.42805	61.85942	0.42805	61.85942	0.90058	-23.88677
1410	0.89885	-24.27767	0.43308	61.50952	0.43308	61.50952	0.89885	-24.27767
1430	0.89596	-24.84733	0.43697	61.18622	0.43697	61.18622	0.89596	-24.84733
1450	0.89632	-25.1001	0.4436	61.22564	0.4436	61.22564	0.89632	-25.1001
1470	0.89476	-25.49983	0.44806	60.57978	0.44806	60.57978	0.89476	-25.49983
1490	0.8917	-25.706	0.45217	60.12786	0.45217	60.12786	0.8917	-25.706
1510	0.88801	-25.72672	0.45687	59.91389	0.45687	59.91389	0.88801	-25.72672
1530	0.88488	-25.74188	0.46226	59.74793	0.46226	59.74793	0.88488	-25.74188
1550	0.88378	-26.10318	0.4677	59.20615	0.4677	59.20615	0.88378	-26.10318
1570	0.87506	-26.82385	0.47111	58.69561	0.47111	58.69561	0.87506	-26.82385
1590	0.86652	-27.10738	0.4761	58.18611	0.4761	58.18611	0.86652	-27.10738
1610	0.86134	-27.47745	0.48202	57.81694	0.48202	57.81694	0.86134	-27.47745
1630	0.85992	-28.05983	0.48809	57.57817	0.48809	57.57817	0.85992	-28.05983
1650	0.85993	-28.58239	0.4934	57.31055	0.4934	57.31055	0.85993	-28.58239
1670	0.85518	-29.19849	0.49617	56.7771	0.49617	56.7771	0.85518	-29.19849
1690	0.85222	-29.339	0.50138	56.54383	0.50138	56.54383	0.85222	-29.339
1710	0.84947	-29.66462	0.50793	56.15782	0.50793	56.15782	0.84947	-29.66462
1730	0.84554	-30.14418	0.51409	55.64773	0.51409	55.64773	0.84554	-30.14418
1750	0.83925	-30.05473	0.51761	55.52384	0.51761	55.52384	0.83925	-30.05473
1770	0.83872	-30.33424	0.52325	55.32892	0.52325	55.32892	0.83872	-30.33424
1790	0.83565	-30.95442	0.52717	54.91469	0.52717	54.91469	0.83565	-30.95442
1810	0.83154	-31.56378	0.53104	54.57096	0.53104	54.57096	0.83154	-31.56378
1830	0.82864	-32.06721	0.53601	54.32946	0.53601	54.32946	0.82864	-32.06721
1850	0.82997	-32.62599	0.54276	53.96386	0.54276	53.96386	0.82997	-32.62599
1870	0.82597	-33.1965	0.54794	53.45986	0.54794	53.45986	0.82597	-33.1965
1890	0.82267	-33.32078	0.5499	53.48306	0.5499	53.48306	0.82267	-33.32078
1910	0.82014	-33.44575	0.55366	53.39981	0.55366	53.39981	0.82014	-33.44575
1930	0.81757	-33.78568	0.5592	52.99544	0.5592	52.99544	0.81757	-33.78568
1950	0.81327	-34.32216	0.56154	52.47431	0.56154	52.47431	0.81327	-34.32216
1970	0.80774	-34.6075	0.56785	52.05656	0.56785	52.05656	0.80774	-34.6075
1990	0.80481	-35.04104	0.5711	51.7894	0.5711	51.7894	0.80481	-35.04104
2010	0.8031	-35.51686	0.57483	51.50783	0.57483	51.50783	0.8031	-35.51686
2030	0.80095	-35.96918	0.57996	51.12779	0.57996	51.12779	0.80095	-35.96918
2050	0.79635	-36.37235	0.58474	50.64621	0.58474	50.64621	0.79635	-36.37235
2070	0.79739	-36.33232	0.5881	50.72696	0.5881	50.72696	0.79739	-36.33232
2090	0.79452	-36.63974	0.59321	50.46081	0.59321	50.46081	0.79452	-36.63974
2110	0.79032	-37.02866	0.59812	50.04863	0.59812	50.04863	0.79032	-37.02866
2130	0.78572	-37.3441	0.60191	49.61701	0.60191	49.61701	0.78572	-37.3441
2150	0.77989	-37.54207	0.60463	49.21834	0.60463	49.21834	0.77989	-37.54207
2170	0.7761	-37.68938	0.60954	48.9684	0.60954	48.9684	0.7761	-37.68938
2190	0.77337	-38.09073	0.61342	48.62926	0.61342	48.62926	0.77337	-38.09073
2210	0.76938	-38.58623	0.6182	48.40984	0.6182	48.40984	0.76938	-38.58623
2230	0.76457	-39.13983	0.62414	48.18548	0.62414	48.18548	0.76457	-39.13983
2250	0.76218	-39.83935	0.6298	47.49791	0.6298	47.49791	0.76218	-39.83935
2270	0.75625	-39.76582	0.62933	47.47934	0.62933	47.47934	0.75625	-39.76582
2290	0.75547	-40.05864	0.63376	47.48149	0.63376	47.48149	0.75547	-40.05864
2310	0.75515	-40.55131	0.63818	47.07719	0.63818	47.07719	0.75515	-40.55131
2330	0.75135	-40.97487	0.64051	46.42633	0.64051	46.42633	0.75135	-40.97487
2350	0.74084	-40.9579	0.64158	46.27586	0.64158	46.27586	0.74084	-40.9579
2370	0.74148	-41.21537	0.6493	46.1316	0.6493	46.1316	0.74148	-41.21537
2390	0.73778	-41.73626	0.65412	45.7243	0.65412	45.7243	0.73778	-41.73626
2410	0.73219	-42.32425	0.65791	45.37965	0.65791	45.37965	0.73219	-42.32425
2430	0.72705	-42.82571	0.6612	45.21584	0.6612	45.21584	0.72705	-42.82571
2450	0.72463	-43.12961	0.66324	45.14354	0.66324	45.14354	0.72463	-43.12961
2470	0.72515	-43.37656	0.67173	44.70578	0.67173	44.70578	0.72515	-43.37656
2490	0.72203	-43.83633	0.67178	44.41693	0.67178	44.41693	0.72203	-43.83633
2510	0.71859	-44.18567	0.67324	44.11774	0.67324	44.11774	0.71859	-44.18567
2530	0.71598	-44.38447	0.67814	43.73938	0.67814	43.73938	0.71598	-44.38447
2550	0.71323	-44.67583	0.68078	43.30346	0.68078	43.30346	0.71323	-44.67583
2570	0.70704	-44.8188	0.68398	43.09319	0.68398	43.09319	0.70704	-44.8188
2590	0.70159	-45.01611	0.6881	42.85649	0.6881	42.85649	0.70159	-45.01611
2610	0.69666	-45.40679	0.69283	42.54363	0.69283	42.54363	0.69666	-45.40679
2630	0.6925	-45.90947	0.69686	42.16371	0.69686	42.16371	0.6925	-45.90947
2650	0.68987	-46.22238	0.69789	41.7846	0.69789	41.7846	0.68987	-46.22238
2670	0.68945	-46.53317	0.70637	41.58538	0.70637	41.58538	0.68945	-46.53317
2690	0.68776	-46.89125	0.70906	41.3959	0.70906	41.3959	0.68776	-46.89125
2710	0.68357	-47.3007	0.7092	41.16581	0.7092	41.16581	0.68357	-47.3007
2730	0.67792	-47.55228	0.71059	40.89363	0.71059	40.89363	0.67792	-47.55228
2750	0.67412	-47.22346	0.71766	40.62666	0.71766	40.62666	0.67412	-47.22346
2770	0.67355	-47.72229	0.71939	40.41667	0.71939	40.41667	0.67355	-47.72229
2790	0.67083	-48.1467	0.72182	40.1464	0.72182	40.1464	0.67083	-48.1467
2810	0.66698	-48.52892	0.72369	39.92	0.72369	39.92	0.66698	-48.52892
2830	0.66268	-48.72864	0.72524	39.72155	0.72524	39.72155	0.66268	-48.72864
2850	0.65821	-48.43297	0.72817	39.41511	0.72817	39.41511	0.65821	-48.43297
2870	0.65603	-49.11367	0.73447	39.21453	0.73447	39.21453	0.65603	-49.11367
2890	0.65088	-49.6498	0.73679	38.81008	0.73679	38.81008	0.65088	-49.6498
2910	0.64698	-50.02894	0.73869	38.49472	0.73869	38.49472	0.64698	-50.02894
2930	0.64547	-50.2611	0.7417	38.3319	0.7417	38.3319	0.64547	-50.2611
2950	0.64446	-50.37872	0.7453	38.15565	0.7453	38.15565	0.64446	-50.37872
2970	0.63934	-50.39325	0.74838	37.80076	0.74838	37.80076	0.63934	-50.39325
2990	0.63527	-50.77262	0.75134	37.44311	0.75134	37.44311	0.63527	-50.77262
3010	0.63094	-51.06443	0.75121	37.2953	0.75121	37.2953	0.63094	-51.06443
3030	0.6271	-51.15166	0.75043	37.28163	0.75043	37.28163	0.6271	-51.15166
3050	0.6266	-51.2526	0.75683	37.03809	0.75683	37.03809	0.6266	-51.2526
3070	0.61958	-51.86951	0.76051	36.4178	0.76051	36.4178	0.61958	-51.86951
3090	0.61351	-52.16678	0.76083	36.22417	0.76083	36.22417	0.61351	-52.16678
3110	0.6105	-52.49094	0.76436	36.09691	0.76436	36.09691	0.6105	-52.49094
3130	0.60988	-52.9678	0.77094	35.83851	0.77094	35.83851	0.60988	-52.9678
3150	0.60818	-53.50242	0.77363	35.41419	0.77363	35.41419	0.60818	-53.50242
3170	0.59995	-53.5995	0.76917	35.55659	0.76917	35.55659	0.59995	-53.5995
3190	0.60065	-53.65686	0.7765	35.37143	0.7765	35.37143	0.60065	-53.65686
3210	0.60063	-53.87695	0.78085	35.02249	0.78085	35.02249	0.60063	-53.87695
3230	0.59627	-54.24193	0.77876	34.66226	0.77876	34.66226	0.59627	-54.24193
3250	0.59	-54.51365	0.77796	34.43189	0.77796	34.43189	0.59	-54.51365
3270	0.58495	-54.51675	0.78375	34.29795	0.78375	34.29795	0.58495	-54.51675
3290	0.58086	-55.0836	0.78573	33.80434	0.78573	33.80434	0.58086	-55.0836
3310	0.57819	-55.54691	0.78761	33.54953	0.78761	33.54953	0.57819	-55.54691
3330	0.57733	-55.76952	0.79128	33.55427	0.79128	33.55427	0.57733	-55.76952
3350	0.57861	-56.1444	0.79679	33.26159	0.79679	33.26159	0.57861	-56.1444
3370	0.57395	-56.45801	0.79862	33.1674	0.79862	33.1674	0.57395	-56.45801
3390	0.57199	-56.49778	0.79714	33.06501	0.79714	33.06501	0.57199	-56.49778
3410	0.57013	-56.69588	0.79743	32.81633	0.79743	32.81633	0.57013	-56.69588
3430	0.56693	-57.09895	0.80113	32.45383	0.80113	32.45383	0.56693	-57.09895
3450	0.56217	-57.36803	0.80645	32.18051	0.80645	32.18051	0.56217	-57.36803
3470	0.55384	-57.65337	0.80173	32.00485	0.80173	32.00485	0.55384	-57.65337
3490	0.55158	-57.79167	0.80579	31.9527	0.80579	31.9527	0.55158	-57.79167
3510	0.55067	-58.14689	0.81151	31.73901	0.81151	31.73901	0.55067	-58.14689
3530	0.54832	-58.68989	0.81369	31.38053	0.81369	31.38053	0.54832	-58.68989
3550	0.54368	-58.99846	0.80907	31.19578	0.80907	31.19578	0.54368	-58.99846
3570	0.54416	-59.10207	0.81491	31.01956	0.81491	31.01956	0.54416	-59.10207
3590	0.54231	-59.56084	0.81652	30.70054	0.81652	30.70054	0.54231	-59.56084
3610	0.5386	-59.79498	0.81754	30.52271	0.81754	30.52271	0.5386	-59.79498
3630	0.5345	-59.84939	0.81964	30.44323	0.81964	30.44323	0.5345	-59.84939
3650	0.53247	-60.3936	0.82253	30.0924	0.82253	30.0924	0.53247	-60.3936
3670	0.5268	-60.81254	0.82195	29.7899	0.82195	29.7899	0.5268	-60.81254
3690	0.52362	-60.96048	0.8245	29.67783	0.8245	29.67783	0.52362	-60.96048
3710	0.52221	-61.34352	0.8272	29.47857	0.8272	29.47857	0.52221	-61.34352
3730	0.52063	-61.97295	0.82822	29.13995	0.82822	29.13995	0.52063	-61.97295
3750	0.51573	-62.36518	0.82689	28.83525	0.82689	28.83525	0.51573	-62.36518
3770	0.51545	-62.19099	0.83094	28.99277	0.83094	28.99277	0.51545	-62.19099
3790	0.51587	-62.77225	0.8361	28.61025	0.8361	28.61025	0.51587	-62.77225
3810	0.51302	-63.19709	0.83743	28.2983	0.83743	28.2983	0.51302	-63.19709
3830	0.50763	-63.27305	0.83599	28.24898	0.83599	28.24898	0.50763	-63.27305
3850	0.5052	-63.52705	0.83883	28.23581	0.83883	28.23581	0.5052	-63.52705
3870	0.49911	-63.7243	0.83784	28.26469	0.83784	28.26469	0.49911	-63.7243
3890	0.49847	-64.14675	0.84123	28.02088	0.84123	28.02088	0.49847	-64.14675
3910	0.49797	-64.65826	0.84421	27.54245	0.84421	27.54245	0.49797	-64.65826
3930	0.4956	-65.0548	0.8449	27.11743	0.8449	27.11743	0.4956	-65.0548
3950	0.49266	-65.06448	0.8443	27.28378	0.8443	27.28378	0.49266	-65.06448
3970	0.49172	-65.31652	0.85092	27.20922	0.85092	27.20922	0.49172	-65.31652
3990	0.48972	-65.94461	0.85145	26.8285	0.85145	26.8285	0.48972	-65.94461
4010	0.48629	-66.33574	0.85051	26.54739	0.85051	26.54739	0.48629	-66.33574
4030	0.48212	-66.52852	0.85041	26.42423	0.85041	26.42423	0.48212	-66.52852
4050	0.47896	-67.21318	0.8511	26.16998	0.8511	26.16998	0.47896	-67.21318
4070	0.47726	-67.30094	0.85427	25.99292	0.85427	25.99292	0.47726	-67.30094
4090	0.47378	-67.71657	0.85645	25.60486	0.85645	25.60486	0.47378	-67.71657
4110	0.47048	-68.23219	0.85662	25.50845	0.85662	25.50845	0.47048	-68.23219
4130	0.46837	-68.58253	0.85675	25.67912	0.85675	25.67912	0.46837	-68.58253
4150	0.46753	-68.46493	0.86178	25.56506	0.86178	25.56506	0.46753	-68.46493
4170	0.46658	-69.25622	0.86619	24.95543	0.86619	24.95543	0.46658	-69.25622
4190	0.46215	-69.6581	0.86502	24.72554	0.86502	24.72554	0.46215	-69.6581
4210	0.46028	-69.93999	0.86395	24.65676	0.86395	24.65676	0.46028	-69.93999
4230	0.46039	-70.28218	0.86488	24.55575	0.86488	24.55575	0.46039	-70.28218
4250	0.45535	-70.77574	0.86592	24.25445	0.86592	24.25445	0.45535	-70.77574
4270	0.45239	-70.89397	0.86584	24.39883	0.86584	24.39883	0.45239	-70.89397
4290	0.45074	-71.31803	0.86821	24.14387	0.86821	24.14387	0.45074	-71.31803
4310	0.4485	-71.8491	0.86972	23.89626	0.86972	23.89626	0.4485	-71.8491
4330	0.44582	-72.31915	0.87043	23.78345	0.87043	23.78345	0.44582	-72.31915
4350	0.44497	-72.59089	0.87383	23.65367	0.87383	23.65367	0.44497	-72.59089
4370	0.44338	-73.10101	0.87358	23.15503	0.87358	23.15503	0.44338	-73.10101
4390	0.44129	-73.48567	0.87156	23.03538	0.87156	23.03538	0.44129	-73.48567
4410	0.44044	-73.6264	0.87645	22.83266	0.87645	22.83266	0.44044	-73.6264
4430	0.44017	-73.6735	0.88398	22.55303	0.88398	22.55303	0.44017	-73.6735
4450	0.43739	-74.04609	0.87696	22.67078	0.87696	22.67078	0.43739	-74.04609
4470	0.43483	-74.4014	0.87935	22.50605	0.87935	22.50605	0.43483	-74.4014
4490	0.43192	-74.89251	0.87932	22.18782	0.87932	22.18782	0.43192	-74.89251
4510	0.42876	-75.12935	0.87784	22.07066	0.87784	22.07066	0.42876	-75.12935
4530	0.42678	-75.18442	0.87766	22.11785	0.87766	22.11785	0.42678	-75.18442
4550	0.42874	-75.59283	0.88327	21.9014	0.88327	21.9014	0.42874	-75.59283
4570	0.42487	-76.15608	0.88193	21.44132	0.88193	21.44132	0.42487	-76.15608
4590	0.42224	-76.21483	0.88275	21.54213	0.88275	21.54213	0.42224	-76.21483
4610	0.42149	-76.19774	0.88657	21.6147	0.88657	21.6147	0.42149	-76.19774
4630	0.42104	-76.44787	0.88988	21.38078	0.88988	21.38078	0.42104	-76.44787
4650	0.41707	-77.22268	0.88479	20.87293	0.88479	20.87293	0.41707	-77.22268
4670	0.41194	-77.35037	0.88346	20.87859	0.88346	20.87859	0.41194	-77.35037
4690	0.41143	-77.64875	0.88578	20.65049	0.88578	20.65049	0.41143	-77.64875
4710	0.41168	-78.08431	0.8883	20.43752	0.8883	20.43752	0.41168	-78.08431
4730	0.41043	-78.50402	0.889	20.31981	0.889	20.31981	0.41043	-78.50402
4750	0.407	-78.6353	0.88733	20.2087	0.88733	20.2087	0.407	-78.6353
4770	0.4065	-78.58967	0.89094	20.2303	0.89094	20.2303	0.4065	-78.58967
4790	0.40627	-78.86872	0.89309	20.08615	0.89309	20.08615	0.40627	-78.86872
4810	0.40453	-79.1388	0.89272	19.80777	0.89272	19.80777	0.40453	-79.1388
4830	0.40161	-79.25688	0.89149	19.54052	0.89149	19.54052	0.40161	-79.25688
4850	0.39989	-79.27062	0.89384	19.54355	0.89384	19.54355	0.39989	-79.27062
4870	0.39976	-79.71729	0.89966	19.34002	0.89966	19.34002	0.39976	-79.71729
4890	0.39642	-80.32616	0.89623	18.93638	0.89623	18.93638	0.39642	-80.32616
4910	0.39451	-80.42842	0.89238	18.80856	0.89238	18.80856	0.39451	-80.42842
4930	0.39507	-80.25197	0.89216	18.87082	0.89216	18.87082	0.39507	-80.25197
4950	0.39552	-80.92142	0.89481	18.47573	0.89481	18.47573	0.39552	-80.92142
4970	0.39252	-80.97602	0.89106	18.50671	0.89106	18.50671	0.39252	-80.97602
4990	0.39129	-80.88611	0.89376	18.42677	0.89376	18.42677	0.39129	-80.88611
5010	0.39067	-80.96153	0.89696	18.19944	0.89696	18.19944	0.39067	-80.96153
5030	0.38928	-81.25003	0.89644	17.95315	0.89644	17.95315	0.38928	-81.25003
5050	0.3855	-81.5373	0.88971	17.98127	0.88971	17.98127	0.3855	-81.5373
5070	0.38534	-81.67322	0.89784	17.80348	0.89784	17.80348	0.38534	-81.67322
5090	0.38664	-81.6936	0.89966	17.67772	0.89966	17.67772	0.38664	-81.6936
5110	0.38658	-81.75752	0.8999	17.38951	0.8999	17.38951	0.38658	-81.75752
5130	0.38441	-81.92769	0.9001	17.14868	0.9001	17.14868	0.38441	-81.92769
5150	0.38139	-82.17041	0.89858	17.58944	0.89858	17.58944	0.38139	-82.17041
5170	0.38213	-82.18743	0.90046	17.14825	0.90046	17.14825	0.38213	-82.18743
5190	0.3817	-82.49689	0.89898	16.85376	0.89898	16.85376	0.3817	-82.49689
5210	0.37954	-82.26714	0.90108	16.76958	0.90108	16.76958	0.37954	-82.26714
5230	0.37744	-81.63897	0.90538	16.75768	0.90538	16.75768	0.37744	-81.63897
5250	0.37958	-81.7256	0.90223	16.47835	0.90223	16.47835	0.37958	-81.7256
5270	0.37476	-82.6047	0.90166	16.23358	0.90166	16.23358	0.37476	-82.6047
5290	0.37012	-82.48084	0.89951	16.41421	0.89951	16.41421	0.37012	-82.48084
5310	0.37081	-82.18677	0.90252	16.50012	0.90252	16.50012	0.37081	-82.18677
5330	0.37464	-82.23082	0.90741	16.24675	0.90741	16.24675	0.37464	-82.23082
5350	0.37202	-82.79686	0.90079	15.68516	0.90079	15.68516	0.37202	-82.79686
5370	0.36672	-82.24776	0.90004	15.93776	0.90004	15.93776	0.36672	-82.24776
5390	0.36552	-81.99576	0.90575	15.96634	0.90575	15.96634	0.36552	-81.99576
