! 500R07S0R6BV4
! Data taken April 11, 2003
! Data taken on a HP 8720C VNA using a series-through test fixture and TRL* de-embedding
#	mhz	s	ma	r	50
0	0.99999	0.00000	0.00000	90.00000	0.00000	90.00000	0.99999	0.00000
50	0.99999	-0.06063	0.01812	83.38281	0.01812	83.38281	0.99999	-0.06063
70	0.99999	-1.88358	0.0277	84.2133	0.0277	84.2133	0.99999	-1.88358
90	0.99858	-1.76475	0.03568	86.83287	0.03568	86.83287	0.99858	-1.76475
110	0.99999	-2.32047	0.0434	87.69329	0.0434	87.69329	0.99999	-2.32047
130	0.99999	-3.70386	0.05107	86.47245	0.05107	86.47245	0.99999	-3.70386
150	0.99795	-3.60475	0.05773	86.07435	0.05773	86.07435	0.99795	-3.60475
170	0.99999	-4.1746	0.06615	86.42347	0.06615	86.42347	0.99999	-4.1746
190	0.99999	-4.67808	0.07376	85.60617	0.07376	85.60617	0.99999	-4.67808
210	0.99999	-4.8612	0.0815	85.06973	0.0815	85.06973	0.99999	-4.8612
230	0.99999	-5.03891	0.08966	84.91362	0.08966	84.91362	0.99999	-5.03891
250	0.99999	-6.09516	0.09783	83.88949	0.09783	83.88949	0.99999	-6.09516
270	0.99505	-6.29103	0.10424	83.76887	0.10424	83.76887	0.99505	-6.29103
290	0.99927	-6.51531	0.11255	83.65746	0.11255	83.65746	0.99927	-6.51531
310	0.99999	-7.12942	0.12058	82.99911	0.12058	82.99911	0.99999	-7.12942
330	0.99568	-7.96467	0.12759	82.07493	0.12759	82.07493	0.99568	-7.96467
350	0.98443	-8.32226	0.13436	82.00333	0.13436	82.00333	0.98443	-8.32226
370	0.99398	-9.06998	0.14324	81.20707	0.14324	81.20707	0.99398	-9.06998
390	0.99305	-9.69314	0.15044	80.6571	0.15044	80.6571	0.99305	-9.69314
410	0.99342	-10.02619	0.15767	80.3194	0.15767	80.3194	0.99342	-10.02619
430	0.9972	-10.30327	0.16549	79.93995	0.16549	79.93995	0.9972	-10.30327
450	0.99681	-11.15822	0.17327	79.04482	0.17327	79.04482	0.99681	-11.15822
470	0.98937	-11.30404	0.18041	78.6112	0.18041	78.6112	0.98937	-11.30404
490	0.99095	-10.43794	0.17798	78.38229	0.17798	78.38229	0.99095	-10.43794
510	0.99402	-9.85698	0.17891	77.74703	0.17891	77.74703	0.99402	-9.85698
530	0.9938	-9.86122	0.18611	76.94574	0.18611	76.94574	0.9938	-9.86122
550	0.98822	-9.75379	0.19244	77.07008	0.19244	77.07008	0.98822	-9.75379
570	0.98416	-9.92154	0.19905	76.32194	0.19905	76.32194	0.98416	-9.92154
590	0.98585	-10.13884	0.20642	75.73749	0.20642	75.73749	0.98585	-10.13884
610	0.98534	-10.58746	0.21385	75.43619	0.21385	75.43619	0.98534	-10.58746
630	0.98021	-11.27442	0.22089	75.1846	0.22089	75.1846	0.98021	-11.27442
650	0.97354	-12.03204	0.22731	74.39642	0.22731	74.39642	0.97354	-12.03204
670	0.97387	-11.8194	0.23314	74.56197	0.23314	74.56197	0.97387	-11.8194
690	0.97863	-12.15308	0.23982	74.04814	0.23982	74.04814	0.97863	-12.15308
710	0.97881	-12.59762	0.24573	73.40756	0.24573	73.40756	0.97881	-12.59762
730	0.97325	-12.92054	0.25134	72.94264	0.25134	72.94264	0.97325	-12.92054
750	0.96866	-13.0923	0.25915	72.70555	0.25915	72.70555	0.96866	-13.0923
770	0.96495	-13.39416	0.26554	71.96205	0.26554	71.96205	0.96495	-13.39416
790	0.9627	-13.96939	0.27259	71.5288	0.27259	71.5288	0.9627	-13.96939
810	0.96283	-14.53448	0.28007	71.22691	0.28007	71.22691	0.96283	-14.53448
830	0.96311	-14.94456	0.28688	70.89784	0.28688	70.89784	0.96311	-14.94456
850	0.95811	-15.19334	0.29108	70.40335	0.29108	70.40335	0.95811	-15.19334
870	0.95607	-15.12336	0.29813	70.46758	0.29813	70.46758	0.95607	-15.12336
890	0.95692	-15.74935	0.30586	69.74708	0.30586	69.74708	0.95692	-15.74935
910	0.95201	-16.20362	0.31183	69.05377	0.31183	69.05377	0.95201	-16.20362
930	0.94335	-16.33385	0.31655	68.74341	0.31655	68.74341	0.94335	-16.33385
950	0.94362	-16.70315	0.32342	68.71562	0.32342	68.71562	0.94362	-16.70315
970	0.94129	-17.72886	0.33147	68.26305	0.33147	68.26305	0.94129	-17.72886
990	0.93842	-18.24411	0.33763	67.95133	0.33763	67.95133	0.93842	-18.24411
1010	0.93686	-18.57814	0.34312	67.55727	0.34312	67.55727	0.93686	-18.57814
1030	0.9372	-18.84531	0.34886	67.08098	0.34886	67.08098	0.9372	-18.84531
1050	0.93876	-18.94503	0.35541	66.74585	0.35541	66.74585	0.93876	-18.94503
1070	0.94001	-19.29532	0.36071	66.47067	0.36071	66.47067	0.94001	-19.29532
1090	0.93332	-19.49902	0.36611	65.77314	0.36611	65.77314	0.93332	-19.49902
1110	0.92684	-19.64619	0.37213	65.25259	0.37213	65.25259	0.92684	-19.64619
1130	0.92253	-19.90645	0.37868	64.94076	0.37868	64.94076	0.92253	-19.90645
1150	0.91618	-20.52902	0.38517	64.30186	0.38517	64.30186	0.91618	-20.52902
1170	0.90906	-21.06909	0.39109	64.19954	0.39109	64.19954	0.90906	-21.06909
1190	0.90716	-21.67846	0.39807	64.02253	0.39807	64.02253	0.90716	-21.67846
1210	0.90618	-22.44825	0.40371	63.64077	0.40371	63.64077	0.90618	-22.44825
1230	0.90464	-23.13413	0.40848	63.25588	0.40848	63.25588	0.90464	-23.13413
1250	0.90394	-23.15643	0.41577	63.40109	0.41577	63.40109	0.90394	-23.15643
1270	0.90893	-23.74089	0.42087	62.77464	0.42087	62.77464	0.90893	-23.74089
1290	0.90419	-24.2312	0.42518	62.18003	0.42518	62.18003	0.90419	-24.2312
1310	0.89792	-24.38533	0.42952	61.86886	0.42952	61.86886	0.89792	-24.38533
1330	0.89549	-24.39558	0.43524	61.64732	0.43524	61.64732	0.89549	-24.39558
1350	0.89945	-24.88865	0.44419	60.87619	0.44419	60.87619	0.89945	-24.88865
1370	0.88925	-25.33654	0.44663	60.49804	0.44663	60.49804	0.88925	-25.33654
1390	0.88557	-25.7621	0.45331	60.15714	0.45331	60.15714	0.88557	-25.7621
1410	0.88329	-26.26446	0.45942	59.80422	0.45942	59.80422	0.88329	-26.26446
1430	0.88095	-26.77898	0.46373	59.48105	0.46373	59.48105	0.88095	-26.77898
1450	0.88081	-27.0773	0.46868	59.32033	0.46868	59.32033	0.88081	-27.0773
1470	0.88246	-27.58304	0.47485	58.68617	0.47485	58.68617	0.88246	-27.58304
1490	0.87894	-27.69157	0.47987	58.32083	0.47987	58.32083	0.87894	-27.69157
1510	0.87366	-27.68521	0.4843	58.16329	0.4843	58.16329	0.87366	-27.68521
1530	0.86966	-27.80546	0.48874	57.93674	0.48874	57.93674	0.86966	-27.80546
1550	0.86962	-28.25309	0.49383	57.14862	0.49383	57.14862	0.86962	-28.25309
1570	0.85747	-28.7372	0.498	56.76609	0.498	56.76609	0.85747	-28.7372
1590	0.84901	-29.16348	0.50359	56.3657	0.50359	56.3657	0.84901	-29.16348
1610	0.8448	-29.66371	0.50991	56.04026	0.50991	56.04026	0.8448	-29.66371
1630	0.84355	-30.2795	0.51622	55.72993	0.51622	55.72993	0.84355	-30.2795
1650	0.84214	-30.96233	0.52165	55.22217	0.52165	55.22217	0.84214	-30.96233
1670	0.83841	-31.51261	0.52378	54.73215	0.52378	54.73215	0.83841	-31.51261
1690	0.8349	-31.59702	0.52933	54.53934	0.52933	54.53934	0.8349	-31.59702
1710	0.83286	-31.85035	0.53582	54.24048	0.53582	54.24048	0.83286	-31.85035
1730	0.83138	-32.28697	0.54194	53.77222	0.54194	53.77222	0.83138	-32.28697
1750	0.82741	-32.30085	0.54761	53.41109	0.54761	53.41109	0.82741	-32.30085
1770	0.81931	-32.67499	0.55083	53.57022	0.55083	53.57022	0.81931	-32.67499
1790	0.81531	-33.3193	0.55681	53.00298	0.55681	53.00298	0.81531	-33.3193
1810	0.81159	-33.9244	0.56145	52.49807	0.56145	52.49807	0.81159	-33.9244
1830	0.80763	-34.41475	0.56509	52.29361	0.56509	52.29361	0.80763	-34.41475
1850	0.80614	-34.94866	0.57256	52.07707	0.57256	52.07707	0.80614	-34.94866
1870	0.80515	-35.50089	0.57409	51.51723	0.57409	51.51723	0.80515	-35.50089
1890	0.80163	-35.61159	0.57693	51.39778	0.57693	51.39778	0.80163	-35.61159
1910	0.80133	-35.74145	0.58259	51.20703	0.58259	51.20703	0.80133	-35.74145
1930	0.80189	-36.12306	0.58932	50.75813	0.58932	50.75813	0.80189	-36.12306
1950	0.79282	-36.76095	0.59219	50.18914	0.59219	50.18914	0.79282	-36.76095
1970	0.78786	-37.00958	0.59686	50.14845	0.59686	50.14845	0.78786	-37.00958
1990	0.78512	-37.36487	0.60027	49.83825	0.60027	49.83825	0.78512	-37.36487
2010	0.78139	-37.77006	0.60528	49.46278	0.60528	49.46278	0.78139	-37.77006
2030	0.77669	-38.24184	0.61163	49.05711	0.61163	49.05711	0.77669	-38.24184
2050	0.77422	-38.87038	0.61589	48.48717	0.61589	48.48717	0.77422	-38.87038
2070	0.77093	-38.80404	0.61741	48.40959	0.61741	48.40959	0.77093	-38.80404
2090	0.76993	-39.0544	0.62264	48.20126	0.62264	48.20126	0.76993	-39.0544
2110	0.76729	-39.44757	0.62796	47.83759	0.62796	47.83759	0.76729	-39.44757
2130	0.76225	-39.81994	0.63165	47.41442	0.63165	47.41442	0.76225	-39.81994
2150	0.75716	-40.01816	0.6339	47.14795	0.6339	47.14795	0.75716	-40.01816
2170	0.7526	-40.35504	0.63943	46.78346	0.63943	46.78346	0.7526	-40.35504
2190	0.7483	-40.66123	0.64393	46.38208	0.64393	46.38208	0.7483	-40.66123
2210	0.74411	-41.10374	0.6485	46.13508	0.6485	46.13508	0.74411	-41.10374
2230	0.74038	-41.69108	0.65288	45.92477	0.65288	45.92477	0.74038	-41.69108
2250	0.738	-42.27321	0.65537	45.32449	0.65537	45.32449	0.738	-42.27321
2270	0.73272	-42.47416	0.65759	45.23472	0.65759	45.23472	0.73272	-42.47416
2290	0.73178	-42.76808	0.66374	45.07936	0.66374	45.07936	0.73178	-42.76808
2310	0.73029	-43.2907	0.66961	44.67395	0.66961	44.67395	0.73029	-43.2907
2330	0.72543	-43.78756	0.67251	44.1586	0.67251	44.1586	0.72543	-43.78756
2350	0.71644	-43.6141	0.67126	43.99795	0.67126	43.99795	0.71644	-43.6141
2370	0.71467	-43.84199	0.67862	43.81688	0.67862	43.81688	0.71467	-43.84199
2390	0.71049	-44.41394	0.68303	43.23214	0.68303	43.23214	0.71049	-44.41394
2410	0.70347	-45.00911	0.6854	42.72667	0.6854	42.72667	0.70347	-45.00911
2430	0.69708	-45.50771	0.68747	42.56555	0.68747	42.56555	0.69708	-45.50771
2450	0.69871	-45.99099	0.69184	42.79596	0.69184	42.79596	0.69871	-45.99099
2470	0.69818	-46.34324	0.6978	42.32203	0.6978	42.32203	0.69818	-46.34324
2490	0.69442	-46.71765	0.70036	41.88888	0.70036	41.88888	0.69442	-46.71765
2510	0.69067	-46.95535	0.7028	41.57343	0.7028	41.57343	0.69067	-46.95535
2530	0.68808	-47.10961	0.70641	41.34412	0.70641	41.34412	0.68808	-47.10961
2550	0.68568	-47.44585	0.71055	41.06092	0.71055	41.06092	0.68568	-47.44585
2570	0.67894	-47.63687	0.71313	40.59161	0.71313	40.59161	0.67894	-47.63687
2590	0.6743	-47.93836	0.71744	40.42087	0.71744	40.42087	0.6743	-47.93836
2610	0.66955	-48.34168	0.72165	40.16081	0.72165	40.16081	0.66955	-48.34168
2630	0.66445	-48.77841	0.72435	39.75861	0.72435	39.75861	0.66445	-48.77841
2650	0.66074	-49.12028	0.72452	39.49657	0.72452	39.49657	0.66074	-49.12028
2670	0.66085	-49.35817	0.73163	39.27636	0.73163	39.27636	0.66085	-49.35817
2690	0.65842	-49.69147	0.73561	38.95732	0.73561	38.95732	0.65842	-49.69147
2710	0.65448	-50.08732	0.73758	38.66555	0.73758	38.66555	0.65448	-50.08732
2730	0.64952	-50.34092	0.73953	38.47646	0.73953	38.47646	0.64952	-50.34092
2750	0.64347	-50.07544	0.74439	38.41476	0.74439	38.41476	0.64347	-50.07544
2770	0.64221	-50.63493	0.74685	37.97539	0.74685	37.97539	0.64221	-50.63493
2790	0.64017	-51.02276	0.74972	37.65808	0.74972	37.65808	0.64017	-51.02276
2810	0.63664	-51.3564	0.75276	37.36987	0.75276	37.36987	0.63664	-51.3564
2830	0.63208	-51.5777	0.75557	37.13578	0.75557	37.13578	0.63208	-51.5777
2850	0.62807	-51.4528	0.75759	37.09885	0.75759	37.09885	0.62807	-51.4528
2870	0.62518	-52.13694	0.76128	36.6103	0.76128	36.6103	0.62518	-52.13694
2890	0.61912	-52.59485	0.76387	36.3107	0.76387	36.3107	0.61912	-52.59485
2910	0.61486	-52.99321	0.76577	36.09313	0.76577	36.09313	0.61486	-52.99321
2930	0.61365	-53.35508	0.76813	35.89606	0.76813	35.89606	0.61365	-53.35508
2950	0.61304	-53.55994	0.77289	35.70336	0.77289	35.70336	0.61304	-53.55994
2970	0.6094	-53.63792	0.7757	35.29812	0.7757	35.29812	0.6094	-53.63792
2990	0.60417	-54.0355	0.77739	34.93829	0.77739	34.93829	0.60417	-54.0355
3010	0.5988	-54.28416	0.77717	34.77617	0.77717	34.77617	0.5988	-54.28416
3030	0.59483	-54.35504	0.77773	34.72166	0.77773	34.72166	0.59483	-54.35504
3050	0.59387	-54.65895	0.78531	34.44224	0.78531	34.44224	0.59387	-54.65895
3070	0.5877	-55.05802	0.7871	33.88582	0.7871	33.88582	0.5877	-55.05802
3090	0.58213	-55.33534	0.78683	33.60542	0.78683	33.60542	0.58213	-55.33534
3110	0.57862	-55.65829	0.78967	33.42653	0.78967	33.42653	0.57862	-55.65829
3130	0.57676	-56.11138	0.79516	33.20361	0.79516	33.20361	0.57676	-56.11138
3150	0.57422	-56.69631	0.79717	32.8201	0.79717	32.8201	0.57422	-56.69631
3170	0.56607	-56.66441	0.79617	33.05105	0.79617	33.05105	0.56607	-56.66441
3190	0.56746	-56.82749	0.8033	32.94127	0.8033	32.94127	0.56746	-56.82749
3210	0.56762	-57.04614	0.80634	32.63924	0.80634	32.63924	0.56762	-57.04614
3230	0.5624	-57.26633	0.80335	32.29299	0.80335	32.29299	0.5624	-57.26633
3250	0.55419	-57.51937	0.8027	32.05018	0.8027	32.05018	0.55419	-57.51937
3270	0.55224	-57.73604	0.80785	31.77758	0.80785	31.77758	0.55224	-57.73604
3290	0.54843	-58.34266	0.80971	31.31755	0.80971	31.31755	0.54843	-58.34266
3310	0.54555	-58.9066	0.8119	31.05168	0.8119	31.05168	0.54555	-58.9066
3330	0.54408	-59.2839	0.81604	31.003	0.81604	31.003	0.54408	-59.2839
3350	0.54214	-59.61924	0.82173	30.83603	0.82173	30.83603	0.54214	-59.61924
3370	0.53957	-59.80632	0.82072	30.53705	0.82072	30.53705	0.53957	-59.80632
3390	0.53626	-59.85936	0.82017	30.32036	0.82017	30.32036	0.53626	-59.85936
3410	0.5335	-60.08515	0.82153	30.07657	0.82153	30.07657	0.5335	-60.08515
3430	0.53111	-60.49824	0.82482	29.81647	0.82482	29.81647	0.53111	-60.49824
3450	0.52743	-60.82094	0.82869	29.67108	0.82869	29.67108	0.52743	-60.82094
3470	0.52022	-61.01407	0.8247	29.48536	0.8247	29.48536	0.52022	-61.01407
3490	0.51738	-61.19846	0.82883	29.45395	0.82883	29.45395	0.51738	-61.19846
3510	0.51722	-61.63722	0.83359	29.16331	0.83359	29.16331	0.51722	-61.63722
3530	0.51622	-62.23098	0.8349	28.71523	0.8349	28.71523	0.51622	-62.23098
3550	0.50911	-62.51795	0.83216	28.72684	0.83216	28.72684	0.50911	-62.51795
3570	0.51101	-62.63634	0.83682	28.62068	0.83682	28.62068	0.51101	-62.63634
3590	0.5087	-63.0644	0.83915	28.2616	0.83915	28.2616	0.5087	-63.0644
3610	0.50433	-63.32607	0.83978	28.01854	0.83978	28.01854	0.50433	-63.32607
3630	0.50008	-63.43541	0.84115	27.89819	0.84115	27.89819	0.50008	-63.43541
3650	0.4981	-63.8965	0.84747	27.54502	0.84747	27.54502	0.4981	-63.8965
3670	0.49223	-64.41003	0.84487	27.24863	0.84487	27.24863	0.49223	-64.41003
3690	0.49051	-64.55718	0.84647	27.07443	0.84647	27.07443	0.49051	-64.55718
3710	0.48922	-64.91211	0.85021	26.88341	0.85021	26.88341	0.48922	-64.91211
3730	0.48665	-65.51678	0.85264	26.63632	0.85264	26.63632	0.48665	-65.51678
3750	0.48304	-65.88094	0.84893	26.39372	0.84893	26.39372	0.48304	-65.88094
3770	0.48374	-65.98096	0.85244	26.40469	0.85244	26.40469	0.48374	-65.98096
3790	0.48196	-66.52464	0.85582	26.0577	0.85582	26.0577	0.48196	-66.52464
3810	0.47785	-66.85184	0.85829	25.79321	0.85829	25.79321	0.47785	-66.85184
3830	0.47294	-66.90343	0.85964	25.72634	0.85964	25.72634	0.47294	-66.90343
3850	0.47017	-67.22137	0.8602	25.64687	0.8602	25.64687	0.47017	-67.22137
3870	0.46878	-67.71396	0.8564	25.47896	0.8564	25.47896	0.46878	-67.71396
3890	0.46632	-68.00497	0.8612	25.39023	0.8612	25.39023	0.46632	-68.00497
3910	0.46404	-68.39446	0.864	25.0906	0.864	25.0906	0.46404	-68.39446
3930	0.46172	-68.932	0.8626	24.69619	0.8626	24.69619	0.46172	-68.932
3950	0.45772	-69.41668	0.86315	24.7293	0.86315	24.7293	0.45772	-69.41668
3970	0.45644	-69.26118	0.86973	24.86239	0.86973	24.86239	0.45644	-69.26118
3990	0.45457	-69.82653	0.87208	24.42244	0.87208	24.42244	0.45457	-69.82653
4010	0.45101	-70.19955	0.87149	24.06582	0.87149	24.06582	0.45101	-70.19955
4030	0.44601	-70.26252	0.87051	23.9578	0.87051	23.9578	0.44601	-70.26252
4050	0.44111	-70.69321	0.87289	23.77252	0.87289	23.77252	0.44111	-70.69321
4070	0.44188	-71.18305	0.87309	23.65122	0.87309	23.65122	0.44188	-71.18305
4090	0.43976	-71.70047	0.87674	23.39352	0.87674	23.39352	0.43976	-71.70047
4110	0.43548	-72.13475	0.87801	23.21119	0.87801	23.21119	0.43548	-72.13475
4130	0.43166	-72.42579	0.87684	23.14606	0.87684	23.14606	0.43166	-72.42579
4150	0.43285	-72.56404	0.87895	23.07007	0.87895	23.07007	0.43285	-72.56404
4170	0.43184	-73.26409	0.88474	22.50713	0.88474	22.50713	0.43184	-73.26409
4190	0.42821	-73.59188	0.88331	22.32492	0.88331	22.32492	0.42821	-73.59188
4210	0.4258	-73.72758	0.88311	22.23823	0.88311	22.23823	0.4258	-73.72758
4230	0.42449	-73.96281	0.8857	22.0878	0.8857	22.0878	0.42449	-73.96281
4250	0.42024	-74.70073	0.88578	21.84027	0.88578	21.84027	0.42024	-74.70073
4270	0.41838	-74.92041	0.88632	21.96917	0.88632	21.96917	0.41838	-74.92041
4290	0.4164	-75.55889	0.88789	21.62628	0.88789	21.62628	0.4164	-75.55889
4310	0.41375	-76.10399	0.8886	21.35707	0.8886	21.35707	0.41375	-76.10399
4330	0.41111	-76.41726	0.88993	21.25324	0.88993	21.25324	0.41111	-76.41726
4350	0.41047	-76.73399	0.89676	20.95268	0.89676	20.95268	0.41047	-76.73399
4370	0.40863	-77.20592	0.89288	20.63207	0.89288	20.63207	0.40863	-77.20592
4390	0.40703	-77.46619	0.88987	20.49773	0.88987	20.49773	0.40703	-77.46619
4410	0.4063	-77.71797	0.89322	20.36499	0.89322	20.36499	0.4063	-77.71797
4430	0.40555	-78.00736	0.89983	20.21871	0.89983	20.21871	0.40555	-78.00736
4450	0.40238	-78.22347	0.89808	20.21332	0.89808	20.21332	0.40238	-78.22347
4470	0.39963	-78.67995	0.89824	19.88493	0.89824	19.88493	0.39963	-78.67995
4490	0.39714	-79.2212	0.89581	19.63292	0.89581	19.63292	0.39714	-79.2212
4510	0.39452	-79.41766	0.89176	19.60977	0.89176	19.60977	0.39452	-79.41766
4530	0.39274	-79.4078	0.89065	19.66836	0.89065	19.66836	0.39274	-79.4078
4550	0.39417	-79.8981	0.90061	19.36206	0.90061	19.36206	0.39417	-79.8981
4570	0.38954	-80.6096	0.89808	19.02258	0.89808	19.02258	0.38954	-80.6096
4590	0.38793	-80.6436	0.89784	19.03058	0.89784	19.03058	0.38793	-80.6436
4610	0.38745	-80.57427	0.90213	18.98485	0.90213	18.98485	0.38745	-80.57427
4630	0.38599	-80.79467	0.90642	18.72233	0.90642	18.72233	0.38599	-80.79467
4650	0.38126	-81.51674	0.89933	18.31813	0.89933	18.31813	0.38126	-81.51674
4670	0.37869	-81.7336	0.89958	18.2867	0.89958	18.2867	0.37869	-81.7336
4690	0.37782	-82.05627	0.90341	18.08319	0.90341	18.08319	0.37782	-82.05627
4710	0.37717	-82.4394	0.90451	17.89073	0.90451	17.89073	0.37717	-82.4394
4730	0.37562	-82.79678	0.90273	17.79303	0.90273	17.79303	0.37562	-82.79678
4750	0.37243	-83.00135	0.90412	17.77444	0.90412	17.77444	0.37243	-83.00135
4770	0.37327	-83.06425	0.90663	17.64266	0.90663	17.64266	0.37327	-83.06425
4790	0.37291	-83.37982	0.90705	17.47563	0.90705	17.47563	0.37291	-83.37982
4810	0.37109	-83.71581	0.90804	17.26107	0.90804	17.26107	0.37109	-83.71581
4830	0.36849	-83.96084	0.90919	17.0384	0.90919	17.0384	0.36849	-83.96084
4850	0.36669	-84.12453	0.90709	16.89865	0.90709	16.89865	0.36669	-84.12453
4870	0.36574	-84.3324	0.91063	16.64829	0.91063	16.64829	0.36574	-84.3324
4890	0.36364	-84.75516	0.90774	16.52883	0.90774	16.52883	0.36364	-84.75516
4910	0.36196	-84.87571	0.90596	16.48178	0.90596	16.48178	0.36196	-84.87571
4930	0.36129	-84.85177	0.90748	16.39905	0.90748	16.39905	0.36129	-84.85177
4950	0.36126	-85.51591	0.90905	16.12295	0.90905	16.12295	0.36126	-85.51591
4970	0.35905	-85.38057	0.90362	16.18066	0.90362	16.18066	0.35905	-85.38057
4990	0.35836	-85.35225	0.90755	16.06014	0.90755	16.06014	0.35836	-85.35225
5010	0.3573	-85.52771	0.91177	15.76681	0.91177	15.76681	0.3573	-85.52771
5030	0.35506	-85.81263	0.91211	15.4968	0.91211	15.4968	0.35506	-85.81263
5050	0.35186	-85.92164	0.90939	15.63691	0.90939	15.63691	0.35186	-85.92164
5070	0.35149	-86.1189	0.91403	15.33362	0.91403	15.33362	0.35149	-86.1189
5090	0.35249	-86.23061	0.9149	15.19865	0.9149	15.19865	0.35249	-86.23061
5110	0.35141	-86.28005	0.91519	15.07823	0.91519	15.07823	0.35141	-86.28005
5130	0.34856	-86.3774	0.91634	14.9214	0.91634	14.9214	0.34856	-86.3774
5150	0.348	-86.71969	0.91801	14.78001	0.91801	14.78001	0.348	-86.71969
5170	0.34986	-86.96508	0.91779	14.73953	0.91779	14.73953	0.34986	-86.96508
5190	0.34772	-86.83396	0.91418	14.57638	0.91418	14.57638	0.34772	-86.83396
5210	0.34393	-86.64367	0.91332	14.54627	0.91332	14.54627	0.34393	-86.64367
5230	0.34162	-86.52127	0.91572	14.54167	0.91572	14.54167	0.34162	-86.52127
5250	0.34469	-86.40357	0.91624	14.09179	0.91624	14.09179	0.34469	-86.40357
5270	0.34185	-87.11283	0.91458	13.88777	0.91458	13.88777	0.34185	-87.11283
5290	0.33851	-87.22996	0.91232	13.82742	0.91232	13.82742	0.33851	-87.22996
5310	0.33841	-87.00527	0.91608	13.86975	0.91608	13.86975	0.33841	-87.00527
5330	0.34016	-86.8188	0.92138	13.80405	0.92138	13.80405	0.34016	-86.8188
5350	0.33717	-87.18033	0.9126	13.24995	0.9126	13.24995	0.33717	-87.18033
5370	0.33273	-87.58587	0.91331	13.42514	0.91331	13.42514	0.33273	-87.58587
5390	0.33283	-87.0975	0.91902	13.25832	0.91902	13.25832	0.33283	-87.0975
