! 500R07S0R7BV4
! Data taken April 11, 2003
! Data taken on a HP 8720C VNA using a series-through test fixture and TRL* de-embedding
#	mhz	s	ma	r	50
0	0.99999	0.00000	0.00000	90.00000	0.00000	90.00000	0.99999	0.00000
50	0.99999	-0.14727	0.0225	94.98447	0.0225	94.98447	0.99999	-0.14727
70	0.99999	-2.25321	0.02953	89.75346	0.02953	89.75346	0.99999	-2.25321
90	0.99785	-2.01077	0.0385	88.31843	0.0385	88.31843	0.99785	-2.01077
110	0.99999	-2.51144	0.0484	87.04013	0.0484	87.04013	0.99999	-2.51144
130	0.99999	-4.00347	0.05787	85.37926	0.05787	85.37926	0.99999	-4.00347
150	0.99815	-3.89191	0.0652	85.89647	0.0652	85.89647	0.99815	-3.89191
170	0.99999	-4.55626	0.0752	85.53227	0.0752	85.53227	0.99999	-4.55626
190	0.99999	-5.25901	0.08368	84.87456	0.08368	84.87456	0.99999	-5.25901
210	0.99999	-5.5319	0.09233	84.52261	0.09233	84.52261	0.99999	-5.5319
230	0.99999	-5.68038	0.10162	84.25403	0.10162	84.25403	0.99999	-5.68038
250	0.99999	-6.78358	0.11076	83.02478	0.11076	83.02478	0.99999	-6.78358
270	0.99473	-7.18599	0.11734	82.71976	0.11734	82.71976	0.99473	-7.18599
290	0.99809	-7.26463	0.12641	82.62636	0.12641	82.62636	0.99809	-7.26463
310	0.9991	-7.84674	0.13564	82.00537	0.13564	82.00537	0.9991	-7.84674
330	0.99139	-8.85717	0.14397	81.09447	0.14397	81.09447	0.99139	-8.85717
350	0.9844	-9.31836	0.15153	81.10821	0.15153	81.10821	0.9844	-9.31836
370	0.9926	-10.08415	0.16154	80.16463	0.16154	80.16463	0.9926	-10.08415
390	0.99027	-10.7099	0.16922	79.48997	0.16922	79.48997	0.99027	-10.7099
410	0.98885	-11.16169	0.17724	79.03791	0.17724	79.03791	0.98885	-11.16169
430	0.99171	-11.60938	0.18628	78.55891	0.18628	78.55891	0.99171	-11.60938
450	0.99415	-12.42655	0.1951	77.60024	0.1951	77.60024	0.99415	-12.42655
470	0.98522	-12.54417	0.20192	77.2079	0.20192	77.2079	0.98522	-12.54417
490	0.98569	-11.67246	0.1999	76.96032	0.1999	76.96032	0.98569	-11.67246
510	0.98769	-11.10841	0.20145	76.3008	0.20145	76.3008	0.98769	-11.10841
530	0.98684	-11.15422	0.20925	75.44426	0.20925	75.44426	0.98684	-11.15422
550	0.98224	-11.11722	0.2162	75.37725	0.2162	75.37725	0.98224	-11.11722
570	0.97978	-11.48936	0.22483	74.92946	0.22483	74.92946	0.97978	-11.48936
590	0.98154	-11.65206	0.2328	74.28853	0.2328	74.28853	0.98154	-11.65206
610	0.97943	-12.09777	0.24041	73.91151	0.24041	73.91151	0.97943	-12.09777
630	0.97251	-12.87337	0.24787	73.71821	0.24787	73.71821	0.97251	-12.87337
650	0.96698	-13.58013	0.25528	73.09115	0.25528	73.09115	0.96698	-13.58013
670	0.9666	-13.46341	0.26126	72.85855	0.26126	72.85855	0.9666	-13.46341
690	0.9687	-13.92448	0.2686	72.30087	0.2686	72.30087	0.9687	-13.92448
710	0.96737	-14.40304	0.27521	71.81742	0.27521	71.81742	0.96737	-14.40304
730	0.96251	-14.66447	0.2815	71.42951	0.2815	71.42951	0.96251	-14.66447
750	0.95982	-14.79975	0.29035	70.78044	0.29035	70.78044	0.95982	-14.79975
770	0.95631	-15.29374	0.29741	69.96627	0.29741	69.96627	0.95631	-15.29374
790	0.95336	-15.81815	0.30448	69.53519	0.30448	69.53519	0.95336	-15.81815
810	0.95221	-16.38454	0.31228	69.17995	0.31228	69.17995	0.95221	-16.38454
830	0.95034	-16.87246	0.31999	68.77248	0.31999	68.77248	0.95034	-16.87246
850	0.94149	-17.0294	0.32524	68.36381	0.32524	68.36381	0.94149	-17.0294
870	0.94267	-17.13158	0.3326	68.3827	0.3326	68.3827	0.94267	-17.13158
890	0.94328	-17.85279	0.34088	67.59286	0.34088	67.59286	0.94328	-17.85279
910	0.9377	-18.38416	0.34785	66.94514	0.34785	66.94514	0.9377	-18.38416
930	0.92871	-18.54267	0.35366	66.68253	0.35366	66.68253	0.92871	-18.54267
950	0.92751	-18.77118	0.36084	66.3401	0.36084	66.3401	0.92751	-18.77118
970	0.92676	-19.84197	0.37022	65.7576	0.37022	65.7576	0.92676	-19.84197
990	0.92258	-20.42221	0.37611	65.29762	0.37611	65.29762	0.92258	-20.42221
1010	0.92124	-20.88282	0.38165	64.96111	0.38165	64.96111	0.92124	-20.88282
1030	0.92197	-21.24934	0.38821	64.68351	0.38821	64.68351	0.92197	-21.24934
1050	0.91699	-21.20193	0.39543	64.33476	0.39543	64.33476	0.91699	-21.20193
1070	0.92071	-21.62909	0.401	63.95538	0.401	63.95538	0.92071	-21.62909
1090	0.91632	-22.00421	0.40713	63.3719	0.40713	63.3719	0.91632	-22.00421
1110	0.90945	-22.19542	0.41341	62.90316	0.41341	62.90316	0.90945	-22.19542
1130	0.90228	-22.36078	0.42025	62.51515	0.42025	62.51515	0.90228	-22.36078
1150	0.89353	-22.94832	0.42885	61.82102	0.42885	61.82102	0.89353	-22.94832
1170	0.88854	-23.63832	0.43382	61.53306	0.43382	61.53306	0.88854	-23.63832
1190	0.88461	-24.471	0.44087	61.09095	0.44087	61.09095	0.88461	-24.471
1210	0.88243	-25.21514	0.44731	60.63261	0.44731	60.63261	0.88243	-25.21514
1230	0.88194	-25.7218	0.45256	60.31493	0.45256	60.31493	0.88194	-25.7218
1250	0.88234	-25.92428	0.45821	60.31381	0.45821	60.31381	0.88234	-25.92428
1270	0.88476	-26.67148	0.46529	59.6513	0.46529	59.6513	0.88476	-26.67148
1290	0.88209	-27.11639	0.46995	59.19886	0.46995	59.19886	0.88209	-27.11639
1310	0.87705	-27.21772	0.47413	58.89123	0.47413	58.89123	0.87705	-27.21772
1330	0.873	-27.23618	0.47971	58.51127	0.47971	58.51127	0.873	-27.23618
1350	0.874	-27.7345	0.48851	57.68995	0.48851	57.68995	0.874	-27.7345
1370	0.863	-28.23684	0.49256	57.3665	0.49256	57.3665	0.863	-28.23684
1390	0.8582	-28.67796	0.49964	57.13696	0.49964	57.13696	0.8582	-28.67796
1410	0.85566	-29.18745	0.50516	56.71877	0.50516	56.71877	0.85566	-29.18745
1430	0.85338	-29.73684	0.5091	56.20844	0.5091	56.20844	0.85338	-29.73684
1450	0.85133	-30.13949	0.516	56.08155	0.516	56.08155	0.85133	-30.13949
1470	0.85571	-30.63931	0.52221	55.55461	0.52221	55.55461	0.85571	-30.63931
1490	0.85063	-30.78831	0.52517	55.14257	0.52517	55.14257	0.85063	-30.78831
1510	0.8436	-30.76149	0.5293	54.8439	0.5293	54.8439	0.8436	-30.76149
1530	0.83752	-30.84026	0.53555	54.49075	0.53555	54.49075	0.83752	-30.84026
1550	0.83063	-31.4125	0.54138	53.74894	0.54138	53.74894	0.83063	-31.4125
1570	0.82657	-31.84191	0.54608	53.28761	0.54608	53.28761	0.82657	-31.84191
1590	0.81807	-32.2257	0.55163	53.01152	0.55163	53.01152	0.81807	-32.2257
1610	0.81166	-32.657	0.55645	52.67926	0.55645	52.67926	0.81166	-32.657
1630	0.80879	-33.23282	0.5612	52.25916	0.5612	52.25916	0.80879	-33.23282
1650	0.80586	-34.05415	0.5688	51.92928	0.5688	51.92928	0.80586	-34.05415
1670	0.80329	-34.64554	0.57197	51.40042	0.57197	51.40042	0.80329	-34.64554
1690	0.80069	-34.80774	0.57826	51.27676	0.57826	51.27676	0.80069	-34.80774
1710	0.7981	-35.05164	0.5846	50.95314	0.5846	50.95314	0.7981	-35.05164
1730	0.79477	-35.42695	0.58978	50.38241	0.58978	50.38241	0.79477	-35.42695
1750	0.78918	-35.52222	0.59444	50.07542	0.59444	50.07542	0.78918	-35.52222
1770	0.78335	-35.91372	0.59936	49.92132	0.59936	49.92132	0.78335	-35.91372
1790	0.77812	-36.598	0.6053	49.33013	0.6053	49.33013	0.77812	-36.598
1810	0.77358	-37.17514	0.60976	48.92555	0.60976	48.92555	0.77358	-37.17514
1830	0.77	-37.62396	0.61378	48.80684	0.61378	48.80684	0.77	-37.62396
1850	0.76781	-38.30202	0.62194	48.54881	0.62194	48.54881	0.76781	-38.30202
1870	0.76638	-38.90139	0.62475	47.93098	0.62475	47.93098	0.76638	-38.90139
1890	0.76289	-39.01192	0.62675	47.70333	0.62675	47.70333	0.76289	-39.01192
1910	0.76124	-39.06883	0.63138	47.48731	0.63138	47.48731	0.76124	-39.06883
1930	0.75999	-39.40381	0.63696	47.10302	0.63696	47.10302	0.75999	-39.40381
1950	0.75234	-40.24509	0.6367	46.56925	0.6367	46.56925	0.75234	-40.24509
1970	0.74552	-40.29752	0.64206	46.35625	0.64206	46.35625	0.74552	-40.29752
1990	0.74206	-40.78545	0.64815	45.98136	0.64815	45.98136	0.74206	-40.78545
2010	0.73934	-41.27939	0.65491	45.56277	0.65491	45.56277	0.73934	-41.27939
2030	0.73578	-41.70193	0.66091	45.14259	0.66091	45.14259	0.73578	-41.70193
2050	0.73084	-42.32776	0.66331	44.68685	0.66331	44.68685	0.73084	-42.32776
2070	0.72812	-42.31775	0.66503	44.57618	0.66503	44.57618	0.72812	-42.31775
2090	0.72668	-42.60898	0.67091	44.3311	0.67091	44.3311	0.72668	-42.60898
2110	0.72306	-42.99986	0.67612	44.04151	0.67612	44.04151	0.72306	-42.99986
2130	0.71703	-43.34481	0.67919	43.7144	0.67919	43.7144	0.71703	-43.34481
2150	0.71161	-43.55427	0.682	43.27385	0.682	43.27385	0.71161	-43.55427
2170	0.70786	-43.93987	0.68747	42.90825	0.68747	42.90825	0.70786	-43.93987
2190	0.70128	-44.24439	0.6911	42.62464	0.6911	42.62464	0.70128	-44.24439
2210	0.69614	-44.67691	0.69591	42.30198	0.69591	42.30198	0.69614	-44.67691
2230	0.6927	-45.30133	0.7016	41.8601	0.7016	41.8601	0.6927	-45.30133
2250	0.68719	-46.03639	0.70459	41.2597	0.70459	41.2597	0.68719	-46.03639
2270	0.68322	-46.08449	0.70568	41.33563	0.70568	41.33563	0.68322	-46.08449
2290	0.68377	-46.36709	0.7111	41.06252	0.7111	41.06252	0.68377	-46.36709
2310	0.68244	-46.82109	0.71524	40.65168	0.71524	40.65168	0.68244	-46.82109
2330	0.67655	-47.25644	0.71671	40.27213	0.71671	40.27213	0.67655	-47.25644
2350	0.66715	-47.35616	0.71833	40.05054	0.71833	40.05054	0.66715	-47.35616
2370	0.66591	-47.37393	0.72677	39.7892	0.72677	39.7892	0.66591	-47.37393
2390	0.66074	-47.94499	0.73036	39.27183	0.73036	39.27183	0.66074	-47.94499
2410	0.65501	-48.59342	0.7326	38.94555	0.7326	38.94555	0.65501	-48.59342
2430	0.65037	-49.10127	0.73531	38.86323	0.73531	38.86323	0.65037	-49.10127
2450	0.64677	-49.50852	0.73865	38.68347	0.73865	38.68347	0.64677	-49.50852
2470	0.64758	-49.91652	0.74538	38.14343	0.74538	38.14343	0.64758	-49.91652
2490	0.6431	-50.3348	0.74689	37.80859	0.74689	37.80859	0.6431	-50.3348
2510	0.63709	-50.60471	0.74819	37.56162	0.74819	37.56162	0.63709	-50.60471
2530	0.63281	-50.70398	0.75198	37.33083	0.75198	37.33083	0.63281	-50.70398
2550	0.63295	-50.74675	0.75865	37.09024	0.75865	37.09024	0.63295	-50.74675
2570	0.6265	-51.1556	0.7581	36.52271	0.7581	36.52271	0.6265	-51.1556
2590	0.62144	-51.49659	0.76047	36.307	0.76047	36.307	0.62144	-51.49659
2610	0.61645	-51.91268	0.76504	36.04371	0.76504	36.04371	0.61645	-51.91268
2630	0.61127	-52.38891	0.76887	35.66781	0.76887	35.66781	0.61127	-52.38891
2650	0.60679	-52.75232	0.76676	35.44861	0.76676	35.44861	0.60679	-52.75232
2670	0.60577	-53.04738	0.77566	35.26483	0.77566	35.26483	0.60577	-53.04738
2690	0.60186	-53.38626	0.77957	34.85025	0.77957	34.85025	0.60186	-53.38626
2710	0.59787	-53.69978	0.78161	34.49093	0.78161	34.49093	0.59787	-53.69978
2730	0.59399	-53.87527	0.78335	34.33587	0.78335	34.33587	0.59399	-53.87527
2750	0.58783	-53.75656	0.78481	34.39699	0.78481	34.39699	0.58783	-53.75656
2770	0.58654	-54.37415	0.79024	33.86478	0.79024	33.86478	0.58654	-54.37415
2790	0.58371	-54.81695	0.79251	33.53504	0.79251	33.53504	0.58371	-54.81695
2810	0.57915	-55.0764	0.79485	33.3622	0.79485	33.3622	0.57915	-55.0764
2830	0.57417	-55.17367	0.79785	33.24573	0.79785	33.24573	0.57417	-55.17367
2850	0.57168	-55.15957	0.7995	33.0301	0.7995	33.0301	0.57168	-55.15957
2870	0.56744	-55.75175	0.80205	32.65515	0.80205	32.65515	0.56744	-55.75175
2890	0.56199	-56.39726	0.80374	32.23581	0.80374	32.23581	0.56199	-56.39726
2910	0.55829	-56.8383	0.80591	31.91322	0.80591	31.91322	0.55829	-56.8383
2930	0.55688	-57.02766	0.80888	31.71901	0.80888	31.71901	0.55688	-57.02766
2950	0.55584	-57.12878	0.81198	31.57534	0.81198	31.57534	0.55584	-57.12878
2970	0.55012	-57.12989	0.81548	31.29237	0.81548	31.29237	0.55012	-57.12989
2990	0.54606	-57.57365	0.81761	30.81893	0.81761	30.81893	0.54606	-57.57365
3010	0.54142	-57.88527	0.81694	30.59711	0.81694	30.59711	0.54142	-57.88527
3030	0.53655	-58.02261	0.81687	30.59392	0.81687	30.59392	0.53655	-58.02261
3050	0.53438	-58.4762	0.82562	30.30126	0.82562	30.30126	0.53438	-58.4762
3070	0.53029	-58.74679	0.82577	29.78304	0.82577	29.78304	0.53029	-58.74679
3090	0.52432	-59.02332	0.82422	29.45855	0.82422	29.45855	0.52432	-59.02332
3110	0.51987	-59.43568	0.82847	29.27585	0.82847	29.27585	0.51987	-59.43568
3130	0.51771	-59.93158	0.83642	29.11292	0.83642	29.11292	0.51771	-59.93158
3150	0.51598	-60.27656	0.83639	28.77764	0.83639	28.77764	0.51598	-60.27656
3170	0.5102	-60.38474	0.8336	28.70689	0.8336	28.70689	0.5102	-60.38474
3190	0.50886	-60.57667	0.84246	28.60112	0.84246	28.60112	0.50886	-60.57667
3210	0.50876	-60.904	0.84648	28.4499	0.84648	28.4499	0.50876	-60.904
3230	0.50662	-61.30495	0.84195	28.21393	0.84195	28.21393	0.50662	-61.30495
3250	0.499	-61.60431	0.83791	27.82502	0.83791	27.82502	0.499	-61.60431
3270	0.49238	-61.55216	0.84458	27.7027	0.84458	27.7027	0.49238	-61.55216
3290	0.48779	-62.08026	0.84617	27.3173	0.84617	27.3173	0.48779	-62.08026
3310	0.48514	-62.55623	0.84747	27.08214	0.84747	27.08214	0.48514	-62.55623
3330	0.4835	-62.89088	0.85001	27.00718	0.85001	27.00718	0.4835	-62.89088
3350	0.48108	-63.53816	0.85201	26.69905	0.85201	26.69905	0.48108	-63.53816
3370	0.47904	-63.65168	0.85478	26.52165	0.85478	26.52165	0.47904	-63.65168
3390	0.47583	-63.81211	0.85616	26.30429	0.85616	26.30429	0.47583	-63.81211
3410	0.47269	-63.94533	0.85727	26.04054	0.85727	26.04054	0.47269	-63.94533
3430	0.47008	-64.13844	0.85892	25.71828	0.85892	25.71828	0.47008	-64.13844
3450	0.46766	-64.63977	0.86158	25.31973	0.86158	25.31973	0.46766	-64.63977
3470	0.46019	-64.75089	0.85737	25.50359	0.85737	25.50359	0.46019	-64.75089
3490	0.45651	-64.90822	0.8616	25.37458	0.8616	25.37458	0.45651	-64.90822
3510	0.45482	-65.50465	0.8658	25.07631	0.8658	25.07631	0.45482	-65.50465
3530	0.45285	-66.27792	0.86635	24.72687	0.86635	24.72687	0.45285	-66.27792
3550	0.44791	-66.31061	0.86444	24.41884	0.86444	24.41884	0.44791	-66.31061
3570	0.44969	-66.57063	0.87187	24.60906	0.87187	24.60906	0.44969	-66.57063
3590	0.44738	-67.01786	0.8728	24.18836	0.8728	24.18836	0.44738	-67.01786
3610	0.44311	-67.2201	0.87264	23.88403	0.87264	23.88403	0.44311	-67.2201
3630	0.4389	-67.28148	0.87431	23.82538	0.87431	23.82538	0.4389	-67.28148
3650	0.43662	-67.84238	0.87829	23.54365	0.87829	23.54365	0.43662	-67.84238
3670	0.43178	-68.29295	0.87626	23.32633	0.87626	23.32633	0.43178	-68.29295
3690	0.42814	-68.77584	0.87618	23.15345	0.87618	23.15345	0.42814	-68.77584
3710	0.42582	-69.21181	0.87785	22.88049	0.87785	22.88049	0.42582	-69.21181
3730	0.42406	-69.57804	0.8802	22.56403	0.8802	22.56403	0.42406	-69.57804
3750	0.42122	-69.90819	0.88118	22.46173	0.88118	22.46173	0.42122	-69.90819
3770	0.4211	-70.13366	0.88309	22.33859	0.88309	22.33859	0.4211	-70.13366
3790	0.41919	-70.61257	0.88769	21.96808	0.88769	21.96808	0.41919	-70.61257
3810	0.41538	-70.90166	0.88901	21.75938	0.88901	21.75938	0.41538	-70.90166
3830	0.41051	-70.9911	0.88744	21.75509	0.88744	21.75509	0.41051	-70.9911
3850	0.4063	-71.30444	0.88962	21.63133	0.88962	21.63133	0.4063	-71.30444
3870	0.40628	-71.62507	0.8877	21.48047	0.8877	21.48047	0.40628	-71.62507
3890	0.4036	-72.00754	0.89352	21.3602	0.89352	21.3602	0.4036	-72.00754
3910	0.40143	-72.46601	0.89487	21.10056	0.89487	21.10056	0.40143	-72.46601
3930	0.40006	-72.93233	0.89114	20.7902	0.89114	20.7902	0.40006	-72.93233
3950	0.39686	-73.25602	0.89336	20.77642	0.89336	20.77642	0.39686	-73.25602
3970	0.39474	-73.50763	0.89695	20.71281	0.89695	20.71281	0.39474	-73.50763
3990	0.39203	-74.01612	0.89679	20.28543	0.89679	20.28543	0.39203	-74.01612
4010	0.38836	-74.37656	0.89683	20.01029	0.89683	20.01029	0.38836	-74.37656
4030	0.38412	-74.52866	0.89841	19.95641	0.89841	19.95641	0.38412	-74.52866
4050	0.38055	-74.75677	0.90022	19.74581	0.90022	19.74581	0.38055	-74.75677
4070	0.37925	-75.31453	0.9011	19.69936	0.9011	19.69936	0.37925	-75.31453
4090	0.37672	-75.83409	0.90107	19.41187	0.90107	19.41187	0.37672	-75.83409
4110	0.37389	-76.36943	0.90169	19.23999	0.90169	19.23999	0.37389	-76.36943
4130	0.37166	-76.82236	0.90339	19.21728	0.90339	19.21728	0.37166	-76.82236
4150	0.37092	-76.94249	0.90544	19.05419	0.90544	19.05419	0.37092	-76.94249
4170	0.36891	-77.64653	0.91547	18.61951	0.91547	18.61951	0.36891	-77.64653
4190	0.3657	-77.9809	0.91242	18.40178	0.91242	18.40178	0.3657	-77.9809
4210	0.36312	-78.26614	0.90885	18.3651	0.90885	18.3651	0.36312	-78.26614
4230	0.36127	-78.67034	0.90918	18.28565	0.90918	18.28565	0.36127	-78.67034
4250	0.35843	-79.20908	0.90964	17.7517	0.90964	17.7517	0.35843	-79.20908
4270	0.35582	-79.54351	0.91415	17.99865	0.91415	17.99865	0.35582	-79.54351
4290	0.35383	-80.09453	0.9143	17.71137	0.9143	17.71137	0.35383	-80.09453
4310	0.35176	-80.64586	0.91225	17.37418	0.91225	17.37418	0.35176	-80.64586
4330	0.34973	-81.07833	0.91126	17.19397	0.91126	17.19397	0.34973	-81.07833
4350	0.34869	-81.36993	0.9156	17.1002	0.9156	17.1002	0.34869	-81.36993
4370	0.34694	-81.79931	0.91533	16.85614	0.91533	16.85614	0.34694	-81.79931
4390	0.34527	-81.82537	0.91513	16.70421	0.91513	16.70421	0.34527	-81.82537
4410	0.34416	-82.04348	0.9189	16.49648	0.9189	16.49648	0.34416	-82.04348
4430	0.34289	-82.53461	0.92404	16.30115	0.92404	16.30115	0.34289	-82.53461
4450	0.33957	-82.8654	0.92141	16.40261	0.92141	16.40261	0.33957	-82.8654
4470	0.33699	-83.17897	0.92095	16.03141	0.92095	16.03141	0.33699	-83.17897
4490	0.33459	-83.77264	0.91939	15.79582	0.91939	15.79582	0.33459	-83.77264
4510	0.33229	-84.08105	0.91687	15.7042	0.91687	15.7042	0.33229	-84.08105
4530	0.33098	-84.11783	0.91626	15.70292	0.91626	15.70292	0.33098	-84.11783
4550	0.33254	-84.47567	0.92319	15.67639	0.92319	15.67639	0.33254	-84.47567
4570	0.32944	-84.96193	0.92132	15.23012	0.92132	15.23012	0.32944	-84.96193
4590	0.32729	-85.08539	0.92414	15.08229	0.92414	15.08229	0.32729	-85.08539
4610	0.32556	-85.16731	0.92597	15.02038	0.92597	15.02038	0.32556	-85.16731
4630	0.32363	-85.48881	0.92461	14.8847	0.92461	14.8847	0.32363	-85.48881
4650	0.32079	-86.29089	0.92135	14.56834	0.92135	14.56834	0.32079	-86.29089
4670	0.31741	-86.53024	0.92287	14.46236	0.92287	14.46236	0.31741	-86.53024
4690	0.31659	-86.83088	0.92384	14.30236	0.92384	14.30236	0.31659	-86.83088
4710	0.31606	-87.20284	0.92462	14.11208	0.92462	14.11208	0.31606	-87.20284
4730	0.31511	-87.56003	0.92537	13.95229	0.92537	13.95229	0.31511	-87.56003
4750	0.31455	-87.72028	0.926	13.92084	0.926	13.92084	0.31455	-87.72028
4770	0.31177	-87.75389	0.92966	13.95483	0.92966	13.95483	0.31177	-87.75389
4790	0.31059	-88.05822	0.93014	13.7794	0.93014	13.7794	0.31059	-88.05822
4810	0.30914	-88.37884	0.92946	13.54961	0.92946	13.54961	0.30914	-88.37884
4830	0.30709	-88.61536	0.92922	13.36137	0.92922	13.36137	0.30709	-88.61536
4850	0.30564	-88.82141	0.9306	13.25149	0.9306	13.25149	0.30564	-88.82141
4870	0.30429	-89.16138	0.92736	13.09714	0.92736	13.09714	0.30429	-89.16138
4890	0.30229	-89.67939	0.92519	12.89411	0.92519	12.89411	0.30229	-89.67939
4910	0.30109	-89.8356	0.92555	12.71411	0.92555	12.71411	0.30109	-89.8356
4930	0.30085	-89.74561	0.92821	12.52133	0.92821	12.52133	0.30085	-89.74561
4950	0.30039	-90.18045	0.93121	12.17239	0.93121	12.17239	0.30039	-90.18045
4970	0.29833	-90.39306	0.92886	12.56181	0.92886	12.56181	0.29833	-90.39306
4990	0.29601	-90.4525	0.93037	12.29126	0.93037	12.29126	0.29601	-90.4525
5010	0.29459	-90.74706	0.93172	11.95004	0.93172	11.95004	0.29459	-90.74706
5030	0.29352	-91.10914	0.93147	11.85276	0.93147	11.85276	0.29352	-91.10914
5050	0.2906	-90.81532	0.93081	12.03939	0.93081	12.03939	0.2906	-90.81532
5070	0.29	-91.08971	0.93286	11.62688	0.93286	11.62688	0.29	-91.08971
5090	0.29084	-91.30378	0.93206	11.4781	0.93206	11.4781	0.29084	-91.30378
5110	0.2897	-91.39859	0.93209	11.37376	0.93209	11.37376	0.2897	-91.39859
5130	0.28698	-91.44476	0.93408	11.28784	0.93408	11.28784	0.28698	-91.44476
5150	0.28694	-91.64249	0.93665	11.38755	0.93665	11.38755	0.28694	-91.64249
5170	0.28857	-91.77366	0.93622	11.11563	0.93622	11.11563	0.28857	-91.77366
5190	0.28572	-91.72355	0.9344	10.8827	0.9344	10.8827	0.28572	-91.72355
5210	0.28239	-91.54553	0.93336	10.73341	0.93336	10.73341	0.28239	-91.54553
5230	0.281	-91.32261	0.934	10.58901	0.934	10.58901	0.281	-91.32261
5250	0.28235	-91.16743	0.93595	10.24737	0.93595	10.24737	0.28235	-91.16743
5270	0.27981	-91.83217	0.93375	10.08903	0.93375	10.08903	0.27981	-91.83217
5290	0.277	-91.6085	0.93489	10.14273	0.93489	10.14273	0.277	-91.6085
5310	0.27703	-91.384	0.93922	10.06306	0.93922	10.06306	0.27703	-91.384
5330	0.27839	-91.61162	0.94275	9.7284	0.94275	9.7284	0.27839	-91.61162
5350	0.27488	-92.30968	0.93765	9.24098	0.93765	9.24098	0.27488	-92.30968
5370	0.27354	-92.18269	0.93368	9.54824	0.93368	9.54824	0.27354	-92.18269
5390	0.27131	-91.7443	0.93657	9.62107	0.93657	9.62107	0.27131	-91.7443
