! 500R07S0R8BV4
! Data taken April 11, 2003
! Data taken on a HP 8720C VNA using a series-through test fixture and TRL* de-embedding
#	mhz	s	ma	r	50
0	0.99999	0.00000	0.00000	90.00000	0.00000	90.00000	0.99999	0.00000
50	0.99999	-0.32104	0.02202	91.42465	0.02202	91.42465	0.99999	-0.32104
70	0.99999	-2.10462	0.03072	84.61063	0.03072	84.61063	0.99999	-2.10462
90	0.99927	-2.10774	0.04128	86.27292	0.04128	86.27292	0.99927	-2.10774
110	0.99999	-2.76203	0.0521	87.37744	0.0521	87.37744	0.99999	-2.76203
130	0.99999	-4.17521	0.06159	85.64131	0.06159	85.64131	0.99999	-4.17521
150	0.99893	-4.13101	0.06916	85.53294	0.06916	85.53294	0.99893	-4.13101
170	0.99999	-4.87239	0.07937	85.43588	0.07937	85.43588	0.99999	-4.87239
190	0.99999	-5.5169	0.08821	84.77147	0.08821	84.77147	0.99999	-5.5169
210	0.99999	-5.76135	0.09744	84.27628	0.09744	84.27628	0.99999	-5.76135
230	0.99999	-5.92307	0.10732	83.9217	0.10732	83.9217	0.99999	-5.92307
250	0.99999	-6.93988	0.11664	82.91403	0.11664	82.91403	0.99999	-6.93988
270	0.99539	-7.40796	0.12465	82.47625	0.12465	82.47625	0.99539	-7.40796
290	0.99682	-7.64566	0.13409	82.30742	0.13409	82.30742	0.99682	-7.64566
310	0.99693	-8.3011	0.14333	81.61511	0.14333	81.61511	0.99693	-8.3011
330	0.99046	-9.27229	0.15179	80.62716	0.15179	80.62716	0.99046	-9.27229
350	0.98406	-9.70711	0.1599	80.59161	0.1599	80.59161	0.98406	-9.70711
370	0.99117	-10.50283	0.17053	79.76698	0.17053	79.76698	0.99117	-10.50283
390	0.98718	-11.14366	0.17865	78.91055	0.17865	78.91055	0.98718	-11.14366
410	0.98557	-11.5789	0.18715	78.45149	0.18715	78.45149	0.98557	-11.5789
430	0.98923	-12.02051	0.19669	78.19487	0.19669	78.19487	0.98923	-12.02051
450	0.99053	-12.94315	0.20568	77.32159	0.20568	77.32159	0.99053	-12.94315
470	0.98276	-13.09432	0.21355	76.6753	0.21355	76.6753	0.98276	-13.09432
490	0.98395	-12.29004	0.21112	76.4667	0.21112	76.4667	0.98395	-12.29004
510	0.9884	-11.75994	0.21224	75.79175	0.21224	75.79175	0.9884	-11.75994
530	0.98873	-11.78279	0.2203	74.77694	0.2203	74.77694	0.98873	-11.78279
550	0.97991	-11.68648	0.22822	74.57924	0.22822	74.57924	0.97991	-11.68648
570	0.97435	-12.15107	0.23692	74.09806	0.23692	74.09806	0.97435	-12.15107
590	0.97375	-12.43795	0.24495	73.64223	0.24495	73.64223	0.97375	-12.43795
610	0.97317	-12.91054	0.25314	73.24381	0.25314	73.24381	0.97317	-12.91054
630	0.96992	-13.62184	0.26152	72.87869	0.26152	72.87869	0.96992	-13.62184
650	0.96351	-14.31441	0.26925	72.46661	0.26925	72.46661	0.96351	-14.31441
670	0.9622	-14.1723	0.27492	72.13916	0.27492	72.13916	0.9622	-14.1723
690	0.9655	-14.57962	0.28291	71.54196	0.28291	71.54196	0.9655	-14.57962
710	0.96451	-15.06955	0.29036	70.88239	0.29036	70.88239	0.96451	-15.06955
730	0.9585	-15.43317	0.29707	70.34226	0.29707	70.34226	0.9585	-15.43317
750	0.95497	-15.71954	0.30545	70.07778	0.30545	70.07778	0.95497	-15.71954
770	0.95009	-16.15679	0.31334	69.15688	0.31334	69.15688	0.95009	-16.15679
790	0.94622	-16.71197	0.32083	68.84522	0.32083	68.84522	0.94622	-16.71197
810	0.9452	-17.25931	0.32864	68.47447	0.32864	68.47447	0.9452	-17.25931
830	0.94518	-17.73434	0.33645	67.93712	0.33645	67.93712	0.94518	-17.73434
850	0.94061	-18.13397	0.34297	67.68642	0.34297	67.68642	0.94061	-18.13397
870	0.93747	-18.1528	0.34974	67.53661	0.34974	67.53661	0.93747	-18.1528
890	0.93633	-18.75388	0.35812	66.68651	0.35812	66.68651	0.93633	-18.75388
910	0.93123	-19.20072	0.36468	66.01517	0.36468	66.01517	0.93123	-19.20072
930	0.92319	-19.37181	0.36995	65.72104	0.36995	65.72104	0.92319	-19.37181
950	0.92015	-19.76069	0.3784	65.322	0.3784	65.322	0.92015	-19.76069
970	0.91903	-20.95136	0.38689	64.77087	0.38689	64.77087	0.91903	-20.95136
990	0.91534	-21.48188	0.39322	64.44972	0.39322	64.44972	0.91534	-21.48188
1010	0.91317	-21.87305	0.39964	64.11872	0.39964	64.11872	0.91317	-21.87305
1030	0.91341	-22.29735	0.40669	63.68113	0.40669	63.68113	0.91341	-22.29735
1050	0.91372	-22.57894	0.41318	63.18324	0.41318	63.18324	0.91372	-22.57894
1070	0.91366	-22.72486	0.42042	62.88531	0.42042	62.88531	0.91366	-22.72486
1090	0.90622	-22.97875	0.4266	62.13974	0.4266	62.13974	0.90622	-22.97875
1110	0.89812	-23.24586	0.43272	61.60644	0.43272	61.60644	0.89812	-23.24586
1130	0.8916	-23.5221	0.43973	61.32804	0.43973	61.32804	0.8916	-23.5221
1150	0.88446	-23.89404	0.44853	60.72995	0.44853	60.72995	0.88446	-23.89404
1170	0.87829	-24.64427	0.4537	60.38212	0.4537	60.38212	0.87829	-24.64427
1190	0.8759	-25.51693	0.46132	59.96534	0.46132	59.96534	0.8759	-25.51693
1210	0.87283	-26.28004	0.46794	59.54622	0.46794	59.54622	0.87283	-26.28004
1230	0.86971	-26.79452	0.47291	59.23536	0.47291	59.23536	0.86971	-26.79452
1250	0.8723	-27.01417	0.47835	59.18732	0.47835	59.18732	0.8723	-27.01417
1270	0.87345	-27.63226	0.4847	58.546	0.4847	58.546	0.87345	-27.63226
1290	0.87029	-28.10687	0.48991	58.01031	0.48991	58.01031	0.87029	-28.10687
1310	0.866	-28.27717	0.4947	57.5822	0.4947	57.5822	0.866	-28.27717
1330	0.86268	-28.33547	0.50015	57.14619	0.50015	57.14619	0.86268	-28.33547
1350	0.86128	-28.82725	0.50767	56.46946	0.50767	56.46946	0.86128	-28.82725
1370	0.84965	-29.08535	0.51175	56.13302	0.51175	56.13302	0.84965	-29.08535
1390	0.84601	-29.68725	0.51976	55.85097	0.51976	55.85097	0.84601	-29.68725
1410	0.84399	-30.34982	0.52622	55.36191	0.52622	55.36191	0.84399	-30.34982
1430	0.8413	-30.88034	0.53052	54.83971	0.53052	54.83971	0.8413	-30.88034
1450	0.83976	-31.17658	0.53691	54.89352	0.53691	54.89352	0.83976	-31.17658
1470	0.84156	-31.82149	0.54323	54.26233	0.54323	54.26233	0.84156	-31.82149
1490	0.83606	-32.00513	0.54727	53.91438	0.54727	53.91438	0.83606	-32.00513
1510	0.82935	-31.97971	0.55152	53.69006	0.55152	53.69006	0.82935	-31.97971
1530	0.82379	-31.99076	0.55669	53.33875	0.55669	53.33875	0.82379	-31.99076
1550	0.81806	-32.27726	0.5617	52.51871	0.5617	52.51871	0.81806	-32.27726
1570	0.81112	-32.95692	0.56664	52.18258	0.56664	52.18258	0.81112	-32.95692
1590	0.80307	-33.41196	0.57357	51.70341	0.57357	51.70341	0.80307	-33.41196
1610	0.79746	-34.00091	0.5806	51.31424	0.5806	51.31424	0.79746	-34.00091
1630	0.79509	-34.71267	0.58644	51.00832	0.58644	51.00832	0.79509	-34.71267
1650	0.794	-35.16648	0.59042	50.5391	0.59042	50.5391	0.794	-35.16648
1670	0.78831	-35.70398	0.595	50.04495	0.595	50.04495	0.78831	-35.70398
1690	0.78468	-35.94852	0.60018	49.84392	0.60018	49.84392	0.78468	-35.94852
1710	0.78201	-36.24854	0.60585	49.46728	0.60585	49.46728	0.78201	-36.24854
1730	0.77837	-36.64852	0.6113	48.92437	0.6113	48.92437	0.77837	-36.64852
1750	0.77099	-36.88895	0.61519	48.70258	0.61519	48.70258	0.77099	-36.88895
1770	0.76657	-37.12626	0.62262	48.51405	0.62262	48.51405	0.76657	-37.12626
1790	0.7623	-37.79531	0.62739	48.04711	0.62739	48.04711	0.7623	-37.79531
1810	0.75735	-38.35991	0.63105	47.57147	0.63105	47.57147	0.75735	-38.35991
1830	0.75269	-38.78983	0.63545	47.25169	0.63545	47.25169	0.75269	-38.78983
1850	0.75104	-39.56084	0.64278	47.14715	0.64278	47.14715	0.75104	-39.56084
1870	0.74902	-40.16172	0.64611	46.49364	0.64611	46.49364	0.74902	-40.16172
1890	0.74352	-40.18869	0.64744	46.26855	0.64744	46.26855	0.74352	-40.18869
1910	0.7409	-40.31987	0.65189	46.0859	0.65189	46.0859	0.7409	-40.31987
1930	0.74034	-40.77985	0.65905	45.7187	0.65905	45.7187	0.74034	-40.77985
1950	0.73383	-41.33969	0.66289	45.09885	0.66289	45.09885	0.73383	-41.33969
1970	0.72769	-41.53526	0.66427	44.98256	0.66427	44.98256	0.72769	-41.53526
1990	0.72451	-41.905	0.66974	44.62984	0.66974	44.62984	0.72451	-41.905
2010	0.72111	-42.38352	0.67643	44.23686	0.67643	44.23686	0.72111	-42.38352
2030	0.71659	-42.94071	0.68185	43.87994	0.68185	43.87994	0.71659	-42.94071
2050	0.71231	-43.58174	0.68388	43.51554	0.68388	43.51554	0.71231	-43.58174
2070	0.70884	-43.51889	0.68641	43.28768	0.68641	43.28768	0.70884	-43.51889
2090	0.70601	-43.7833	0.69176	42.97783	0.69176	42.97783	0.70601	-43.7833
2110	0.70281	-44.16582	0.69636	42.57568	0.69636	42.57568	0.70281	-44.16582
2130	0.6985	-44.51832	0.69938	42.17899	0.69938	42.17899	0.6985	-44.51832
2150	0.69259	-44.75364	0.70272	41.9935	0.70272	41.9935	0.69259	-44.75364
2170	0.68878	-44.83353	0.70789	41.61872	0.70789	41.61872	0.68878	-44.83353
2190	0.68256	-45.38059	0.7104	41.21527	0.7104	41.21527	0.68256	-45.38059
2210	0.67702	-45.95692	0.71511	40.88597	0.71511	40.88597	0.67702	-45.95692
2230	0.6737	-46.52716	0.72184	40.58118	0.72184	40.58118	0.6737	-46.52716
2250	0.67262	-47.45841	0.72538	40.09877	0.72538	40.09877	0.67262	-47.45841
2270	0.66374	-47.47047	0.72516	39.95758	0.72516	39.95758	0.66374	-47.47047
2290	0.66259	-47.62736	0.73045	39.77466	0.73045	39.77466	0.66259	-47.62736
2310	0.66091	-47.98398	0.73447	39.30771	0.73447	39.30771	0.66091	-47.98398
2330	0.65528	-48.38376	0.73584	38.7344	0.73584	38.7344	0.65528	-48.38376
2350	0.64707	-48.45869	0.73857	38.65241	0.73857	38.65241	0.64707	-48.45869
2370	0.64571	-48.6387	0.7458	38.39183	0.7458	38.39183	0.64571	-48.6387
2390	0.64013	-49.2036	0.7477	37.98577	0.7477	37.98577	0.64013	-49.2036
2410	0.63391	-49.75393	0.74933	37.66881	0.74933	37.66881	0.63391	-49.75393
2430	0.62905	-50.18186	0.75266	37.50512	0.75266	37.50512	0.62905	-50.18186
2450	0.62596	-50.67119	0.75659	37.38851	0.75659	37.38851	0.62596	-50.67119
2470	0.62596	-51.04446	0.76412	36.84068	0.76412	36.84068	0.62596	-51.04446
2490	0.62186	-51.5199	0.76809	36.42221	0.76809	36.42221	0.62186	-51.5199
2510	0.61747	-51.92786	0.76999	36.15728	0.76999	36.15728	0.61747	-51.92786
2530	0.61469	-52.14873	0.77155	35.94327	0.77155	35.94327	0.61469	-52.14873
2550	0.61352	-52.11289	0.77472	35.5508	0.77472	35.5508	0.61352	-52.11289
2570	0.60503	-52.40717	0.7756	35.19949	0.7756	35.19949	0.60503	-52.40717
2590	0.59894	-52.82778	0.7806	34.91509	0.7806	34.91509	0.59894	-52.82778
2610	0.59386	-53.30178	0.78452	34.61313	0.78452	34.61313	0.59386	-53.30178
2630	0.58909	-53.70613	0.78556	34.31679	0.78556	34.31679	0.58909	-53.70613
2650	0.58458	-53.86773	0.7853	34.15693	0.7853	34.15693	0.58458	-53.86773
2670	0.58345	-54.15463	0.79262	33.71507	0.79262	33.71507	0.58345	-54.15463
2690	0.57987	-54.57779	0.79567	33.46445	0.79567	33.46445	0.57987	-54.57779
2710	0.57573	-55.03498	0.79629	33.29588	0.79629	33.29588	0.57573	-55.03498
2730	0.57165	-55.26982	0.7976	33.13206	0.7976	33.13206	0.57165	-55.26982
2750	0.56691	-54.87179	0.80395	32.92758	0.80395	32.92758	0.56691	-54.87179
2770	0.56471	-55.47902	0.80622	32.60077	0.80622	32.60077	0.56471	-55.47902
2790	0.5612	-55.94047	0.80869	32.30477	0.80869	32.30477	0.5612	-55.94047
2810	0.55583	-56.24311	0.81167	32.18561	0.81167	32.18561	0.55583	-56.24311
2830	0.55029	-56.35398	0.81419	32.09996	0.81419	32.09996	0.55029	-56.35398
2850	0.54852	-56.22019	0.81398	31.6151	0.81398	31.6151	0.54852	-56.22019
2870	0.54411	-56.89287	0.81804	31.18072	0.81804	31.18072	0.54411	-56.89287
2890	0.53857	-57.38294	0.82104	30.95941	0.82104	30.95941	0.53857	-57.38294
2910	0.53501	-57.80884	0.82298	30.71428	0.82298	30.71428	0.53501	-57.80884
2930	0.53389	-58.16871	0.8248	30.4332	0.8248	30.4332	0.53389	-58.16871
2950	0.53308	-58.34039	0.82833	30.32876	0.82833	30.32876	0.53308	-58.34039
2970	0.52893	-58.48285	0.83092	29.9447	0.83092	29.9447	0.52893	-58.48285
2990	0.52265	-58.86084	0.83038	29.80805	0.83038	29.80805	0.52265	-58.86084
3010	0.51756	-59.08926	0.83077	29.69213	0.83077	29.69213	0.51756	-59.08926
3030	0.51495	-59.11863	0.83372	29.4893	0.83372	29.4893	0.51495	-59.11863
3050	0.51416	-59.23512	0.83844	29.21098	0.83844	29.21098	0.51416	-59.23512
3070	0.50788	-59.93272	0.84007	28.55629	0.84007	28.55629	0.50788	-59.93272
3090	0.50108	-60.14244	0.84069	28.34528	0.84069	28.34528	0.50108	-60.14244
3110	0.49668	-60.45341	0.84416	28.23389	0.84416	28.23389	0.49668	-60.45341
3130	0.49446	-61.01376	0.84917	28.01208	0.84917	28.01208	0.49446	-61.01376
3150	0.491	-61.53065	0.84923	27.60377	0.84923	27.60377	0.491	-61.53065
3170	0.48756	-61.54805	0.84723	27.38011	0.84723	27.38011	0.48756	-61.54805
3190	0.48691	-61.62935	0.85449	27.38393	0.85449	27.38393	0.48691	-61.62935
3210	0.48433	-61.7375	0.85769	27.23471	0.85769	27.23471	0.48433	-61.7375
3230	0.47914	-61.9065	0.85421	26.90071	0.85421	26.90071	0.47914	-61.9065
3250	0.47469	-62.24137	0.85215	26.69903	0.85215	26.69903	0.47469	-62.24137
3270	0.46931	-62.51912	0.85865	26.61948	0.85865	26.61948	0.46931	-62.51912
3290	0.46548	-63.17327	0.86078	26.14842	0.86078	26.14842	0.46548	-63.17327
3310	0.46258	-63.69004	0.86216	25.86445	0.86216	25.86445	0.46258	-63.69004
3330	0.4608	-63.97912	0.86528	25.79394	0.86528	25.79394	0.4608	-63.97912
3350	0.46108	-64.37369	0.87148	25.41107	0.87148	25.41107	0.46108	-64.37369
3370	0.45705	-64.70853	0.87167	25.39121	0.87167	25.39121	0.45705	-64.70853
3390	0.45355	-64.63565	0.86962	25.22449	0.86962	25.22449	0.45355	-64.63565
3410	0.44939	-64.82212	0.86911	24.92831	0.86911	24.92831	0.44939	-64.82212
3430	0.44517	-65.3535	0.8713	24.63122	0.8713	24.63122	0.44517	-65.3535
3450	0.44335	-65.73377	0.87476	24.57299	0.87476	24.57299	0.44335	-65.73377
3470	0.43729	-65.95753	0.87203	24.3268	0.87203	24.3268	0.43729	-65.95753
3490	0.43513	-66.03733	0.8759	24.2077	0.8759	24.2077	0.43513	-66.03733
3510	0.43337	-66.5969	0.87877	24.052	0.87877	24.052	0.43337	-66.5969
3530	0.43026	-67.41521	0.87839	23.80423	0.87839	23.80423	0.43026	-67.41521
3550	0.42576	-67.42642	0.87784	23.51715	0.87784	23.51715	0.42576	-67.42642
3570	0.42657	-67.71061	0.88302	23.55766	0.88302	23.55766	0.42657	-67.71061
3590	0.42438	-68.22996	0.88354	23.15001	0.88354	23.15001	0.42438	-68.22996
3610	0.4202	-68.42559	0.8833	22.96201	0.8833	22.96201	0.4202	-68.42559
3630	0.41594	-68.40212	0.88475	22.99573	0.88475	22.99573	0.41594	-68.40212
3650	0.41442	-68.92765	0.88893	22.58748	0.88893	22.58748	0.41442	-68.92765
3670	0.40919	-69.35675	0.88835	22.31658	0.88835	22.31658	0.40919	-69.35675
3690	0.40772	-69.62038	0.89045	21.93146	0.89045	21.93146	0.40772	-69.62038
3710	0.4059	-70.04923	0.89323	21.68197	0.89323	21.68197	0.4059	-70.04923
3730	0.40274	-70.60961	0.89452	21.61102	0.89452	21.61102	0.40274	-70.60961
3750	0.40031	-70.90341	0.89197	21.5546	0.89197	21.5546	0.40031	-70.90341
3770	0.39966	-71.26885	0.8946	21.46132	0.8946	21.46132	0.39966	-71.26885
3790	0.39772	-71.74917	0.89723	21.07062	0.89723	21.07062	0.39772	-71.74917
3810	0.39399	-72.0227	0.89862	20.79399	0.89862	20.79399	0.39399	-72.0227
3830	0.3894	-72.11586	0.89933	20.73948	0.89933	20.73948	0.3894	-72.11586
3850	0.38632	-72.4031	0.90172	20.71174	0.90172	20.71174	0.38632	-72.4031
3870	0.38343	-72.47301	0.90127	20.65295	0.90127	20.65295	0.38343	-72.47301
3890	0.38146	-72.9748	0.9034	20.45595	0.9034	20.45595	0.38146	-72.9748
3910	0.37967	-73.68325	0.90541	20.16633	0.90541	20.16633	0.37967	-73.68325
3930	0.37762	-74.30838	0.90572	19.88679	0.90572	19.88679	0.37762	-74.30838
3950	0.37508	-74.49548	0.9039	19.77718	0.9039	19.77718	0.37508	-74.49548
3970	0.37266	-74.48957	0.90911	19.9435	0.90911	19.9435	0.37266	-74.48957
3990	0.37037	-75.1068	0.91104	19.55296	0.91104	19.55296	0.37037	-75.1068
4010	0.36679	-75.53684	0.91081	19.21393	0.91081	19.21393	0.36679	-75.53684
4030	0.36271	-75.6548	0.90993	19.05676	0.90993	19.05676	0.36271	-75.6548
4050	0.36107	-76.02131	0.91029	18.7338	0.91029	18.7338	0.36107	-76.02131
4070	0.3595	-76.52229	0.90976	18.65423	0.90976	18.65423	0.3595	-76.52229
4090	0.35567	-77.12338	0.91277	18.33955	0.91277	18.33955	0.35567	-77.12338
4110	0.35203	-77.56533	0.9141	18.24042	0.9141	18.24042	0.35203	-77.56533
4130	0.35007	-77.82161	0.91317	18.31319	0.91317	18.31319	0.35007	-77.82161
4150	0.35034	-78.09836	0.9141	18.01999	0.9141	18.01999	0.35034	-78.09836
4170	0.34814	-78.75128	0.92208	17.49697	0.92208	17.49697	0.34814	-78.75128
4190	0.34405	-79.1312	0.91983	17.44449	0.91983	17.44449	0.34405	-79.1312
4210	0.34169	-79.43083	0.91755	17.43316	0.91755	17.43316	0.34169	-79.43083
4230	0.34083	-79.81871	0.91836	17.27838	0.91836	17.27838	0.34083	-79.81871
4250	0.33734	-80.43926	0.91831	17.04029	0.91831	17.04029	0.33734	-80.43926
4270	0.3354	-80.56743	0.92049	17.06858	0.92049	17.06858	0.3354	-80.56743
4290	0.33322	-81.10462	0.9215	16.83367	0.9215	16.83367	0.33322	-81.10462
4310	0.33089	-81.70506	0.9214	16.59275	0.9214	16.59275	0.33089	-81.70506
4330	0.32897	-82.18271	0.92121	16.4807	0.92121	16.4807	0.32897	-82.18271
4350	0.32852	-82.51122	0.92288	16.51015	0.92288	16.51015	0.32852	-82.51122
4370	0.32634	-83.00194	0.92342	16.02235	0.92342	16.02235	0.32634	-83.00194
4390	0.32416	-83.33635	0.92231	15.94241	0.92231	15.94241	0.32416	-83.33635
4410	0.32323	-83.61048	0.92585	15.75206	0.92585	15.75206	0.32323	-83.61048
4430	0.32294	-83.8698	0.9319	15.45773	0.9319	15.45773	0.32294	-83.8698
4450	0.32069	-84.10929	0.92997	15.59054	0.92997	15.59054	0.32069	-84.10929
4470	0.31713	-84.50272	0.93041	15.24626	0.93041	15.24626	0.31713	-84.50272
4490	0.31453	-85.09915	0.92741	15.02205	0.92741	15.02205	0.31453	-85.09915
4510	0.3123	-85.34176	0.92453	14.99983	0.92453	14.99983	0.3123	-85.34176
4530	0.31109	-85.34745	0.92494	15.03338	0.92494	15.03338	0.31109	-85.34745
4550	0.31275	-85.90681	0.93144	14.74834	0.93144	14.74834	0.31275	-85.90681
4570	0.30905	-86.32171	0.93003	14.49761	0.93003	14.49761	0.30905	-86.32171
4590	0.30707	-86.49721	0.92819	14.42349	0.92819	14.42349	0.30707	-86.49721
4610	0.306	-86.57521	0.93021	14.32681	0.93021	14.32681	0.306	-86.57521
4630	0.30437	-86.81552	0.93384	14.12554	0.93384	14.12554	0.30437	-86.81552
4650	0.3001	-87.59586	0.93033	13.85482	0.93033	13.85482	0.3001	-87.59586
4670	0.2973	-87.72891	0.92946	13.90211	0.92946	13.90211	0.2973	-87.72891
4690	0.29672	-88.13266	0.93187	13.61502	0.93187	13.61502	0.29672	-88.13266
4710	0.29663	-88.58766	0.93376	13.31521	0.93376	13.31521	0.29663	-88.58766
4730	0.29606	-88.95186	0.9343	13.19337	0.9343	13.19337	0.29606	-88.95186
4750	0.29479	-89.16066	0.93565	13.30922	0.93565	13.30922	0.29479	-89.16066
4770	0.29222	-89.05731	0.93626	13.36186	0.93626	13.36186	0.29222	-89.05731
4790	0.29202	-89.347	0.93639	13.17281	0.93639	13.17281	0.29202	-89.347
4810	0.2913	-89.73683	0.93644	12.90836	0.93644	12.90836	0.2913	-89.73683
4830	0.28928	-90.05291	0.93645	12.66845	0.93645	12.66845	0.28928	-90.05291
4850	0.28728	-90.24042	0.93608	12.48667	0.93608	12.48667	0.28728	-90.24042
4870	0.28503	-90.5054	0.9407	12.60092	0.9407	12.60092	0.28503	-90.5054
4890	0.28283	-90.93064	0.93731	12.23901	0.93731	12.23901	0.28283	-90.93064
4910	0.28181	-91.24037	0.93421	11.99342	0.93421	11.99342	0.28181	-91.24037
4930	0.28197	-91.32347	0.9352	11.93135	0.9352	11.93135	0.28197	-91.32347
4950	0.28214	-91.23338	0.93958	11.59461	0.93958	11.59461	0.28214	-91.23338
4970	0.27968	-91.4724	0.9373	11.71479	0.9373	11.71479	0.27968	-91.4724
4990	0.27794	-91.59513	0.93834	11.59209	0.93834	11.59209	0.27794	-91.59513
5010	0.27639	-91.85681	0.93913	11.37078	0.93913	11.37078	0.27639	-91.85681
5030	0.27478	-92.18375	0.93853	11.14183	0.93853	11.14183	0.27478	-92.18375
5050	0.27321	-92.17333	0.93789	10.94284	0.93789	10.94284	0.27321	-92.17333
5070	0.27265	-92.27792	0.93748	10.9538	0.93748	10.9538	0.27265	-92.27792
5090	0.27242	-92.67312	0.93895	10.87659	0.93895	10.87659	0.27242	-92.67312
5110	0.27086	-92.87285	0.93988	10.76862	0.93988	10.76862	0.27086	-92.87285
5130	0.26874	-92.82743	0.93966	10.72194	0.93966	10.72194	0.26874	-92.82743
5150	0.26926	-92.92353	0.9395	10.86317	0.9395	10.86317	0.26926	-92.92353
5170	0.26982	-92.93815	0.9411	10.49385	0.9411	10.49385	0.26982	-92.93815
5190	0.26704	-93.09714	0.93857	10.34552	0.93857	10.34552	0.26704	-93.09714
5210	0.26448	-92.93981	0.93898	10.23995	0.93898	10.23995	0.26448	-92.93981
5230	0.26375	-92.54264	0.94309	10.06675	0.94309	10.06675	0.26375	-92.54264
5250	0.26452	-92.51927	0.94539	9.78341	0.94539	9.78341	0.26452	-92.51927
5270	0.26242	-93.13853	0.94136	9.56616	0.94136	9.56616	0.26242	-93.13853
5290	0.25993	-93.01574	0.94111	9.55393	0.94111	9.55393	0.25993	-93.01574
5310	0.25957	-92.81098	0.94391	9.59141	0.94391	9.59141	0.25957	-92.81098
5330	0.26037	-92.87236	0.94602	9.46419	0.94602	9.46419	0.26037	-92.87236
5350	0.25787	-93.23606	0.94064	8.8988	0.94064	8.8988	0.25787	-93.23606
5370	0.25531	-93.42828	0.93914	9.15462	0.93914	9.15462	0.25531	-93.42828
5390	0.25386	-92.84046	0.94471	9.08412	0.94471	9.08412	0.25386	-92.84046
