! 500R07S0R9BV4
! Data taken April 11, 2003
! Data taken on a HP 8720C VNA using a series-through test fixture and TRL* de-embedding
#	mhz	s	ma	r	50
0	0.99999	0.00000	0.00000	90.00000	0.00000	90.00000	0.99999	0.00000
50	0.99999	-0.85545	0.03153	90.11092	0.03153	90.11092	0.99999	-0.85545
70	0.99999	-2.69625	0.04165	87.89592	0.04165	87.89592	0.99999	-2.69625
90	0.99952	-2.84801	0.0525	87.32773	0.0525	87.32773	0.99952	-2.84801
110	0.99999	-3.60492	0.06375	86.58492	0.06375	86.58492	0.99999	-3.60492
130	0.99999	-5.07674	0.07503	85.36046	0.07503	85.36046	0.99999	-5.07674
150	0.99814	-5.18888	0.08595	84.86174	0.08595	84.86174	0.99814	-5.18888
170	0.99999	-6.03737	0.09843	84.04699	0.09843	84.04699	0.99999	-6.03737
190	0.99999	-6.62779	0.10929	83.12531	0.10929	83.12531	0.99999	-6.62779
210	0.99999	-6.88038	0.11989	82.65617	0.11989	82.65617	0.99999	-6.88038
230	0.99999	-7.24198	0.13127	82.39579	0.13127	82.39579	0.99999	-7.24198
250	0.99999	-8.68612	0.14421	81.29716	0.14421	81.29716	0.99999	-8.68612
270	0.98818	-8.98062	0.15351	80.74381	0.15351	80.74381	0.98818	-8.98062
290	0.99043	-9.42874	0.16553	80.26196	0.16553	80.26196	0.99043	-9.42874
310	0.99325	-10.33544	0.17727	79.5082	0.17727	79.5082	0.99325	-10.33544
330	0.98743	-11.40612	0.18751	78.66263	0.18751	78.66263	0.98743	-11.40612
350	0.97541	-11.74657	0.19687	78.42879	0.19687	78.42879	0.97541	-11.74657
370	0.98352	-12.81543	0.20877	77.4911	0.20877	77.4911	0.98352	-12.81543
390	0.98011	-13.56673	0.2192	76.62848	0.2192	76.62848	0.98011	-13.56673
410	0.97858	-14.0223	0.22998	76.09283	0.22998	76.09283	0.97858	-14.0223
430	0.98114	-14.48737	0.24136	75.63892	0.24136	75.63892	0.98114	-14.48737
450	0.97886	-15.5506	0.25207	74.52434	0.25207	74.52434	0.97886	-15.5506
470	0.97064	-15.86445	0.26136	73.87092	0.26136	73.87092	0.97064	-15.86445
490	0.9712	-15.02539	0.25835	73.5538	0.25835	73.5538	0.9712	-15.02539
510	0.97249	-14.43554	0.25956	72.88669	0.25956	72.88669	0.97249	-14.43554
530	0.9704	-14.48366	0.26903	71.96809	0.26903	71.96809	0.9704	-14.48366
550	0.96482	-14.54524	0.27828	71.68129	0.27828	71.68129	0.96482	-14.54524
570	0.96045	-15.13821	0.28842	71.03945	0.28842	71.03945	0.96045	-15.13821
590	0.95968	-15.44221	0.29848	70.36409	0.29848	70.36409	0.95968	-15.44221
610	0.95764	-15.91691	0.30854	69.78995	0.30854	69.78995	0.95764	-15.91691
630	0.95203	-16.70325	0.31794	69.2625	0.31794	69.2625	0.95203	-16.70325
650	0.94306	-17.62346	0.32529	68.53797	0.32529	68.53797	0.94306	-17.62346
670	0.94153	-17.53612	0.3330	68.54295	0.3330	68.54295	0.94153	-17.53612
690	0.9441	-18.05476	0.34215	67.87611	0.34215	67.87611	0.9441	-18.05476
710	0.94241	-18.63053	0.35073	67.15142	0.35073	67.15142	0.94241	-18.63053
730	0.93538	-19.01336	0.35851	66.63517	0.35851	66.63517	0.93538	-19.01336
750	0.92916	-19.25204	0.36706	66.24597	0.36706	66.24597	0.92916	-19.25204
770	0.92474	-19.86575	0.37704	65.20384	0.37704	65.20384	0.92474	-19.86575
790	0.91896	-20.49883	0.38576	64.79521	0.38576	64.79521	0.91896	-20.49883
810	0.91671	-21.1789	0.39473	64.38642	0.39473	64.38642	0.91671	-21.1789
830	0.91547	-21.80778	0.40364	63.77946	0.40364	63.77946	0.91547	-21.80778
850	0.90529	-22.16151	0.41041	63.21202	0.41041	63.21202	0.90529	-22.16151
870	0.90588	-22.26133	0.41876	63.01874	0.41876	63.01874	0.90588	-22.26133
890	0.9045	-22.98157	0.42855	62.33813	0.42855	62.33813	0.9045	-22.98157
910	0.898	-23.57511	0.43636	61.64582	0.43636	61.64582	0.898	-23.57511
930	0.88932	-23.8463	0.44253	61.1284	0.44253	61.1284	0.88932	-23.8463
950	0.88746	-24.15094	0.45119	60.68341	0.45119	60.68341	0.88746	-24.15094
970	0.8826	-25.40154	0.46036	60.17877	0.46036	60.17877	0.8826	-25.40154
990	0.8778	-26.02051	0.46817	59.68569	0.46817	59.68569	0.8778	-26.02051
1010	0.8743	-26.44186	0.47527	59.198	0.47527	59.198	0.8743	-26.44186
1030	0.87253	-26.84703	0.48222	58.73439	0.48222	58.73439	0.87253	-26.84703
1050	0.87217	-27.16487	0.48948	58.33844	0.48948	58.33844	0.87217	-27.16487
1070	0.87195	-27.45778	0.49709	57.85478	0.49709	57.85478	0.87195	-27.45778
1090	0.86501	-27.85618	0.50456	57.21441	0.50456	57.21441	0.86501	-27.85618
1110	0.85667	-28.07592	0.51139	56.60161	0.51139	56.60161	0.85667	-28.07592
1130	0.84857	-28.23898	0.51829	56.05033	0.51829	56.05033	0.84857	-28.23898
1150	0.83859	-28.87355	0.52711	55.44415	0.52711	55.44415	0.83859	-28.87355
1170	0.83135	-29.66913	0.53208	55.08189	0.53208	55.08189	0.83135	-29.66913
1190	0.82777	-30.66259	0.53997	54.70641	0.53997	54.70641	0.82777	-30.66259
1210	0.82412	-31.41976	0.54718	54.24558	0.54718	54.24558	0.82412	-31.41976
1230	0.82065	-31.84155	0.55336	53.80132	0.55336	53.80132	0.82065	-31.84155
1250	0.82155	-32.16398	0.56147	53.64956	0.56147	53.64956	0.82155	-32.16398
1270	0.8217	-33.02745	0.56763	52.94251	0.56763	52.94251	0.8217	-33.02745
1290	0.8165	-33.35568	0.57125	52.40027	0.57125	52.40027	0.8165	-33.35568
1310	0.81095	-33.39199	0.57617	52.05641	0.57617	52.05641	0.81095	-33.39199
1330	0.80738	-33.49693	0.58309	51.7266	0.58309	51.7266	0.80738	-33.49693
1350	0.80543	-34.14827	0.58959	51.00857	0.58959	51.00857	0.80543	-34.14827
1370	0.7933	-34.49555	0.59292	50.49933	0.59292	50.49933	0.7933	-34.49555
1390	0.78943	-35.20317	0.60032	50.1644	0.60032	50.1644	0.78943	-35.20317
1410	0.78634	-35.83289	0.60705	49.79942	0.60705	49.79942	0.78634	-35.83289
1430	0.78197	-36.27894	0.61238	49.37561	0.61238	49.37561	0.78197	-36.27894
1450	0.77964	-36.76808	0.61968	49.0397	0.61968	49.0397	0.77964	-36.76808
1470	0.77903	-37.3014	0.62405	48.40894	0.62405	48.40894	0.77903	-37.3014
1490	0.77397	-37.42989	0.62806	47.94491	0.62806	47.94491	0.77397	-37.42989
1510	0.76716	-37.40446	0.63257	47.61377	0.63257	47.61377	0.76716	-37.40446
1530	0.76024	-37.44925	0.6379	47.28748	0.6379	47.28748	0.76024	-37.44925
1550	0.75375	-37.76166	0.64388	46.74385	0.64388	46.74385	0.75375	-37.76166
1570	0.74662	-38.56934	0.64621	46.19908	0.64621	46.19908	0.74662	-38.56934
1590	0.73803	-39.02338	0.65124	45.65422	0.65124	45.65422	0.73803	-39.02338
1610	0.73128	-39.59751	0.65874	45.1971	0.65874	45.1971	0.73128	-39.59751
1630	0.72759	-40.32566	0.66654	44.8428	0.66654	44.8428	0.72759	-40.32566
1650	0.72604	-40.80191	0.6706	44.53353	0.6706	44.53353	0.72604	-40.80191
1670	0.72113	-41.29246	0.67515	44.03496	0.67515	44.03496	0.72113	-41.29246
1690	0.71619	-41.47451	0.6779	43.85609	0.6779	43.85609	0.71619	-41.47451
1710	0.71184	-41.82551	0.68321	43.47129	0.68321	43.47129	0.71184	-41.82551
1730	0.70743	-42.3779	0.69005	42.8858	0.69005	42.8858	0.70743	-42.3779
1750	0.70108	-42.71912	0.69205	42.6357	0.69205	42.6357	0.70108	-42.71912
1770	0.69512	-42.86362	0.69785	42.42171	0.69785	42.42171	0.69512	-42.86362
1790	0.68936	-43.42559	0.70338	41.87213	0.70338	41.87213	0.68936	-43.42559
1810	0.68422	-44.05355	0.70788	41.3994	0.70788	41.3994	0.68422	-44.05355
1830	0.67981	-44.62219	0.71267	41.14406	0.71267	41.14406	0.67981	-44.62219
1850	0.676	-45.23228	0.72119	40.97472	0.72119	40.97472	0.676	-45.23228
1870	0.67344	-45.87126	0.72428	40.42278	0.72428	40.42278	0.67344	-45.87126
1890	0.66927	-45.80117	0.7246	40.20163	0.7246	40.20163	0.66927	-45.80117
1910	0.66827	-45.81857	0.72874	39.93932	0.72874	39.93932	0.66827	-45.81857
1930	0.6677	-46.26167	0.7355	39.5027	0.7355	39.5027	0.6677	-46.26167
1950	0.65726	-47.01039	0.73587	38.9975	0.73587	38.9975	0.65726	-47.01039
1970	0.6511	-47.1552	0.73862	38.86386	0.73862	38.86386	0.6511	-47.1552
1990	0.6469	-47.58947	0.74408	38.47635	0.74408	38.47635	0.6469	-47.58947
2010	0.64207	-48.07489	0.75022	38.14814	0.75022	38.14814	0.64207	-48.07489
2030	0.63651	-48.56009	0.75512	37.86193	0.75512	37.86193	0.63651	-48.56009
2050	0.63271	-49.18064	0.75693	37.27	0.75693	37.27	0.63271	-49.18064
2070	0.62767	-49.23495	0.75935	37.01103	0.75935	37.01103	0.62767	-49.23495
2090	0.62578	-49.44909	0.76433	36.74238	0.76433	36.74238	0.62578	-49.44909
2110	0.62243	-49.77528	0.76747	36.4083	0.76747	36.4083	0.62243	-49.77528
2130	0.61662	-50.09703	0.76867	36.05811	0.76867	36.05811	0.61662	-50.09703
2150	0.611	-50.22905	0.7721	35.84622	0.7721	35.84622	0.611	-50.22905
2170	0.6038	-50.62279	0.77673	35.41919	0.77673	35.41919	0.6038	-50.62279
2190	0.5996	-50.93123	0.78152	34.97152	0.78152	34.97152	0.5996	-50.93123
2210	0.5954	-51.40495	0.78609	34.67697	0.78609	34.67697	0.5954	-51.40495
2230	0.59053	-52.05503	0.78977	34.44151	0.78977	34.44151	0.59053	-52.05503
2250	0.58674	-52.65299	0.79156	33.90327	0.79156	33.90327	0.58674	-52.65299
2270	0.58138	-52.84296	0.79306	33.8305	0.79306	33.8305	0.58138	-52.84296
2290	0.57997	-53.06572	0.79933	33.56001	0.79933	33.56001	0.57997	-53.06572
2310	0.57672	-53.50659	0.80419	33.01891	0.80419	33.01891	0.57672	-53.50659
2330	0.56996	-53.97066	0.8051	32.48051	0.8051	32.48051	0.56996	-53.97066
2350	0.56221	-53.88276	0.80307	32.56437	0.80307	32.56437	0.56221	-53.88276
2370	0.56004	-53.9632	0.81053	32.35117	0.81053	32.35117	0.56004	-53.9632
2390	0.55478	-54.52496	0.8133	31.8931	0.8133	31.8931	0.55478	-54.52496
2410	0.5483	-55.1214	0.81429	31.48988	0.81429	31.48988	0.5483	-55.1214
2430	0.54304	-55.5991	0.81591	31.27959	0.81591	31.27959	0.54304	-55.5991
2450	0.54204	-56.09789	0.82007	31.23874	0.82007	31.23874	0.54204	-56.09789
2470	0.54018	-56.49288	0.82612	30.72542	0.82612	30.72542	0.54018	-56.49288
2490	0.53585	-56.84303	0.82736	30.42903	0.82736	30.42903	0.53585	-56.84303
2510	0.53156	-57.16254	0.82844	30.16254	0.82844	30.16254	0.53156	-57.16254
2530	0.52824	-57.37347	0.83143	29.87175	0.83143	29.87175	0.52824	-57.37347
2550	0.52523	-57.30578	0.83577	29.63537	0.83577	29.63537	0.52523	-57.30578
2570	0.51929	-57.61173	0.83567	29.28945	0.83567	29.28945	0.51929	-57.61173
2590	0.51412	-57.93422	0.83837	29.11613	0.83837	29.11613	0.51412	-57.93422
2610	0.50853	-58.35962	0.84157	28.81746	0.84157	28.81746	0.50853	-58.35962
2630	0.50287	-58.87593	0.84271	28.41994	0.84271	28.41994	0.50287	-58.87593
2650	0.49908	-59.37272	0.83906	28.2745	0.83906	28.2745	0.49908	-59.37272
2670	0.49754	-59.52094	0.84946	28.00686	0.84946	28.00686	0.49754	-59.52094
2690	0.49435	-59.80796	0.85269	27.676	0.85269	27.676	0.49435	-59.80796
2710	0.49148	-60.25173	0.85272	27.29562	0.85272	27.29562	0.49148	-60.25173
2730	0.4881	-60.53964	0.85362	26.99738	0.85362	26.99738	0.4881	-60.53964
2750	0.48052	-60.02854	0.85952	27.03086	0.85952	27.03086	0.48052	-60.02854
2770	0.47947	-60.53747	0.86007	26.8153	0.86007	26.8153	0.47947	-60.53747
2790	0.47584	-60.98115	0.86178	26.45871	0.86178	26.45871	0.47584	-60.98115
2810	0.47019	-61.31501	0.86296	26.36495	0.86296	26.36495	0.47019	-61.31501
2830	0.46453	-61.47214	0.86351	26.39683	0.86351	26.39683	0.46453	-61.47214
2850	0.4623	-61.36328	0.86498	25.87617	0.86498	25.87617	0.4623	-61.36328
2870	0.45766	-62.22438	0.86988	25.42468	0.86988	25.42468	0.45766	-62.22438
2890	0.45316	-62.58735	0.87093	25.20808	0.87093	25.20808	0.45316	-62.58735
2910	0.44975	-62.86397	0.87179	24.99934	0.87179	24.99934	0.44975	-62.86397
2930	0.44768	-63.15869	0.87404	24.75659	0.87404	24.75659	0.44768	-63.15869
2950	0.44659	-63.26861	0.87719	24.62311	0.87719	24.62311	0.44659	-63.26861
2970	0.44216	-63.27119	0.87927	24.3132	0.87927	24.3132	0.44216	-63.27119
2990	0.43728	-63.76576	0.87895	24.01964	0.87895	24.01964	0.43728	-63.76576
3010	0.43294	-64.02477	0.87832	23.88964	0.87832	23.88964	0.43294	-64.02477
3030	0.4297	-63.95632	0.87958	23.85288	0.87958	23.85288	0.4297	-63.95632
3050	0.42768	-64.10416	0.885	23.62146	0.885	23.62146	0.42768	-64.10416
3070	0.42091	-64.51866	0.88673	23.12996	0.88673	23.12996	0.42091	-64.51866
3090	0.41629	-64.90593	0.88628	22.95152	0.88628	22.95152	0.41629	-64.90593
3110	0.41323	-65.3672	0.88831	22.81629	0.88831	22.81629	0.41323	-65.3672
3130	0.41072	-65.85501	0.89248	22.57602	0.89248	22.57602	0.41072	-65.85501
3150	0.40737	-66.17327	0.89347	22.20407	0.89347	22.20407	0.40737	-66.17327
3170	0.40294	-66.55031	0.88735	22.26315	0.88735	22.26315	0.40294	-66.55031
3190	0.40137	-66.513	0.89524	21.99288	0.89524	21.99288	0.40137	-66.513
3210	0.39939	-66.76826	0.90083	21.72519	0.90083	21.72519	0.39939	-66.76826
3230	0.39515	-67.33071	0.8983	21.57826	0.8983	21.57826	0.39515	-67.33071
3250	0.38818	-67.52272	0.89235	21.45646	0.89235	21.45646	0.38818	-67.52272
3270	0.38525	-67.64525	0.89671	21.26023	0.89671	21.26023	0.38525	-67.64525
3290	0.38126	-68.09358	0.89953	20.74721	0.89953	20.74721	0.38126	-68.09358
3310	0.37869	-68.51976	0.90224	20.47067	0.90224	20.47067	0.37869	-68.51976
3330	0.37788	-68.90261	0.90464	20.46367	0.90464	20.46367	0.37788	-68.90261
3350	0.37707	-69.54762	0.90493	20.23898	0.90493	20.23898	0.37707	-69.54762
3370	0.37432	-69.59023	0.90798	20.01087	0.90798	20.01087	0.37432	-69.59023
3390	0.37108	-69.69106	0.90951	19.94599	0.90951	19.94599	0.37108	-69.69106
3410	0.36854	-69.76725	0.90999	19.73757	0.90999	19.73757	0.36854	-69.76725
3430	0.36628	-69.92398	0.91043	19.38836	0.91043	19.38836	0.36628	-69.92398
3450	0.36223	-70.45447	0.91244	19.21064	0.91244	19.21064	0.36223	-70.45447
3470	0.35583	-70.70917	0.90915	19.09073	0.90915	19.09073	0.35583	-70.70917
3490	0.35244	-70.96481	0.9124	19.02823	0.9124	19.02823	0.35244	-70.96481
3510	0.35076	-71.40426	0.91665	18.84049	0.91665	18.84049	0.35076	-71.40426
3530	0.34927	-71.9594	0.91791	18.57802	0.91791	18.57802	0.34927	-71.9594
3550	0.34615	-72.31104	0.91387	18.5245	0.91387	18.5245	0.34615	-72.31104
3570	0.34491	-72.74705	0.92079	18.26873	0.92079	18.26873	0.34491	-72.74705
3590	0.342	-72.99559	0.92027	18.10673	0.92027	18.10673	0.342	-72.99559
3610	0.33867	-73.24102	0.9172	17.96573	0.9172	17.96573	0.33867	-73.24102
3630	0.33575	-73.56336	0.9167	17.83336	0.9167	17.83336	0.33575	-73.56336
3650	0.33372	-73.93837	0.92416	17.75765	0.92416	17.75765	0.33372	-73.93837
3670	0.32895	-74.33709	0.92224	17.35979	0.92224	17.35979	0.32895	-74.33709
3690	0.32688	-74.72597	0.92218	17.11409	0.92218	17.11409	0.32688	-74.72597
3710	0.32551	-75.1945	0.923	16.97001	0.923	16.97001	0.32551	-75.1945
3730	0.32342	-75.71211	0.92427	16.78355	0.92427	16.78355	0.32342	-75.71211
3750	0.31981	-76.12818	0.9261	16.3173	0.9261	16.3173	0.31981	-76.12818
3770	0.3186	-75.98598	0.92565	16.53339	0.92565	16.53339	0.3186	-75.98598
3790	0.31802	-76.5625	0.9288	16.22016	0.9288	16.22016	0.31802	-76.5625
3810	0.31546	-77.01246	0.92841	15.95462	0.92841	15.95462	0.31546	-77.01246
3830	0.31121	-77.15181	0.92578	15.93372	0.92578	15.93372	0.31121	-77.15181
3850	0.30846	-77.45767	0.93059	15.9743	0.93059	15.9743	0.30846	-77.45767
3870	0.30545	-77.95649	0.92643	15.95367	0.92643	15.95367	0.30545	-77.95649
3890	0.30363	-78.30218	0.93134	15.80243	0.93134	15.80243	0.30363	-78.30218
3910	0.30215	-78.75718	0.93364	15.5032	0.93364	15.5032	0.30215	-78.75718
3930	0.30025	-79.27137	0.93143	15.20026	0.93143	15.20026	0.30025	-79.27137
3950	0.29725	-79.48207	0.93259	15.19954	0.93259	15.19954	0.29725	-79.48207
3970	0.29608	-79.78155	0.93543	15.22356	0.93543	15.22356	0.29608	-79.78155
3990	0.29403	-80.28932	0.93723	14.94275	0.93723	14.94275	0.29403	-80.28932
4010	0.2912	-80.62256	0.93752	14.66133	0.93752	14.66133	0.2912	-80.62256
4030	0.28778	-80.78432	0.93726	14.48607	0.93726	14.48607	0.28778	-80.78432
4050	0.28409	-81.16352	0.9388	14.32625	0.9388	14.32625	0.28409	-81.16352
4070	0.28333	-81.71919	0.93914	14.41934	0.93914	14.41934	0.28333	-81.71919
4090	0.28122	-82.3239	0.94065	13.97936	0.94065	13.97936	0.28122	-82.3239
4110	0.27859	-82.82507	0.94043	13.73224	0.94043	13.73224	0.27859	-82.82507
4130	0.27647	-83.18721	0.93886	13.81149	0.93886	13.81149	0.27647	-83.18721
4150	0.27612	-83.49197	0.93956	13.7582	0.93956	13.7582	0.27612	-83.49197
4170	0.2746	-84.13297	0.94716	13.16413	0.94716	13.16413	0.2746	-84.13297
4190	0.2722	-84.48017	0.94459	13.1221	0.94459	13.1221	0.2722	-84.48017
4210	0.26989	-84.71495	0.94255	13.10804	0.94255	13.10804	0.26989	-84.71495
4230	0.26813	-85.07389	0.94383	12.85562	0.94383	12.85562	0.26813	-85.07389
4250	0.26686	-85.84879	0.94324	12.35629	0.94324	12.35629	0.26686	-85.84879
4270	0.26371	-86.10293	0.94418	12.73529	0.94418	12.73529	0.26371	-86.10293
4290	0.26167	-86.81894	0.94513	12.55423	0.94513	12.55423	0.26167	-86.81894
4310	0.26009	-87.4014	0.94551	12.3307	0.94551	12.3307	0.26009	-87.4014
4330	0.25884	-87.73659	0.94599	12.24267	0.94599	12.24267	0.25884	-87.73659
4350	0.25832	-88.19244	0.94848	12.12849	0.94848	12.12849	0.25832	-88.19244
4370	0.25647	-88.57563	0.94572	11.82548	0.94572	11.82548	0.25647	-88.57563
4390	0.25442	-88.8433	0.9441	11.7615	0.9441	11.7615	0.25442	-88.8433
4410	0.25362	-89.12414	0.94765	11.57954	0.94765	11.57954	0.25362	-89.12414
4430	0.2534	-89.42847	0.95279	11.30899	0.95279	11.30899	0.2534	-89.42847
4450	0.251	-89.6482	0.94835	11.36562	0.94835	11.36562	0.251	-89.6482
4470	0.24824	-90.18816	0.95039	11.062	0.95039	11.062	0.24824	-90.18816
4490	0.24652	-90.7246	0.94912	10.90778	0.94912	10.90778	0.24652	-90.7246
4510	0.24503	-91.06155	0.94764	10.95825	0.94764	10.95825	0.24503	-91.06155
4530	0.24397	-91.31201	0.9488	11.02485	0.9488	11.02485	0.24397	-91.31201
4550	0.24464	-91.89796	0.95519	10.67521	0.95519	10.67521	0.24464	-91.89796
4570	0.24116	-92.20795	0.94871	10.44259	0.94871	10.44259	0.24116	-92.20795
4590	0.23995	-92.15954	0.95172	10.3872	0.95172	10.3872	0.23995	-92.15954
4610	0.23904	-92.18451	0.95489	10.32995	0.95489	10.32995	0.23904	-92.18451
4630	0.2372	-92.57899	0.95427	10.1578	0.95427	10.1578	0.2372	-92.57899
4650	0.23397	-93.50349	0.9512	9.82376	0.9512	9.82376	0.23397	-93.50349
4670	0.23227	-93.68634	0.94888	9.72231	0.94888	9.72231	0.23227	-93.68634
4690	0.23169	-94.06942	0.95011	9.75669	0.95011	9.75669	0.23169	-94.06942
4710	0.23125	-94.58123	0.95153	9.59012	0.95153	9.59012	0.23125	-94.58123
4730	0.23029	-94.94707	0.95211	9.29505	0.95211	9.29505	0.23029	-94.94707
4750	0.22847	-94.68896	0.95316	9.35315	0.95316	9.35315	0.22847	-94.68896
4770	0.22829	-95.07558	0.95099	9.40758	0.95099	9.40758	0.22829	-95.07558
4790	0.22745	-95.33676	0.95255	9.10163	0.95255	9.10163	0.22745	-95.33676
4810	0.22593	-95.50165	0.95458	8.86055	0.95458	8.86055	0.22593	-95.50165
4830	0.22424	-95.66288	0.95537	8.79312	0.95537	8.79312	0.22424	-95.66288
4850	0.22334	-95.97663	0.95481	8.69158	0.95481	8.69158	0.22334	-95.97663
4870	0.22112	-96.13564	0.954	8.52696	0.954	8.52696	0.22112	-96.13564
4890	0.21964	-96.90722	0.95286	8.29607	0.95286	8.29607	0.21964	-96.90722
4910	0.21924	-97.32677	0.95203	8.20991	0.95203	8.20991	0.21924	-97.32677
4930	0.21961	-97.21322	0.95285	8.19203	0.95285	8.19203	0.21961	-97.21322
4950	0.21978	-97.16893	0.95734	7.87852	0.95734	7.87852	0.21978	-97.16893
4970	0.21811	-97.29698	0.95126	8.04229	0.95126	8.04229	0.21811	-97.29698
4990	0.21656	-97.38992	0.95442	7.89753	0.95442	7.89753	0.21656	-97.38992
5010	0.21534	-97.40644	0.95746	7.68876	0.95746	7.68876	0.21534	-97.40644
5030	0.2141	-97.44046	0.95737	7.62023	0.95737	7.62023	0.2141	-97.44046
5050	0.21193	-97.72113	0.95741	7.85581	0.95741	7.85581	0.21193	-97.72113
5070	0.21159	-98.19118	0.95679	7.39777	0.95679	7.39777	0.21159	-98.19118
5090	0.2121	-98.51712	0.95596	7.26185	0.95596	7.26185	0.2121	-98.51712
5110	0.2115	-98.45193	0.95681	7.1877	0.95681	7.1877	0.2115	-98.45193
5130	0.20985	-98.26672	0.95888	7.08522	0.95888	7.08522	0.20985	-98.26672
5150	0.20927	-98.75077	0.95937	7.03459	0.95937	7.03459	0.20927	-98.75077
5170	0.21019	-98.64158	0.95889	6.91764	0.95889	6.91764	0.21019	-98.64158
5190	0.20907	-98.47309	0.95531	6.66743	0.95531	6.66743	0.20907	-98.47309
5210	0.20678	-98.19884	0.9559	6.57073	0.9559	6.57073	0.20678	-98.19884
5230	0.20471	-97.92324	0.9596	6.57325	0.9596	6.57325	0.20471	-97.92324
5250	0.20473	-97.90152	0.95697	6.27966	0.95697	6.27966	0.20473	-97.90152
5270	0.20202	-98.36833	0.95457	6.25133	0.95457	6.25133	0.20202	-98.36833
5290	0.20055	-98.28061	0.9548	6.19679	0.9548	6.19679	0.20055	-98.28061
5310	0.20099	-98.06486	0.95947	6.10239	0.95947	6.10239	0.20099	-98.06486
5330	0.20179	-98.0049	0.96328	5.9369	0.96328	5.9369	0.20179	-98.0049
5350	0.19915	-98.24185	0.95386	5.65149	0.95386	5.65149	0.19915	-98.24185
5370	0.19695	-97.97341	0.95348	5.77761	0.95348	5.77761	0.19695	-97.97341
5390	0.19627	-97.65543	0.95714	5.6545	0.95714	5.6545	0.19627	-97.65543
5410	0.19603	-97.43352	0.95949	5.5479	0.95949	5.5479	0.19603	-97.43352
