#	mhz	s	ma	r	50			
50	0.00	11.10	1.00	1.10	1.00	1.10	0.00	11.10
100	0.01	39.30	1.00	1.00	1.00	1.00	0.01	39.30
150	0.01	67.60	1.00	1.00	1.00	1.00	0.01	67.60
200	0.01	71.70	1.00	0.70	1.00	0.70	0.01	71.70
250	0.01	75.80	1.00	0.40	1.00	0.40	0.01	75.80
300	0.02	76.40	1.00	0.10	1.00	0.10	0.02	76.40
350	0.02	77.10	1.00	-0.20	1.00	-0.20	0.02	77.10
400	0.02	76.10	1.00	-0.40	1.00	-0.40	0.02	76.10
450	0.02	75.10	0.99	-0.50	0.99	-0.50	0.02	75.10
500	0.03	79.70	0.99	-0.90	0.99	-0.90	0.03	79.70
550	0.03	84.20	0.99	-1.30	0.99	-1.30	0.03	84.20
600	0.03	85.30	0.99	-1.50	0.99	-1.50	0.03	85.30
650	0.04	86.30	1.00	-1.80	1.00	-1.80	0.04	86.30
700	0.04	86.20	0.99	-2.00	0.99	-2.00	0.04	86.20
750	0.04	86.00	0.99	-2.30	0.99	-2.30	0.04	86.00
800	0.05	86.30	0.99	-2.50	0.99	-2.50	0.05	86.30
850	0.05	86.70	0.99	-2.80	0.99	-2.80	0.05	86.70
900	0.05	87.00	0.99	-3.00	0.99	-3.00	0.05	87.00
950	0.05	87.30	0.99	-3.20	0.99	-3.20	0.05	87.30
1000	0.06	87.10	0.99	-3.50	0.99	-3.50	0.06	87.10
1050	0.06	86.90	0.99	-3.70	0.99	-3.70	0.06	86.90
1100	0.06	86.90	0.99	-4.00	0.99	-4.00	0.06	86.90
1150	0.06	86.90	0.99	-4.30	0.99	-4.30	0.06	86.90
1200	0.07	86.60	0.99	-4.50	0.99	-4.50	0.07	86.60
1250	0.07	86.20	0.99	-4.70	0.99	-4.70	0.07	86.20
1300	0.07	86.10	0.99	-4.90	0.99	-4.90	0.07	86.10
1350	0.08	85.90	0.99	-5.10	0.99	-5.10	0.08	85.90
1400	0.08	85.70	0.99	-5.40	0.99	-5.40	0.08	85.70
1450	0.08	85.40	0.99	-5.60	0.99	-5.60	0.08	85.40
1500	0.09	85.40	0.99	-5.90	0.99	-5.90	0.09	85.40
1550	0.09	85.40	0.99	-6.10	0.99	-6.10	0.09	85.40
1600	0.09	84.70	0.99	-6.40	0.99	-6.40	0.09	84.70
1650	0.10	83.90	0.99	-6.60	0.99	-6.60	0.10	83.90
1700	0.10	84.10	0.99	-6.90	0.99	-6.90	0.10	84.10
1750	0.10	84.20	0.99	-7.20	0.99	-7.20	0.10	84.20
1800	0.10	83.20	0.99	-7.40	0.99	-7.40	0.10	83.20
1850	0.11	82.10	0.99	-7.60	0.99	-7.60	0.11	82.10
1900	0.11	81.50	0.99	-7.70	0.99	-7.70	0.11	81.50
1950	0.11	81.00	0.99	-7.90	0.99	-7.90	0.11	81.00
2000	0.12	80.90	0.99	-8.20	0.99	-8.20	0.12	80.90
2050	0.12	80.90	0.98	-8.50	0.98	-8.50	0.12	80.90
2100	0.12	80.40	0.98	-8.70	0.98	-8.70	0.12	80.40
2150	0.12	79.90	0.98	-8.80	0.98	-8.80	0.12	79.90
2200	0.13	79.80	0.98	-9.10	0.98	-9.10	0.13	79.80
2250	0.13	79.70	0.98	-9.40	0.98	-9.40	0.13	79.70
2300	0.13	79.10	0.98	-9.50	0.98	-9.50	0.13	79.10
2350	0.13	78.60	0.98	-9.70	0.98	-9.70	0.13	78.60
2400	0.14	78.20	0.98	-9.90	0.98	-9.90	0.14	78.20
2450	0.14	77.70	0.98	-10.20	0.98	-10.20	0.14	77.70
2500	0.14	77.50	0.98	-10.40	0.98	-10.40	0.14	77.50
2550	0.15	77.40	0.98	-10.70	0.98	-10.70	0.15	77.40
2600	0.15	76.90	0.98	-10.80	0.98	-10.80	0.15	76.90
2650	0.15	76.50	0.98	-11.00	0.98	-11.00	0.15	76.50
2700	0.16	76.50	0.98	-11.20	0.98	-11.20	0.16	76.50
2750	0.16	76.60	0.98	-11.30	0.98	-11.30	0.16	76.60
2800	0.16	76.00	0.98	-11.50	0.98	-11.50	0.16	76.00
2850	0.17	75.40	0.98	-11.70	0.98	-11.70	0.17	75.40
2900	0.17	75.20	0.98	-12.10	0.98	-12.10	0.17	75.20
2950	0.17	75.00	0.97	-12.50	0.97	-12.50	0.17	75.00
3000	0.18	74.80	0.97	-12.60	0.97	-12.60	0.18	74.80
3050	0.18	74.70	0.97	-12.70	0.97	-12.70	0.18	74.70
3100	0.18	73.90	0.97	-13.10	0.97	-13.10	0.18	73.90
3150	0.18	73.10	0.97	-13.50	0.97	-13.50	0.18	73.10
3200	0.19	73.30	0.97	-13.50	0.97	-13.50	0.19	73.30
3250	0.19	73.50	0.97	-13.40	0.97	-13.40	0.19	73.50
3300	0.20	73.40	0.97	-13.80	0.97	-13.80	0.20	73.40
3350	0.20	73.30	0.97	-14.20	0.97	-14.20	0.20	73.30
3400	0.20	73.00	0.97	-14.30	0.97	-14.30	0.20	73.00
3450	0.21	72.70	0.97	-14.40	0.97	-14.40	0.21	72.70
3500	0.21	72.70	0.96	-14.60	0.96	-14.60	0.21	72.70
3550	0.21	72.70	0.96	-14.70	0.96	-14.70	0.21	72.70
3600	0.22	72.90	0.96	-14.90	0.96	-14.90	0.22	72.90
3650	0.22	73.10	0.97	-15.10	0.97	-15.10	0.22	73.10
3700	0.22	72.70	0.96	-15.40	0.96	-15.40	0.22	72.70
3750	0.22	72.20	0.96	-15.70	0.96	-15.70	0.22	72.20
3800	0.23	72.00	0.96	-15.80	0.96	-15.80	0.23	72.00
3850	0.23	71.90	0.96	-15.90	0.96	-15.90	0.23	71.90
3900	0.23	71.60	0.96	-16.30	0.96	-16.30	0.23	71.60
3950	0.24	71.30	0.96	-16.70	0.96	-16.70	0.24	71.30
4000	0.24	71.10	0.96	-16.90	0.96	-16.90	0.24	71.10
4050	0.24	71.00	0.96	-17.00	0.96	-17.00	0.24	71.00
4100	0.25	70.40	0.96	-17.30	0.96	-17.30	0.25	70.40
4150	0.25	69.90	0.96	-17.60	0.96	-17.60	0.25	69.90
4200	0.25	69.40	0.96	-17.90	0.96	-17.90	0.25	69.40
4250	0.26	68.90	0.96	-18.10	0.96	-18.10	0.26	68.90
4300	0.26	68.60	0.95	-18.20	0.95	-18.20	0.26	68.60
4350	0.26	68.30	0.95	-18.30	0.95	-18.30	0.26	68.30
4400	0.27	67.70	0.95	-18.60	0.95	-18.60	0.27	67.70
4450	0.27	67.10	0.95	-19.00	0.95	-19.00	0.27	67.10
4500	0.27	66.60	0.95	-19.40	0.95	-19.40	0.27	66.60
4550	0.28	66.20	0.95	-19.80	0.95	-19.80	0.28	66.20
4600	0.28	65.50	0.95	-20.10	0.95	-20.10	0.28	65.50
4650	0.29	64.80	0.95	-20.30	0.95	-20.30	0.29	64.80
4700	0.29	64.70	0.95	-20.50	0.95	-20.50	0.29	64.70
4750	0.29	64.60	0.94	-20.70	0.94	-20.70	0.29	64.60
4800	0.29	64.00	0.94	-21.00	0.94	-21.00	0.29	64.00
4850	0.30	63.40	0.94	-21.20	0.94	-21.20	0.30	63.40
4900	0.30	63.30	0.94	-21.50	0.94	-21.50	0.30	63.30
4950	0.31	63.30	0.94	-21.70	0.94	-21.70	0.31	63.30
5000	0.31	62.80	0.94	-22.00	0.94	-22.00	0.31	62.80
5050	0.31	62.30	0.94	-22.30	0.94	-22.30	0.31	62.30
5100	0.31	62.00	0.94	-22.60	0.94	-22.60	0.31	62.00
5150	0.31	61.70	0.94	-23.00	0.94	-23.00	0.31	61.70
5200	0.32	61.90	0.93	-23.10	0.93	-23.10	0.32	61.90
5250	0.32	62.10	0.93	-23.20	0.93	-23.20	0.32	62.10
5300	0.32	61.70	0.93	-23.40	0.93	-23.40	0.32	61.70
5350	0.33	61.20	0.93	-23.60	0.93	-23.60	0.33	61.20
5400	0.33	60.90	0.93	-24.10	0.93	-24.10	0.33	60.90
5450	0.33	60.50	0.93	-24.60	0.93	-24.60	0.33	60.50
5500	0.34	60.20	0.93	-24.70	0.93	-24.70	0.34	60.20
5550	0.34	59.90	0.93	-24.90	0.93	-24.90	0.34	59.90
5600	0.34	59.90	0.93	-25.30	0.93	-25.30	0.34	59.90
5650	0.35	59.90	0.93	-25.70	0.93	-25.70	0.35	59.90
5700	0.35	59.60	0.93	-26.00	0.93	-26.00	0.35	59.60
5750	0.35	59.20	0.93	-26.30	0.93	-26.30	0.35	59.20
5800	0.35	59.20	0.92	-26.70	0.92	-26.70	0.35	59.20
5850	0.36	59.20	0.92	-27.00	0.92	-27.00	0.36	59.20
5900	0.36	59.50	0.92	-27.20	0.92	-27.20	0.36	59.50
5950	0.37	59.70	0.92	-27.40	0.92	-27.40	0.37	59.70
6000	0.36	59.10	0.92	-27.50	0.92	-27.50	0.36	59.10
6050	0.36	58.50	0.92	-27.60	0.92	-27.60	0.36	58.50
6100	0.37	59.20	0.92	-27.80	0.92	-27.80	0.37	59.20
6150	0.37	59.80	0.92	-28.00	0.92	-28.00	0.37	59.80
6200	0.37	60.20	0.92	-28.20	0.92	-28.20	0.37	60.20
6250	0.37	60.50	0.92	-28.50	0.92	-28.50	0.37	60.50
6300	0.38	61.10	0.91	-28.80	0.91	-28.80	0.38	61.10
6350	0.38	61.60	0.91	-29.00	0.91	-29.00	0.38	61.60
6400	0.38	61.90	0.91	-29.30	0.91	-29.30	0.38	61.90
6450	0.38	62.20	0.91	-29.60	0.91	-29.60	0.38	62.20
6500	0.39	62.50	0.90	-29.90	0.90	-29.90	0.39	62.50
6550	0.39	62.80	0.90	-30.20	0.90	-30.20	0.39	62.80
6600	0.39	63.00	0.90	-30.60	0.90	-30.60	0.39	63.00
6650	0.40	63.20	0.90	-30.90	0.90	-30.90	0.40	63.20
6700	0.40	63.50	0.90	-31.10	0.90	-31.10	0.40	63.50
6750	0.40	63.70	0.90	-31.20	0.90	-31.20	0.40	63.70
6800	0.41	63.70	0.90	-31.40	0.90	-31.40	0.41	63.70
6850	0.41	63.70	0.90	-31.50	0.90	-31.50	0.41	63.70
6900	0.41	63.50	0.90	-32.00	0.90	-32.00	0.41	63.50
6950	0.42	63.30	0.89	-32.50	0.89	-32.50	0.42	63.30
7000	0.42	63.30	0.89	-32.80	0.89	-32.80	0.42	63.30
7050	0.43	63.30	0.89	-33.10	0.89	-33.10	0.43	63.30
7100	0.43	63.20	0.89	-33.40	0.89	-33.40	0.43	63.20
7150	0.43	63.10	0.89	-33.70	0.89	-33.70	0.43	63.10
7200	0.43	62.80	0.88	-33.90	0.88	-33.90	0.43	62.80
7250	0.44	62.50	0.88	-34.20	0.88	-34.20	0.44	62.50
7300	0.44	62.20	0.88	-34.30	0.88	-34.30	0.44	62.20
7350	0.45	62.00	0.88	-34.40	0.88	-34.40	0.45	62.00
7400	0.45	61.70	0.88	-34.80	0.88	-34.80	0.45	61.70
7450	0.46	61.30	0.88	-35.20	0.88	-35.20	0.46	61.30
7500	0.46	60.70	0.87	-35.30	0.87	-35.30	0.46	60.70
7550	0.46	60.10	0.87	-35.50	0.87	-35.50	0.46	60.10
7600	0.47	59.40	0.87	-35.70	0.87	-35.70	0.47	59.40
7650	0.47	58.80	0.87	-36.00	0.87	-36.00	0.47	58.80
7700	0.47	57.70	0.87	-36.40	0.87	-36.40	0.47	57.70
7750	0.48	56.60	0.87	-36.70	0.87	-36.70	0.48	56.60
7800	0.48	56.30	0.86	-36.90	0.86	-36.90	0.48	56.30
7850	0.48	56.00	0.86	-37.00	0.86	-37.00	0.48	56.00
7900	0.49	54.60	0.86	-37.30	0.86	-37.30	0.49	54.60
7950	0.49	53.10	0.86	-37.50	0.86	-37.50	0.49	53.10
8000	0.49	52.20	0.86	-37.80	0.86	-37.80	0.49	52.20
8050	0.50	51.20	0.86	-38.10	0.86	-38.10	0.50	51.20
8100	0.50	49.90	0.85	-38.40	0.85	-38.40	0.50	49.90
8150	0.50	48.50	0.85	-38.80	0.85	-38.80	0.50	48.50
8200	0.50	47.60	0.85	-38.80	0.85	-38.80	0.50	47.60
8250	0.50	46.70	0.84	-38.80	0.84	-38.80	0.50	46.70
8300	0.51	45.50	0.84	-39.10	0.84	-39.10	0.51	45.50
8350	0.51	44.40	0.84	-39.40	0.84	-39.40	0.51	44.40
8400	0.51	43.40	0.83	-39.50	0.83	-39.50	0.51	43.40
8450	0.52	42.40	0.83	-39.70	0.83	-39.70	0.52	42.40
8500	0.52	41.50	0.83	-39.80	0.83	-39.80	0.52	41.50
8550	0.52	40.50	0.82	-40.00	0.82	-40.00	0.52	40.50
8600	0.53	39.60	0.82	-40.10	0.82	-40.10	0.53	39.60
8650	0.53	38.70	0.82	-40.30	0.82	-40.30	0.53	38.70
8700	0.54	38.10	0.82	-40.40	0.82	-40.40	0.54	38.10
8750	0.54	37.50	0.81	-40.40	0.81	-40.40	0.54	37.50
8800	0.55	36.40	0.81	-40.50	0.81	-40.50	0.55	36.40
8850	0.55	35.30	0.81	-40.60	0.81	-40.60	0.55	35.30
8900	0.55	35.50	0.81	-40.50	0.81	-40.50	0.55	35.50
8950	0.55	35.70	0.81	-40.50	0.81	-40.50	0.55	35.70
9000	0.55	35.30	0.81	-40.70	0.81	-40.70	0.55	35.30
9050	0.56	35.00	0.80	-41.00	0.80	-41.00	0.56	35.00
9100	0.56	34.80	0.80	-41.30	0.80	-41.30	0.56	34.80
9150	0.57	34.60	0.81	-41.60	0.81	-41.60	0.57	34.60
9200	0.56	34.20	0.80	-41.90	0.80	-41.90	0.56	34.20
9250	0.56	33.70	0.79	-42.10	0.79	-42.10	0.56	33.70
9300	0.56	34.20	0.80	-42.00	0.80	-42.00	0.56	34.20
9350	0.57	34.70	0.80	-41.80	0.80	-41.80	0.57	34.70
9400	0.57	34.20	0.79	-42.10	0.79	-42.10	0.57	34.20
9450	0.57	33.80	0.79	-42.50	0.79	-42.50	0.57	33.80
9500	0.58	34.10	0.79	-42.50	0.79	-42.50	0.58	34.10
9550	0.58	34.50	0.79	-42.60	0.79	-42.60	0.58	34.50
9600	0.58	34.20	0.79	-43.00	0.79	-43.00	0.58	34.20
9650	0.59	34.00	0.79	-43.40	0.79	-43.40	0.59	34.00
9700	0.59	34.20	0.79	-43.40	0.79	-43.40	0.59	34.20
9750	0.59	34.40	0.78	-43.50	0.78	-43.50	0.59	34.40
9800	0.59	34.50	0.78	-43.60	0.78	-43.60	0.59	34.50
9850	0.60	34.70	0.78	-43.70	0.78	-43.70	0.60	34.70
9900	0.60	34.60	0.78	-44.20	0.78	-44.20	0.60	34.60
9950	0.61	34.60	0.78	-44.80	0.78	-44.80	0.61	34.60
10000	0.61	34.40	0.77	-44.70	0.77	-44.70	0.61	34.40
10050	0.61	34.30	0.77	-44.50	0.77	-44.50	0.61	34.30
10100	0.61	34.50	0.77	-44.90	0.77	-44.90	0.61	34.50
10150	0.62	34.60	0.77	-45.20	0.77	-45.20	0.62	34.60
10200	0.62	34.80	0.77	-45.40	0.77	-45.40	0.62	34.80
10250	0.63	35.10	0.77	-45.50	0.77	-45.50	0.63	35.10
10300	0.63	34.60	0.76	-45.70	0.76	-45.70	0.63	34.60
10350	0.63	34.10	0.75	-45.90	0.75	-45.90	0.63	34.10
10400	0.63	34.70	0.76	-45.90	0.76	-45.90	0.63	34.70
10450	0.62	35.20	0.76	-45.80	0.76	-45.80	0.62	35.20
10500	0.63	34.60	0.75	-46.30	0.75	-46.30	0.63	34.60
10550	0.64	34.00	0.75	-46.70	0.75	-46.70	0.64	34.00
10600	0.63	34.00	0.75	-46.60	0.75	-46.60	0.63	34.00
10650	0.63	34.10	0.75	-46.60	0.75	-46.60	0.63	34.10
10700	0.64	34.10	0.75	-47.00	0.75	-47.00	0.64	34.10
10750	0.65	34.20	0.75	-47.40	0.75	-47.40	0.65	34.20
10800	0.64	34.00	0.75	-47.40	0.75	-47.40	0.64	34.00
10850	0.64	33.90	0.75	-47.40	0.75	-47.40	0.64	33.90
10900	0.64	33.70	0.75	-47.50	0.75	-47.50	0.64	33.70
10950	0.65	33.50	0.75	-47.70	0.75	-47.70	0.65	33.50
11000	0.64	32.90	0.75	-48.60	0.75	-48.60	0.64	32.90
11050	0.63	32.30	0.74	-49.50	0.74	-49.50	0.63	32.30
11100	0.64	32.20	0.74	-49.30	0.74	-49.30	0.64	32.20
11150	0.65	32.20	0.74	-49.10	0.74	-49.10	0.65	32.20
11200	0.65	31.60	0.74	-49.90	0.74	-49.90	0.65	31.60
11250	0.65	31.00	0.74	-50.70	0.74	-50.70	0.65	31.00
11300	0.65	30.50	0.74	-51.00	0.74	-51.00	0.65	30.50
11350	0.65	30.00	0.74	-51.30	0.74	-51.30	0.65	30.00
11400	0.66	30.20	0.73	-51.60	0.73	-51.60	0.66	30.20
11450	0.66	30.40	0.72	-51.90	0.72	-51.90	0.66	30.40
11500	0.66	29.90	0.72	-52.20	0.72	-52.20	0.66	29.90
11550	0.67	29.50	0.72	-52.50	0.72	-52.50	0.67	29.50
11600	0.67	29.50	0.72	-52.80	0.72	-52.80	0.67	29.50
11650	0.68	29.60	0.71	-53.00	0.71	-53.00	0.68	29.60
11700	0.68	29.40	0.71	-53.40	0.71	-53.40	0.68	29.40
11750	0.68	29.10	0.71	-53.80	0.71	-53.80	0.68	29.10
11800	0.69	29.70	0.71	-53.70	0.71	-53.70	0.69	29.70
11850	0.70	30.40	0.71	-53.70	0.71	-53.70	0.70	30.40
11900	0.69	30.40	0.70	-54.30	0.70	-54.30	0.69	30.40
11950	0.68	30.50	0.70	-54.80	0.70	-54.80	0.68	30.50
12000	0.69	30.60	0.70	-54.80	0.70	-54.80	0.69	30.60
12050	0.71	30.70	0.71	-54.80	0.71	-54.80	0.71	30.70
12100	0.70	30.00	0.70	-55.60	0.70	-55.60	0.70	30.00
12150	0.69	29.30	0.70	-56.40	0.70	-56.40	0.69	29.30
12200	0.69	29.50	0.70	-56.70	0.70	-56.70	0.69	29.50
12250	0.70	29.70	0.70	-56.90	0.70	-56.90	0.70	29.70
12300	0.70	30.00	0.69	-57.10	0.69	-57.10	0.70	30.00
12350	0.70	30.30	0.69	-57.30	0.69	-57.30	0.70	30.30
12400	0.70	29.30	0.68	-58.30	0.68	-58.30	0.70	29.30
12450	0.70	28.40	0.68	-59.30	0.68	-59.30	0.70	28.40
12500	0.70	28.80	0.68	-59.30	0.68	-59.30	0.70	28.80
12550	0.71	29.30	0.67	-59.40	0.67	-59.40	0.71	29.30
12600	0.71	28.90	0.67	-59.90	0.67	-59.90	0.71	28.90
12650	0.71	28.50	0.66	-60.40	0.66	-60.40	0.71	28.50
12700	0.72	28.40	0.66	-60.70	0.66	-60.70	0.72	28.40
12750	0.73	28.30	0.66	-61.00	0.66	-61.00	0.73	28.30
12800	0.73	28.10	0.65	-61.30	0.65	-61.30	0.73	28.10
12850	0.73	28.00	0.64	-61.70	0.64	-61.70	0.73	28.00
12900	0.74	27.80	0.64	-62.00	0.64	-62.00	0.74	27.80
12950	0.75	27.60	0.64	-62.40	0.64	-62.40	0.75	27.60
13000	0.74	27.40	0.63	-62.40	0.63	-62.40	0.74	27.40
13050	0.74	27.20	0.62	-62.50	0.62	-62.50	0.74	27.20
13100	0.74	26.90	0.62	-62.80	0.62	-62.80	0.74	26.90
13150	0.75	26.60	0.62	-63.10	0.62	-63.10	0.75	26.60
13200	0.75	26.30	0.62	-63.10	0.62	-63.10	0.75	26.30
13250	0.75	26.10	0.61	-63.10	0.61	-63.10	0.75	26.10
13300	0.74	27.30	0.61	-63.90	0.61	-63.90	0.74	27.30
13350	0.71	28.50	0.60	-64.70	0.60	-64.70	0.71	28.50
13400	0.74	26.30	0.60	-64.90	0.60	-64.90	0.74	26.30
13450	0.76	24.10	0.60	-65.20	0.60	-65.20	0.76	24.10
13500	0.75	23.80	0.60	-65.50	0.60	-65.50	0.75	23.80
13550	0.75	23.50	0.59	-65.90	0.59	-65.90	0.75	23.50
13600	0.76	22.40	0.59	-66.60	0.59	-66.60	0.76	22.40
13650	0.76	21.30	0.58	-67.20	0.58	-67.20	0.76	21.30
13700	0.76	20.60	0.58	-67.30	0.58	-67.30	0.76	20.60
13750	0.76	20.00	0.57	-67.50	0.57	-67.50	0.76	20.00
13800	0.76	18.50	0.57	-67.80	0.57	-67.80	0.76	18.50
13850	0.77	17.10	0.56	-68.20	0.56	-68.20	0.77	17.10
13900	0.77	15.90	0.56	-68.30	0.56	-68.30	0.77	15.90
13950	0.77	14.70	0.56	-68.30	0.56	-68.30	0.77	14.70
14000	0.78	14.00	0.56	-68.50	0.56	-68.50	0.78	14.00
14050	0.78	13.30	0.55	-68.60	0.55	-68.60	0.78	13.30
14100	0.79	11.80	0.55	-68.80	0.55	-68.80	0.79	11.80
14150	0.79	10.30	0.55	-69.10	0.55	-69.10	0.79	10.30
14200	0.80	9.80	0.55	-69.40	0.55	-69.40	0.80	9.80
14250	0.80	9.30	0.54	-69.80	0.54	-69.80	0.80	9.30
14300	0.80	7.90	0.54	-70.10	0.54	-70.10	0.80	7.90
14350	0.80	6.50	0.54	-70.50	0.54	-70.50	0.80	6.50
14400	0.81	6.10	0.53	-70.50	0.53	-70.50	0.81	6.10
14450	0.82	5.70	0.53	-70.60	0.53	-70.60	0.82	5.70
14500	0.82	5.10	0.52	-70.60	0.52	-70.60	0.82	5.10
14550	0.82	4.40	0.52	-70.70	0.52	-70.70	0.82	4.40
14600	0.83	4.10	0.52	-70.80	0.52	-70.80	0.83	4.10
14650	0.84	3.80	0.52	-70.90	0.52	-70.90	0.84	3.80
14700	0.83	3.10	0.51	-71.10	0.51	-71.10	0.83	3.10
14750	0.83	2.50	0.51	-71.30	0.51	-71.30	0.83	2.50
14800	0.83	2.00	0.50	-71.70	0.50	-71.70	0.83	2.00
14850	0.84	1.50	0.50	-72.00	0.50	-72.00	0.84	1.50
14900	0.84	1.90	0.50	-71.70	0.50	-71.70	0.84	1.90
14950	0.84	2.30	0.50	-71.40	0.50	-71.40	0.84	2.30
15000	0.84	1.00	0.49	-72.10	0.49	-72.10	0.84	1.00
15050	0.84	-0.40	0.49	-72.70	0.49	-72.70	0.84	-0.40
15100	0.84	0.20	0.48	-72.40	0.48	-72.40	0.84	0.20
15150	0.84	0.80	0.48	-72.10	0.48	-72.10	0.84	0.80
15200	0.85	0.30	0.48	-72.20	0.48	-72.20	0.85	0.30
15250	0.85	-0.20	0.48	-72.30	0.48	-72.30	0.85	-0.20
15300	0.86	-0.80	0.47	-73.00	0.47	-73.00	0.86	-0.80
15350	0.86	-1.50	0.47	-73.70	0.47	-73.70	0.86	-1.50
15400	0.85	-1.40	0.46	-73.30	0.46	-73.30	0.85	-1.40
15450	0.84	-1.20	0.45	-73.00	0.45	-73.00	0.84	-1.20
15500	0.86	-0.80	0.45	-73.60	0.45	-73.60	0.86	-0.80
15550	0.88	-0.30	0.45	-74.10	0.45	-74.10	0.88	-0.30
15600	0.88	-0.50	0.45	-74.00	0.45	-74.00	0.88	-0.50
15650	0.88	-0.70	0.44	-73.90	0.44	-73.90	0.88	-0.70
15700	0.89	-0.60	0.44	-74.40	0.44	-74.40	0.89	-0.60
15750	0.89	-0.50	0.43	-74.80	0.43	-74.80	0.89	-0.50
15800	0.89	0.00	0.43	-74.50	0.43	-74.50	0.89	0.00
15850	0.89	0.60	0.42	-74.20	0.42	-74.20	0.89	0.60
15900	0.89	0.70	0.41	-74.20	0.41	-74.20	0.89	0.70
15950	0.89	0.80	0.41	-74.20	0.41	-74.20	0.89	0.80
16000	0.90	1.90	0.41	-73.70	0.41	-73.70	0.90	1.90
16050	0.90	3.00	0.41	-73.20	0.41	-73.20	0.90	3.00
16100	0.90	3.20	0.40	-73.40	0.40	-73.40	0.90	3.20
16150	0.90	3.40	0.40	-73.60	0.40	-73.60	0.90	3.40
16200	0.89	4.00	0.40	-73.20	0.40	-73.20	0.89	4.00
16250	0.89	4.60	0.39	-72.80	0.39	-72.80	0.89	4.60
16300	0.89	4.90	0.40	-72.60	0.40	-72.60	0.89	4.90
16350	0.89	5.30	0.40	-72.40	0.40	-72.40	0.89	5.30
16400	0.89	5.70	0.40	-72.80	0.40	-72.80	0.89	5.70
16450	0.89	6.10	0.39	-73.20	0.39	-73.20	0.89	6.10
16500	0.88	5.70	0.39	-72.90	0.39	-72.90	0.88	5.70
16550	0.87	5.20	0.39	-72.60	0.39	-72.60	0.87	5.20
16600	0.88	5.40	0.39	-72.80	0.39	-72.80	0.88	5.40
16650	0.88	5.70	0.39	-73.10	0.39	-73.10	0.88	5.70
16700	0.88	5.30	0.39	-73.70	0.39	-73.70	0.88	5.30
16750	0.88	5.00	0.39	-74.20	0.39	-74.20	0.88	5.00
16800	0.88	4.70	0.39	-74.70	0.39	-74.70	0.88	4.70
16850	0.88	4.50	0.38	-75.20	0.38	-75.20	0.88	4.50
16900	0.89	4.20	0.38	-75.60	0.38	-75.60	0.89	4.20
16950	0.89	3.90	0.37	-75.90	0.37	-75.90	0.89	3.90
17000	0.89	3.60	0.37	-76.30	0.37	-76.30	0.89	3.60
17050	0.89	3.30	0.37	-76.70	0.37	-76.70	0.89	3.30
17100	0.90	3.30	0.36	-77.10	0.36	-77.10	0.90	3.30
17150	0.91	3.30	0.35	-77.40	0.35	-77.40	0.91	3.30
17200	0.91	3.40	0.35	-77.40	0.35	-77.40	0.91	3.40
17250	0.91	3.60	0.35	-77.40	0.35	-77.40	0.91	3.60
17300	0.91	3.90	0.34	-77.50	0.34	-77.50	0.91	3.90
17350	0.92	4.20	0.34	-77.50	0.34	-77.50	0.92	4.20
17400	0.93	4.20	0.34	-77.30	0.34	-77.30	0.93	4.20
17450	0.93	4.30	0.33	-77.10	0.33	-77.10	0.93	4.30
17500	0.94	4.20	0.33	-77.60	0.33	-77.60	0.94	4.20
17550	0.94	4.20	0.33	-78.10	0.33	-78.10	0.94	4.20
17600	0.94	4.10	0.33	-78.60	0.33	-78.60	0.94	4.10
17650	0.94	4.00	0.32	-79.00	0.32	-79.00	0.94	4.00
17700	0.94	4.00	0.32	-79.20	0.32	-79.20	0.94	4.00
17750	0.94	3.90	0.32	-79.40	0.32	-79.40	0.94	3.90
17800	0.94	2.70	0.32	-80.40	0.32	-80.40	0.94	2.70
17850	0.93	1.40	0.32	-81.40	0.32	-81.40	0.93	1.40
17900	0.92	1.70	0.31	-81.70	0.31	-81.70	0.92	1.70
17950	0.91	2.10	0.30	-82.00	0.30	-82.00	0.91	2.10
18000	0.91	1.30	0.30	-82.60	0.30	-82.60	0.91	1.30
18050	0.91	0.50	0.30	-83.10	0.30	-83.10	0.91	0.50
18100	0.90	-0.40	0.29	-83.80	0.29	-83.80	0.90	-0.40
18150	0.90	-1.40	0.29	-84.40	0.29	-84.40	0.90	-1.40
18200	0.90	-1.50	0.28	-84.80	0.28	-84.80	0.90	-1.50
18250	0.90	-1.70	0.28	-85.20	0.28	-85.20	0.90	-1.70
18300	0.92	-2.90	0.28	-85.70	0.28	-85.70	0.92	-2.90
18350	0.93	-4.20	0.28	-86.30	0.28	-86.30	0.93	-4.20
18400	0.93	-4.20	0.27	-86.70	0.27	-86.70	0.93	-4.20
18450	0.92	-4.30	0.26	-87.00	0.26	-87.00	0.92	-4.30
18500	0.94	-3.90	0.26	-87.00	0.26	-87.00	0.94	-3.90
18550	0.96	-3.60	0.26	-87.00	0.26	-87.00	0.96	-3.60
18600	0.97	-3.80	0.26	-87.70	0.26	-87.70	0.97	-3.80
18650	0.98	-4.10	0.25	-88.40	0.25	-88.40	0.98	-4.10
18700	0.97	-5.30	0.25	-89.50	0.25	-89.50	0.97	-5.30
18750	0.96	-6.60	0.24	-90.60	0.24	-90.60	0.96	-6.60
18800	0.97	-6.30	0.24	-90.80	0.24	-90.80	0.97	-6.30
18850	0.97	-6.10	0.24	-91.00	0.24	-91.00	0.97	-6.10
18900	0.98	-7.20	0.23	-92.70	0.23	-92.70	0.98	-7.20
18950	0.98	-8.30	0.23	-94.40	0.23	-94.40	0.98	-8.30
19000	0.95	-8.80	0.22	-95.60	0.22	-95.60	0.95	-8.80
19050	0.93	-9.40	0.22	-96.70	0.22	-96.70	0.93	-9.40
19100	0.93	-9.90	0.20	-97.40	0.20	-97.40	0.93	-9.90
19150	0.94	-10.50	0.19	-98.10	0.19	-98.10	0.94	-10.50
19200	0.93	-12.30	0.19	-97.20	0.19	-97.20	0.93	-12.30
19250	0.93	-14.10	0.18	-96.30	0.18	-96.30	0.93	-14.10
19300	0.93	-14.90	0.18	-95.40	0.18	-95.40	0.93	-14.90
19350	0.94	-15.60	0.17	-94.50	0.17	-94.50	0.94	-15.60
19400	0.94	-17.60	0.17	-95.10	0.17	-95.10	0.94	-17.60
19450	0.95	-19.60	0.17	-95.80	0.17	-95.80	0.95	-19.60
19500	0.94	-20.60	0.16	-95.20	0.16	-95.20	0.94	-20.60
19550	0.94	-21.50	0.16	-94.60	0.16	-94.60	0.94	-21.50
19600	0.94	-22.40	0.15	-95.40	0.15	-95.40	0.94	-22.40
