#	mhz	s	ma	r	50			
50	0.01	0.60	0.99	1.10	0.99	1.10	0.01	0.60
100	0.01	19.10	0.99	1.10	0.99	1.10	0.01	19.10
150	0.01	37.50	0.99	1.00	0.99	1.00	0.01	37.50
200	0.02	45.50	0.99	0.70	0.99	0.70	0.02	45.50
250	0.02	53.50	0.99	0.40	0.99	0.40	0.02	53.50
300	0.02	54.80	0.99	0.10	0.99	0.10	0.02	54.80
350	0.02	56.20	0.99	-0.20	0.99	-0.20	0.02	56.20
400	0.02	57.80	0.99	-0.40	0.99	-0.40	0.02	57.80
450	0.03	59.40	0.99	-0.50	0.99	-0.50	0.03	59.40
500	0.03	65.00	0.99	-0.90	0.99	-0.90	0.03	65.00
550	0.03	70.60	0.99	-1.20	0.99	-1.20	0.03	70.60
600	0.04	72.60	0.99	-1.50	0.99	-1.50	0.04	72.60
650	0.04	74.50	0.99	-1.80	0.99	-1.80	0.04	74.50
700	0.04	75.20	0.99	-2.00	0.99	-2.00	0.04	75.20
750	0.04	75.90	0.99	-2.20	0.99	-2.20	0.04	75.90
800	0.05	76.80	0.99	-2.50	0.99	-2.50	0.05	76.80
850	0.05	77.70	0.99	-2.70	0.99	-2.70	0.05	77.70
900	0.05	78.40	0.99	-3.00	0.99	-3.00	0.05	78.40
950	0.05	79.10	0.99	-3.20	0.99	-3.20	0.05	79.10
1000	0.06	79.30	0.99	-3.40	0.99	-3.40	0.06	79.30
1050	0.06	79.40	0.99	-3.70	0.99	-3.70	0.06	79.40
1100	0.06	79.80	0.98	-3.90	0.98	-3.90	0.06	79.80
1150	0.06	80.20	0.98	-4.20	0.98	-4.20	0.06	80.20
1200	0.07	80.20	0.98	-4.40	0.98	-4.40	0.07	80.20
1250	0.07	80.20	0.98	-4.60	0.98	-4.60	0.07	80.20
1300	0.08	80.30	0.98	-4.90	0.98	-4.90	0.08	80.30
1350	0.08	80.40	0.98	-5.10	0.98	-5.10	0.08	80.40
1400	0.08	80.40	0.98	-5.30	0.98	-5.30	0.08	80.40
1450	0.08	80.40	0.98	-5.50	0.98	-5.50	0.08	80.40
1500	0.09	80.50	0.98	-5.80	0.98	-5.80	0.09	80.50
1550	0.09	80.60	0.98	-6.10	0.98	-6.10	0.09	80.60
1600	0.09	80.10	0.98	-6.30	0.98	-6.30	0.09	80.10
1650	0.10	79.60	0.98	-6.50	0.98	-6.50	0.10	79.60
1700	0.10	79.80	0.98	-6.80	0.98	-6.80	0.10	79.80
1750	0.10	80.10	0.98	-7.10	0.98	-7.10	0.10	80.10
1800	0.10	79.10	0.98	-7.30	0.98	-7.30	0.10	79.10
1850	0.11	78.20	0.98	-7.50	0.98	-7.50	0.11	78.20
1900	0.11	77.80	0.98	-7.60	0.98	-7.60	0.11	77.80
1950	0.11	77.40	0.98	-7.80	0.98	-7.80	0.11	77.40
2000	0.12	77.50	0.98	-8.10	0.98	-8.10	0.12	77.50
2050	0.12	77.50	0.98	-8.40	0.98	-8.40	0.12	77.50
2100	0.12	77.20	0.98	-8.60	0.98	-8.60	0.12	77.20
2150	0.12	76.80	0.98	-8.70	0.98	-8.70	0.12	76.80
2200	0.13	76.70	0.98	-9.00	0.98	-9.00	0.13	76.70
2250	0.13	76.60	0.98	-9.30	0.98	-9.30	0.13	76.60
2300	0.13	76.10	0.98	-9.40	0.98	-9.40	0.13	76.10
2350	0.13	75.60	0.98	-9.50	0.98	-9.50	0.13	75.60
2400	0.14	75.40	0.97	-9.80	0.97	-9.80	0.14	75.40
2450	0.14	75.20	0.97	-10.10	0.97	-10.10	0.14	75.20
2500	0.14	74.90	0.97	-10.30	0.97	-10.30	0.14	74.90
2550	0.15	74.70	0.97	-10.50	0.97	-10.50	0.15	74.70
2600	0.15	74.50	0.97	-10.70	0.97	-10.70	0.15	74.50
2650	0.15	74.30	0.97	-10.80	0.97	-10.80	0.15	74.30
2700	0.16	74.20	0.97	-11.00	0.97	-11.00	0.16	74.20
2750	0.16	74.20	0.97	-11.20	0.97	-11.20	0.16	74.20
2800	0.16	73.90	0.97	-11.30	0.97	-11.30	0.16	73.90
2850	0.17	73.50	0.97	-11.50	0.97	-11.50	0.17	73.50
2900	0.17	73.20	0.97	-11.90	0.97	-11.90	0.17	73.20
2950	0.17	72.90	0.97	-12.30	0.97	-12.30	0.17	72.90
3000	0.17	72.80	0.97	-12.40	0.97	-12.40	0.17	72.80
3050	0.18	72.80	0.97	-12.50	0.97	-12.50	0.18	72.80
3100	0.18	72.00	0.96	-12.90	0.96	-12.90	0.18	72.00
3150	0.18	71.20	0.96	-13.30	0.96	-13.30	0.18	71.20
3200	0.19	71.50	0.96	-13.30	0.96	-13.30	0.19	71.50
3250	0.19	71.70	0.96	-13.30	0.96	-13.30	0.19	71.70
3300	0.20	71.70	0.96	-13.60	0.96	-13.60	0.20	71.70
3350	0.20	71.60	0.96	-14.00	0.96	-14.00	0.20	71.60
3400	0.20	71.30	0.96	-14.10	0.96	-14.10	0.20	71.30
3450	0.21	70.90	0.96	-14.20	0.96	-14.20	0.21	70.90
3500	0.21	71.10	0.96	-14.30	0.96	-14.30	0.21	71.10
3550	0.21	71.30	0.96	-14.50	0.96	-14.50	0.21	71.30
3600	0.22	71.40	0.96	-14.70	0.96	-14.70	0.22	71.40
3650	0.22	71.50	0.96	-14.90	0.96	-14.90	0.22	71.50
3700	0.22	71.20	0.96	-15.20	0.96	-15.20	0.22	71.20
3750	0.22	70.90	0.96	-15.50	0.96	-15.50	0.22	70.90
3800	0.23	70.70	0.95	-15.60	0.95	-15.60	0.23	70.70
3850	0.23	70.40	0.95	-15.70	0.95	-15.70	0.23	70.40
3900	0.23	70.20	0.95	-16.10	0.95	-16.10	0.23	70.20
3950	0.24	70.00	0.95	-16.50	0.95	-16.50	0.24	70.00
4000	0.24	69.90	0.95	-16.70	0.95	-16.70	0.24	69.90
4050	0.24	69.70	0.95	-16.80	0.95	-16.80	0.24	69.70
4100	0.25	69.20	0.95	-17.10	0.95	-17.10	0.25	69.20
4150	0.25	68.80	0.95	-17.40	0.95	-17.40	0.25	68.80
4200	0.25	68.30	0.95	-17.60	0.95	-17.60	0.25	68.30
4250	0.26	67.90	0.95	-17.80	0.95	-17.80	0.26	67.90
4300	0.26	67.60	0.95	-18.00	0.95	-18.00	0.26	67.60
4350	0.26	67.20	0.95	-18.10	0.95	-18.10	0.26	67.20
4400	0.27	66.70	0.95	-18.40	0.95	-18.40	0.27	66.70
4450	0.27	66.30	0.95	-18.70	0.95	-18.70	0.27	66.30
4500	0.27	65.70	0.94	-19.10	0.94	-19.10	0.27	65.70
4550	0.28	65.20	0.94	-19.60	0.94	-19.60	0.28	65.20
4600	0.28	64.60	0.94	-19.80	0.94	-19.80	0.28	64.60
4650	0.28	64.10	0.94	-20.00	0.94	-20.00	0.28	64.10
4700	0.29	63.80	0.94	-20.20	0.94	-20.20	0.29	63.80
4750	0.29	63.60	0.94	-20.40	0.94	-20.40	0.29	63.60
4800	0.29	63.10	0.94	-20.70	0.94	-20.70	0.29	63.10
4850	0.30	62.70	0.94	-20.90	0.94	-20.90	0.30	62.70
4900	0.30	62.50	0.94	-21.20	0.94	-21.20	0.30	62.50
4950	0.31	62.30	0.93	-21.40	0.93	-21.40	0.31	62.30
5000	0.31	61.90	0.93	-21.70	0.93	-21.70	0.31	61.90
5050	0.31	61.50	0.93	-22.00	0.93	-22.00	0.31	61.50
5100	0.31	61.20	0.93	-22.30	0.93	-22.30	0.31	61.20
5150	0.31	60.80	0.93	-22.70	0.93	-22.70	0.31	60.80
5200	0.31	61.00	0.93	-22.80	0.93	-22.80	0.31	61.00
5250	0.32	61.20	0.92	-22.90	0.92	-22.90	0.32	61.20
5300	0.32	60.90	0.93	-23.10	0.93	-23.10	0.32	60.90
5350	0.33	60.60	0.93	-23.30	0.93	-23.30	0.33	60.60
5400	0.33	60.10	0.93	-23.80	0.93	-23.80	0.33	60.10
5450	0.33	59.70	0.92	-24.30	0.92	-24.30	0.33	59.70
5500	0.33	59.60	0.92	-24.40	0.92	-24.40	0.33	59.60
5550	0.34	59.50	0.92	-24.60	0.92	-24.60	0.34	59.50
5600	0.34	59.30	0.92	-25.00	0.92	-25.00	0.34	59.30
5650	0.34	59.20	0.92	-25.40	0.92	-25.40	0.34	59.20
5700	0.35	59.00	0.92	-25.60	0.92	-25.60	0.35	59.00
5750	0.35	58.90	0.92	-25.90	0.92	-25.90	0.35	58.90
5800	0.35	58.70	0.92	-26.30	0.92	-26.30	0.35	58.70
5850	0.36	58.60	0.91	-26.70	0.91	-26.70	0.36	58.60
5900	0.36	58.90	0.91	-26.90	0.91	-26.90	0.36	58.90
5950	0.36	59.20	0.91	-27.10	0.91	-27.10	0.36	59.20
6000	0.36	58.60	0.91	-27.20	0.91	-27.20	0.36	58.60
6050	0.36	58.00	0.92	-27.20	0.92	-27.20	0.36	58.00
6100	0.36	58.60	0.92	-27.40	0.92	-27.40	0.36	58.60
6150	0.37	59.30	0.91	-27.60	0.91	-27.60	0.37	59.30
6200	0.37	59.70	0.91	-27.90	0.91	-27.90	0.37	59.70
6250	0.37	60.10	0.91	-28.10	0.91	-28.10	0.37	60.10
6300	0.38	60.60	0.91	-28.40	0.91	-28.40	0.38	60.60
6350	0.38	61.10	0.91	-28.60	0.91	-28.60	0.38	61.10
6400	0.38	61.50	0.90	-28.90	0.90	-28.90	0.38	61.50
6450	0.38	61.80	0.90	-29.20	0.90	-29.20	0.38	61.80
6500	0.38	62.10	0.90	-29.50	0.90	-29.50	0.38	62.10
6550	0.39	62.30	0.90	-29.80	0.90	-29.80	0.39	62.30
6600	0.39	62.60	0.90	-30.20	0.90	-30.20	0.39	62.60
6650	0.40	62.90	0.90	-30.50	0.90	-30.50	0.40	62.90
6700	0.40	63.00	0.90	-30.70	0.90	-30.70	0.40	63.00
6750	0.40	63.20	0.89	-30.80	0.89	-30.80	0.40	63.20
6800	0.40	63.20	0.89	-31.00	0.89	-31.00	0.40	63.20
6850	0.41	63.30	0.89	-31.20	0.89	-31.20	0.41	63.30
6900	0.41	63.10	0.89	-31.60	0.89	-31.60	0.41	63.10
6950	0.42	62.90	0.89	-32.10	0.89	-32.10	0.42	62.90
7000	0.42	62.90	0.89	-32.40	0.89	-32.40	0.42	62.90
7050	0.42	63.00	0.89	-32.70	0.89	-32.70	0.42	63.00
7100	0.43	62.90	0.88	-33.00	0.88	-33.00	0.43	62.90
7150	0.43	62.70	0.88	-33.20	0.88	-33.20	0.43	62.70
7200	0.43	62.50	0.88	-33.50	0.88	-33.50	0.43	62.50
7250	0.44	62.30	0.88	-33.70	0.88	-33.70	0.44	62.30
7300	0.44	62.10	0.88	-33.80	0.88	-33.80	0.44	62.10
7350	0.45	61.90	0.88	-33.90	0.88	-33.90	0.45	61.90
7400	0.45	61.50	0.87	-34.40	0.87	-34.40	0.45	61.50
7450	0.45	61.10	0.87	-34.80	0.87	-34.80	0.45	61.10
7500	0.46	60.50	0.87	-34.90	0.87	-34.90	0.46	60.50
7550	0.46	60.00	0.87	-35.00	0.87	-35.00	0.46	60.00
7600	0.46	59.30	0.87	-35.30	0.87	-35.30	0.46	59.30
7650	0.47	58.50	0.87	-35.60	0.87	-35.60	0.47	58.50
7700	0.47	57.50	0.86	-35.90	0.86	-35.90	0.47	57.50
7750	0.47	56.40	0.86	-36.30	0.86	-36.30	0.47	56.40
7800	0.48	56.10	0.86	-36.40	0.86	-36.40	0.48	56.10
7850	0.48	55.70	0.85	-36.60	0.85	-36.60	0.48	55.70
7900	0.48	54.30	0.86	-36.80	0.86	-36.80	0.48	54.30
7950	0.49	53.00	0.86	-37.00	0.86	-37.00	0.49	53.00
8000	0.49	52.00	0.85	-37.30	0.85	-37.30	0.49	52.00
8050	0.50	51.10	0.85	-37.60	0.85	-37.60	0.50	51.10
8100	0.50	49.80	0.85	-37.90	0.85	-37.90	0.50	49.80
8150	0.50	48.50	0.84	-38.30	0.84	-38.30	0.50	48.50
8200	0.50	47.60	0.84	-38.30	0.84	-38.30	0.50	47.60
8250	0.50	46.80	0.84	-38.30	0.84	-38.30	0.50	46.80
8300	0.50	45.60	0.84	-38.60	0.84	-38.60	0.50	45.60
8350	0.51	44.50	0.83	-38.90	0.83	-38.90	0.51	44.50
8400	0.51	43.50	0.83	-39.00	0.83	-39.00	0.51	43.50
8450	0.52	42.60	0.83	-39.20	0.83	-39.20	0.52	42.60
8500	0.52	41.60	0.83	-39.30	0.83	-39.30	0.52	41.60
8550	0.52	40.60	0.82	-39.50	0.82	-39.50	0.52	40.60
8600	0.52	39.70	0.82	-39.60	0.82	-39.60	0.52	39.70
8650	0.53	38.80	0.82	-39.80	0.82	-39.80	0.53	38.80
8700	0.54	38.20	0.81	-39.80	0.81	-39.80	0.54	38.20
8750	0.54	37.50	0.81	-39.90	0.81	-39.90	0.54	37.50
8800	0.54	36.50	0.81	-40.00	0.81	-40.00	0.54	36.50
8850	0.54	35.40	0.81	-40.00	0.81	-40.00	0.54	35.40
8900	0.54	35.60	0.81	-40.00	0.81	-40.00	0.54	35.60
8950	0.55	35.80	0.80	-40.00	0.80	-40.00	0.55	35.80
9000	0.55	35.50	0.80	-40.20	0.80	-40.20	0.55	35.50
9050	0.56	35.20	0.80	-40.40	0.80	-40.40	0.56	35.20
9100	0.56	35.00	0.80	-40.80	0.80	-40.80	0.56	35.00
9150	0.57	34.90	0.80	-41.10	0.80	-41.10	0.57	34.90
9200	0.56	34.40	0.80	-41.30	0.80	-41.30	0.56	34.40
9250	0.56	34.00	0.79	-41.60	0.79	-41.60	0.56	34.00
9300	0.56	34.50	0.79	-41.40	0.79	-41.40	0.56	34.50
9350	0.57	35.10	0.80	-41.30	0.80	-41.30	0.57	35.10
9400	0.57	34.60	0.79	-41.60	0.79	-41.60	0.57	34.60
9450	0.57	34.10	0.79	-41.90	0.79	-41.90	0.57	34.10
9500	0.57	34.40	0.79	-42.00	0.79	-42.00	0.57	34.40
9550	0.58	34.80	0.79	-42.10	0.79	-42.10	0.58	34.80
9600	0.58	34.60	0.79	-42.50	0.79	-42.50	0.58	34.60
9650	0.59	34.30	0.79	-42.80	0.79	-42.80	0.59	34.30
9700	0.59	34.50	0.78	-42.90	0.78	-42.90	0.59	34.50
9750	0.59	34.70	0.78	-42.90	0.78	-42.90	0.59	34.70
9800	0.59	34.90	0.78	-43.00	0.78	-43.00	0.59	34.90
9850	0.60	35.20	0.78	-43.10	0.78	-43.10	0.60	35.20
9900	0.60	35.10	0.78	-43.70	0.78	-43.70	0.60	35.10
9950	0.61	35.00	0.78	-44.20	0.78	-44.20	0.61	35.00
10000	0.61	35.00	0.77	-44.10	0.77	-44.10	0.61	35.00
10050	0.61	34.90	0.77	-44.00	0.77	-44.00	0.61	34.90
10100	0.61	35.10	0.77	-44.30	0.77	-44.30	0.61	35.10
10150	0.61	35.20	0.77	-44.60	0.77	-44.60	0.61	35.20
10200	0.62	35.40	0.77	-44.80	0.77	-44.80	0.62	35.40
10250	0.62	35.60	0.77	-44.90	0.77	-44.90	0.62	35.60
10300	0.63	35.10	0.76	-45.20	0.76	-45.20	0.63	35.10
10350	0.63	34.70	0.75	-45.40	0.75	-45.40	0.63	34.70
10400	0.62	35.20	0.75	-45.30	0.75	-45.30	0.62	35.20
10450	0.62	35.60	0.76	-45.30	0.76	-45.30	0.62	35.60
10500	0.63	35.10	0.75	-45.70	0.75	-45.70	0.63	35.10
10550	0.63	34.50	0.75	-46.10	0.75	-46.10	0.63	34.50
10600	0.63	34.50	0.75	-46.00	0.75	-46.00	0.63	34.50
10650	0.63	34.60	0.75	-46.00	0.75	-46.00	0.63	34.60
10700	0.64	34.60	0.75	-46.40	0.75	-46.40	0.64	34.60
10750	0.64	34.70	0.75	-46.90	0.75	-46.90	0.64	34.70
10800	0.64	34.70	0.75	-46.80	0.75	-46.80	0.64	34.70
10850	0.64	34.70	0.75	-46.80	0.75	-46.80	0.64	34.70
10900	0.64	34.40	0.75	-47.00	0.75	-47.00	0.64	34.40
10950	0.65	34.20	0.75	-47.10	0.75	-47.10	0.65	34.20
11000	0.64	33.70	0.74	-48.00	0.74	-48.00	0.64	33.70
11050	0.63	33.30	0.74	-48.90	0.74	-48.90	0.63	33.30
11100	0.64	33.20	0.74	-48.80	0.74	-48.80	0.64	33.20
11150	0.65	33.00	0.74	-48.60	0.74	-48.60	0.65	33.00
11200	0.65	32.50	0.74	-49.30	0.74	-49.30	0.65	32.50
11250	0.65	31.90	0.73	-50.10	0.73	-50.10	0.65	31.90
11300	0.65	31.40	0.73	-50.40	0.73	-50.40	0.65	31.40
11350	0.65	30.80	0.73	-50.60	0.73	-50.60	0.65	30.80
11400	0.65	31.00	0.73	-50.90	0.73	-50.90	0.65	31.00
11450	0.66	31.10	0.72	-51.20	0.72	-51.20	0.66	31.10
11500	0.66	30.70	0.72	-51.50	0.72	-51.50	0.66	30.70
11550	0.67	30.20	0.72	-51.80	0.72	-51.80	0.67	30.20
11600	0.67	30.30	0.72	-52.10	0.72	-52.10	0.67	30.30
11650	0.67	30.30	0.71	-52.30	0.71	-52.30	0.67	30.30
11700	0.68	30.10	0.71	-52.70	0.71	-52.70	0.68	30.10
11750	0.68	29.80	0.71	-53.10	0.71	-53.10	0.68	29.80
11800	0.69	30.50	0.71	-53.10	0.71	-53.10	0.69	30.50
11850	0.70	31.20	0.71	-53.00	0.71	-53.00	0.70	31.20
11900	0.69	31.20	0.70	-53.60	0.70	-53.60	0.69	31.20
11950	0.68	31.30	0.70	-54.10	0.70	-54.10	0.68	31.30
12000	0.69	31.50	0.70	-54.10	0.70	-54.10	0.69	31.50
12050	0.70	31.60	0.71	-54.10	0.71	-54.10	0.70	31.60
12100	0.70	31.00	0.70	-54.90	0.70	-54.90	0.70	31.00
12150	0.69	30.30	0.70	-55.70	0.70	-55.70	0.69	30.30
12200	0.69	30.50	0.70	-56.00	0.70	-56.00	0.69	30.50
12250	0.70	30.60	0.70	-56.30	0.70	-56.30	0.70	30.60
12300	0.70	31.00	0.69	-56.50	0.69	-56.50	0.70	31.00
12350	0.69	31.40	0.69	-56.70	0.69	-56.70	0.69	31.40
12400	0.70	30.40	0.68	-57.60	0.68	-57.60	0.70	30.40
12450	0.70	29.40	0.68	-58.60	0.68	-58.60	0.70	29.40
12500	0.70	29.90	0.68	-58.70	0.68	-58.70	0.70	29.90
12550	0.71	30.40	0.67	-58.70	0.67	-58.70	0.71	30.40
12600	0.71	30.00	0.67	-59.20	0.67	-59.20	0.71	30.00
12650	0.71	29.60	0.66	-59.80	0.66	-59.80	0.71	29.60
12700	0.72	29.50	0.66	-60.00	0.66	-60.00	0.72	29.50
12750	0.73	29.40	0.65	-60.30	0.65	-60.30	0.73	29.40
12800	0.73	29.20	0.65	-60.60	0.65	-60.60	0.73	29.20
12850	0.73	29.00	0.64	-61.00	0.64	-61.00	0.73	29.00
12900	0.74	28.80	0.64	-61.30	0.64	-61.30	0.74	28.80
12950	0.74	28.60	0.64	-61.70	0.64	-61.70	0.74	28.60
13000	0.74	28.40	0.63	-61.70	0.63	-61.70	0.74	28.40
13050	0.74	28.20	0.62	-61.80	0.62	-61.80	0.74	28.20
13100	0.74	27.80	0.62	-62.10	0.62	-62.10	0.74	27.80
13150	0.75	27.40	0.62	-62.40	0.62	-62.40	0.75	27.40
13200	0.75	27.20	0.62	-62.30	0.62	-62.30	0.75	27.20
13250	0.75	27.10	0.61	-62.30	0.61	-62.30	0.75	27.10
13300	0.74	28.20	0.61	-63.10	0.61	-63.10	0.74	28.20
13350	0.72	29.30	0.60	-63.90	0.60	-63.90	0.72	29.30
13400	0.74	27.20	0.60	-64.20	0.60	-64.20	0.74	27.20
13450	0.76	25.10	0.60	-64.40	0.60	-64.40	0.76	25.10
13500	0.75	24.80	0.60	-64.80	0.60	-64.80	0.75	24.80
13550	0.75	24.50	0.59	-65.20	0.59	-65.20	0.75	24.50
13600	0.76	23.50	0.59	-65.90	0.59	-65.90	0.76	23.50
13650	0.76	22.50	0.58	-66.50	0.58	-66.50	0.76	22.50
13700	0.76	21.80	0.58	-66.70	0.58	-66.70	0.76	21.80
13750	0.76	21.10	0.57	-66.80	0.57	-66.80	0.76	21.10
13800	0.76	19.70	0.57	-67.20	0.57	-67.20	0.76	19.70
13850	0.77	18.30	0.56	-67.60	0.56	-67.60	0.77	18.30
13900	0.77	17.10	0.56	-67.60	0.56	-67.60	0.77	17.10
13950	0.77	15.90	0.56	-67.70	0.56	-67.70	0.77	15.90
14000	0.77	15.20	0.56	-67.80	0.56	-67.80	0.77	15.20
14050	0.78	14.40	0.55	-67.90	0.55	-67.90	0.78	14.40
14100	0.78	13.00	0.55	-68.10	0.55	-68.10	0.78	13.00
14150	0.79	11.50	0.55	-68.40	0.55	-68.40	0.79	11.50
14200	0.80	10.90	0.55	-68.70	0.55	-68.70	0.80	10.90
14250	0.80	10.30	0.54	-69.10	0.54	-69.10	0.80	10.30
14300	0.80	9.00	0.54	-69.40	0.54	-69.40	0.80	9.00
14350	0.80	7.70	0.54	-69.70	0.54	-69.70	0.80	7.70
14400	0.81	7.20	0.53	-69.80	0.53	-69.80	0.81	7.20
14450	0.82	6.80	0.53	-69.90	0.53	-69.90	0.82	6.80
14500	0.82	6.20	0.52	-69.90	0.52	-69.90	0.82	6.20
14550	0.82	5.60	0.52	-69.90	0.52	-69.90	0.82	5.60
14600	0.83	5.30	0.52	-70.10	0.52	-70.10	0.83	5.30
14650	0.84	4.90	0.52	-70.20	0.52	-70.20	0.84	4.90
14700	0.83	4.30	0.51	-70.40	0.51	-70.40	0.83	4.30
14750	0.83	3.70	0.51	-70.60	0.51	-70.60	0.83	3.70
14800	0.84	3.20	0.50	-71.00	0.50	-71.00	0.84	3.20
14850	0.84	2.60	0.50	-71.30	0.50	-71.30	0.84	2.60
14900	0.84	3.10	0.50	-71.00	0.50	-71.00	0.84	3.10
14950	0.84	3.60	0.50	-70.80	0.50	-70.80	0.84	3.60
15000	0.84	2.20	0.49	-71.40	0.49	-71.40	0.84	2.20
15050	0.84	0.90	0.49	-72.10	0.49	-72.10	0.84	0.90
15100	0.84	1.50	0.49	-71.80	0.49	-71.80	0.84	1.50
15150	0.84	2.10	0.48	-71.50	0.48	-71.50	0.84	2.10
15200	0.84	1.60	0.48	-71.60	0.48	-71.60	0.84	1.60
15250	0.85	1.10	0.48	-71.70	0.48	-71.70	0.85	1.10
15300	0.86	0.40	0.47	-72.40	0.47	-72.40	0.86	0.40
15350	0.86	-0.30	0.47	-73.10	0.47	-73.10	0.86	-0.30
15400	0.85	-0.10	0.46	-72.80	0.46	-72.80	0.85	-0.10
15450	0.84	0.00	0.45	-72.40	0.45	-72.40	0.84	0.00
15500	0.86	0.50	0.45	-73.00	0.45	-73.00	0.86	0.50
15550	0.88	0.90	0.45	-73.50	0.45	-73.50	0.88	0.90
15600	0.88	0.70	0.45	-73.40	0.45	-73.40	0.88	0.70
15650	0.88	0.60	0.44	-73.30	0.44	-73.30	0.88	0.60
15700	0.89	0.60	0.44	-73.80	0.44	-73.80	0.89	0.60
15750	0.89	0.60	0.43	-74.20	0.43	-74.20	0.89	0.60
15800	0.89	1.30	0.43	-73.90	0.43	-73.90	0.89	1.30
15850	0.89	1.90	0.42	-73.60	0.42	-73.60	0.89	1.90
15900	0.89	2.00	0.42	-73.60	0.42	-73.60	0.89	2.00
15950	0.90	2.00	0.41	-73.60	0.41	-73.60	0.90	2.00
16000	0.90	3.20	0.41	-73.10	0.41	-73.10	0.90	3.20
16050	0.90	4.40	0.41	-72.60	0.41	-72.60	0.90	4.40
16100	0.90	4.70	0.40	-72.70	0.40	-72.70	0.90	4.70
16150	0.90	4.90	0.40	-72.90	0.40	-72.90	0.90	4.90
16200	0.90	5.50	0.40	-72.60	0.40	-72.60	0.90	5.50
16250	0.89	6.10	0.39	-72.20	0.39	-72.20	0.89	6.10
16300	0.89	6.50	0.40	-72.00	0.40	-72.00	0.89	6.50
16350	0.89	7.00	0.40	-71.80	0.40	-71.80	0.89	7.00
16400	0.89	7.30	0.40	-72.20	0.40	-72.20	0.89	7.30
16450	0.89	7.60	0.39	-72.60	0.39	-72.60	0.89	7.60
16500	0.88	7.30	0.39	-72.30	0.39	-72.30	0.88	7.30
16550	0.87	7.00	0.39	-72.00	0.39	-72.00	0.87	7.00
16600	0.88	7.10	0.39	-72.30	0.39	-72.30	0.88	7.10
16650	0.88	7.20	0.39	-72.50	0.39	-72.50	0.88	7.20
16700	0.88	6.90	0.39	-73.10	0.39	-73.10	0.88	6.90
16750	0.88	6.60	0.39	-73.70	0.39	-73.70	0.88	6.60
16800	0.88	6.30	0.39	-74.20	0.39	-74.20	0.88	6.30
16850	0.88	5.90	0.38	-74.70	0.38	-74.70	0.88	5.90
16900	0.89	5.70	0.38	-75.10	0.38	-75.10	0.89	5.70
16950	0.89	5.40	0.37	-75.40	0.37	-75.40	0.89	5.40
17000	0.89	5.10	0.37	-75.80	0.37	-75.80	0.89	5.10
17050	0.90	4.80	0.37	-76.20	0.37	-76.20	0.90	4.80
17100	0.90	4.80	0.36	-76.60	0.36	-76.60	0.90	4.80
17150	0.91	4.70	0.35	-76.90	0.35	-76.90	0.91	4.70
17200	0.91	5.00	0.35	-77.00	0.35	-77.00	0.91	5.00
17250	0.91	5.20	0.35	-77.00	0.35	-77.00	0.91	5.20
17300	0.92	5.50	0.34	-77.00	0.34	-77.00	0.92	5.50
17350	0.92	5.70	0.34	-77.00	0.34	-77.00	0.92	5.70
17400	0.93	5.80	0.33	-76.80	0.33	-76.80	0.93	5.80
17450	0.94	5.90	0.33	-76.60	0.33	-76.60	0.94	5.90
17500	0.94	5.80	0.33	-77.10	0.33	-77.10	0.94	5.80
17550	0.95	5.70	0.33	-77.70	0.33	-77.70	0.95	5.70
17600	0.94	5.80	0.32	-78.10	0.32	-78.10	0.94	5.80
17650	0.94	5.80	0.32	-78.60	0.32	-78.60	0.94	5.80
17700	0.94	5.70	0.32	-78.70	0.32	-78.70	0.94	5.70
17750	0.94	5.60	0.32	-78.90	0.32	-78.90	0.94	5.60
17800	0.94	4.50	0.32	-79.90	0.32	-79.90	0.94	4.50
17850	0.94	3.30	0.31	-80.90	0.31	-80.90	0.94	3.30
17900	0.93	3.60	0.31	-81.20	0.31	-81.20	0.93	3.60
17950	0.91	3.90	0.30	-81.60	0.30	-81.60	0.91	3.90
18000	0.92	3.10	0.30	-82.10	0.30	-82.10	0.92	3.10
18050	0.92	2.30	0.29	-82.60	0.29	-82.60	0.92	2.30
18100	0.91	1.50	0.29	-83.30	0.29	-83.30	0.91	1.50
18150	0.90	0.60	0.29	-84.00	0.29	-84.00	0.90	0.60
18200	0.90	0.40	0.28	-84.40	0.28	-84.40	0.90	0.40
18250	0.90	0.10	0.28	-84.80	0.28	-84.80	0.90	0.10
18300	0.92	-1.00	0.28	-85.30	0.28	-85.30	0.92	-1.00
18350	0.93	-2.20	0.27	-85.80	0.27	-85.80	0.93	-2.20
18400	0.93	-2.40	0.26	-86.20	0.26	-86.20	0.93	-2.40
18450	0.93	-2.60	0.26	-86.70	0.26	-86.70	0.93	-2.60
18500	0.95	-2.00	0.26	-86.60	0.26	-86.60	0.95	-2.00
18550	0.97	-1.50	0.26	-86.60	0.26	-86.60	0.97	-1.50
18600	0.97	-1.90	0.25	-87.40	0.25	-87.40	0.97	-1.90
18650	0.98	-2.20	0.25	-88.10	0.25	-88.10	0.98	-2.20
18700	0.98	-3.40	0.25	-89.20	0.25	-89.20	0.98	-3.40
18750	0.97	-4.50	0.24	-90.30	0.24	-90.30	0.97	-4.50
18800	0.97	-4.30	0.24	-90.60	0.24	-90.60	0.97	-4.30
18850	0.98	-4.00	0.24	-90.80	0.24	-90.80	0.98	-4.00
18900	0.98	-5.10	0.23	-92.60	0.23	-92.60	0.98	-5.10
18950	0.98	-6.10	0.23	-94.40	0.23	-94.40	0.98	-6.10
19000	0.96	-6.60	0.22	-95.30	0.22	-95.30	0.96	-6.60
19050	0.93	-7.00	0.21	-96.20	0.21	-96.20	0.93	-7.00
19100	0.94	-7.70	0.20	-96.50	0.20	-96.50	0.94	-7.70
19150	0.94	-8.40	0.19	-96.70	0.19	-96.70	0.94	-8.40
19200	0.94	-10.20	0.19	-96.20	0.19	-96.20	0.94	-10.20
19250	0.93	-12.10	0.18	-95.80	0.18	-95.80	0.93	-12.10
19300	0.94	-12.90	0.17	-95.30	0.17	-95.30	0.94	-12.90
19350	0.94	-13.80	0.17	-94.80	0.17	-94.80	0.94	-13.80
19400	0.94	-15.70	0.17	-95.60	0.17	-95.60	0.94	-15.70
19450	0.95	-17.70	0.16	-96.50	0.16	-96.50	0.95	-17.70
19500	0.94	-18.70	0.16	-96.00	0.16	-96.00	0.94	-18.70
19550	0.94	-19.70	0.15	-95.50	0.15	-95.50	0.94	-19.70
19600	0.95	-20.50	0.15	-96.30	0.15	-96.30	0.95	-20.50
19650	0.96	-21.30	0.14	-97.10	0.14	-97.10	0.96	-21.30
