#	mhz	s	ma	r	50			
50	0.01	55.90	1.00	0.80	1.00	0.80	0.01	55.90
100	0.02	66.60	1.00	0.40	1.00	0.40	0.02	66.60
150	0.03	77.30	1.00	0.10	1.00	0.10	0.03	77.30
200	0.03	78.80	1.00	-0.50	1.00	-0.50	0.03	78.80
250	0.04	80.40	0.99	-1.10	0.99	-1.10	0.04	80.40
300	0.05	80.30	0.99	-1.70	0.99	-1.70	0.05	80.30
350	0.05	80.20	0.99	-2.30	0.99	-2.30	0.05	80.20
400	0.06	79.40	0.99	-2.70	0.99	-2.70	0.06	79.40
450	0.07	78.70	0.99	-3.20	0.99	-3.20	0.07	78.70
500	0.08	82.10	0.99	-4.00	0.99	-4.00	0.08	82.10
550	0.10	85.40	0.99	-4.90	0.99	-4.90	0.10	85.40
600	0.10	85.20	0.99	-5.40	0.99	-5.40	0.10	85.20
650	0.11	85.00	0.99	-6.00	0.99	-6.00	0.11	85.00
700	0.12	85.10	0.99	-6.60	0.99	-6.60	0.12	85.10
750	0.13	85.10	0.98	-7.10	0.98	-7.10	0.13	85.10
800	0.14	84.40	0.98	-7.60	0.98	-7.60	0.14	84.40
850	0.14	83.60	0.98	-8.20	0.98	-8.20	0.14	83.60
900	0.15	83.20	0.98	-8.70	0.98	-8.70	0.15	83.20
950	0.16	82.90	0.98	-9.30	0.98	-9.30	0.16	82.90
1000	0.17	82.30	0.98	-9.80	0.98	-9.80	0.17	82.30
1050	0.18	81.70	0.98	-10.40	0.98	-10.40	0.18	81.70
1100	0.19	81.40	0.97	-11.00	0.97	-11.00	0.19	81.40
1150	0.19	81.10	0.97	-11.60	0.97	-11.60	0.19	81.10
1200	0.20	80.50	0.97	-12.10	0.97	-12.10	0.20	80.50
1250	0.21	79.90	0.97	-12.50	0.97	-12.50	0.21	79.90
1300	0.22	79.20	0.97	-13.10	0.97	-13.10	0.22	79.20
1350	0.23	78.60	0.96	-13.60	0.96	-13.60	0.23	78.60
1400	0.23	78.00	0.96	-14.10	0.96	-14.10	0.23	78.00
1450	0.24	77.50	0.96	-14.70	0.96	-14.70	0.24	77.50
1500	0.25	76.80	0.96	-15.20	0.96	-15.20	0.25	76.80
1550	0.26	76.10	0.95	-15.80	0.95	-15.80	0.26	76.10
1600	0.27	75.20	0.95	-16.40	0.95	-16.40	0.27	75.20
1650	0.27	74.30	0.95	-16.90	0.95	-16.90	0.27	74.30
1700	0.28	73.80	0.95	-17.50	0.95	-17.50	0.28	73.80
1750	0.29	73.30	0.95	-18.10	0.95	-18.10	0.29	73.30
1800	0.29	72.40	0.94	-18.50	0.94	-18.50	0.29	72.40
1850	0.30	71.50	0.94	-19.00	0.94	-19.00	0.30	71.50
1900	0.31	70.60	0.94	-19.50	0.94	-19.50	0.31	70.60
1950	0.32	69.70	0.94	-19.90	0.94	-19.90	0.32	69.70
2000	0.32	69.00	0.93	-20.50	0.93	-20.50	0.32	69.00
2050	0.33	68.30	0.93	-21.20	0.93	-21.20	0.33	68.30
2100	0.34	67.70	0.93	-21.60	0.93	-21.60	0.34	67.70
2150	0.35	67.20	0.93	-22.00	0.93	-22.00	0.35	67.20
2200	0.35	66.30	0.92	-22.60	0.92	-22.60	0.35	66.30
2250	0.36	65.50	0.92	-23.20	0.92	-23.20	0.36	65.50
2300	0.37	64.90	0.92	-23.60	0.92	-23.60	0.37	64.90
2350	0.38	64.30	0.91	-23.90	0.91	-23.90	0.38	64.30
2400	0.38	63.50	0.91	-24.50	0.91	-24.50	0.38	63.50
2450	0.39	62.70	0.90	-25.10	0.90	-25.10	0.39	62.70
2500	0.40	62.10	0.90	-25.70	0.90	-25.70	0.40	62.10
2550	0.41	61.40	0.90	-26.30	0.90	-26.30	0.41	61.40
2600	0.42	60.80	0.89	-26.70	0.89	-26.70	0.42	60.80
2650	0.42	60.30	0.89	-27.10	0.89	-27.10	0.42	60.30
2700	0.43	59.80	0.89	-27.60	0.89	-27.60	0.43	59.80
2750	0.44	59.20	0.88	-28.20	0.88	-28.20	0.44	59.20
2800	0.45	58.50	0.88	-28.60	0.88	-28.60	0.45	58.50
2850	0.45	57.70	0.88	-29.00	0.88	-29.00	0.45	57.70
2900	0.46	57.10	0.87	-29.80	0.87	-29.80	0.46	57.10
2950	0.47	56.50	0.87	-30.60	0.87	-30.60	0.47	56.50
3000	0.48	56.10	0.86	-31.00	0.86	-31.00	0.48	56.10
3050	0.49	55.60	0.86	-31.50	0.86	-31.50	0.49	55.60
3100	0.50	54.50	0.85	-32.20	0.85	-32.20	0.50	54.50
3150	0.50	53.30	0.84	-32.90	0.84	-32.90	0.50	53.30
3200	0.51	53.20	0.84	-33.20	0.84	-33.20	0.51	53.20
3250	0.52	53.10	0.84	-33.50	0.84	-33.50	0.52	53.10
3300	0.53	52.60	0.83	-34.20	0.83	-34.20	0.53	52.60
3350	0.54	52.00	0.83	-35.00	0.83	-35.00	0.54	52.00
3400	0.55	51.30	0.82	-35.40	0.82	-35.40	0.55	51.30
3450	0.55	50.60	0.82	-35.80	0.82	-35.80	0.55	50.60
3500	0.56	50.20	0.81	-36.20	0.81	-36.20	0.56	50.20
3550	0.56	49.90	0.81	-36.70	0.81	-36.70	0.56	49.90
3600	0.57	49.30	0.80	-37.40	0.80	-37.40	0.57	49.30
3650	0.58	48.80	0.80	-38.00	0.80	-38.00	0.58	48.80
3700	0.59	48.00	0.79	-38.60	0.79	-38.60	0.59	48.00
3750	0.60	47.30	0.78	-39.20	0.78	-39.20	0.60	47.30
3800	0.61	46.60	0.78	-39.70	0.78	-39.70	0.61	46.60
3850	0.61	46.00	0.77	-40.30	0.77	-40.30	0.61	46.00
3900	0.62	45.30	0.77	-41.10	0.77	-41.10	0.62	45.30
3950	0.63	44.50	0.76	-41.80	0.76	-41.80	0.63	44.50
4000	0.64	43.80	0.75	-42.40	0.75	-42.40	0.64	43.80
4050	0.64	43.00	0.75	-43.00	0.75	-43.00	0.64	43.00
4100	0.65	42.10	0.74	-43.80	0.74	-43.80	0.65	42.10
4150	0.66	41.20	0.73	-44.60	0.73	-44.60	0.66	41.20
4200	0.67	40.30	0.73	-45.10	0.73	-45.10	0.67	40.30
4250	0.68	39.40	0.72	-45.60	0.72	-45.60	0.68	39.40
4300	0.69	38.60	0.71	-46.20	0.71	-46.20	0.69	38.60
4350	0.69	37.70	0.70	-46.90	0.70	-46.90	0.69	37.70
4400	0.70	36.80	0.69	-47.60	0.69	-47.60	0.70	36.80
4450	0.71	35.80	0.69	-48.30	0.69	-48.30	0.71	35.80
4500	0.72	34.90	0.68	-49.20	0.68	-49.20	0.72	34.90
4550	0.72	34.00	0.67	-50.10	0.67	-50.10	0.72	34.00
4600	0.73	33.10	0.66	-50.60	0.66	-50.60	0.73	33.10
4650	0.75	32.20	0.65	-51.10	0.65	-51.10	0.75	32.20
4700	0.75	31.30	0.64	-51.80	0.64	-51.80	0.75	31.30
4750	0.75	30.50	0.63	-52.40	0.63	-52.40	0.75	30.50
4800	0.76	29.50	0.63	-53.20	0.63	-53.20	0.76	29.50
4850	0.77	28.40	0.62	-54.00	0.62	-54.00	0.77	28.40
4900	0.78	27.90	0.61	-54.50	0.61	-54.50	0.78	27.90
4950	0.79	27.30	0.60	-55.00	0.60	-55.00	0.79	27.30
5000	0.79	26.20	0.59	-55.90	0.59	-55.90	0.79	26.20
5050	0.80	25.00	0.59	-56.80	0.59	-56.80	0.80	25.00
5100	0.80	24.10	0.58	-57.70	0.58	-57.70	0.80	24.10
5150	0.80	23.10	0.56	-58.60	0.56	-58.60	0.80	23.10
5200	0.81	22.90	0.55	-59.00	0.55	-59.00	0.81	22.90
5250	0.81	22.80	0.54	-59.40	0.54	-59.40	0.81	22.80
5300	0.83	21.90	0.54	-60.00	0.54	-60.00	0.83	21.90
5350	0.85	21.00	0.53	-60.60	0.53	-60.60	0.85	21.00
5400	0.85	20.10	0.52	-61.70	0.52	-61.70	0.85	20.10
5450	0.84	19.30	0.51	-62.70	0.51	-62.70	0.84	19.30
5500	0.86	18.70	0.50	-63.20	0.50	-63.20	0.86	18.70
5550	0.87	18.20	0.49	-63.80	0.49	-63.80	0.87	18.20
5600	0.87	17.50	0.48	-64.70	0.48	-64.70	0.87	17.50
5650	0.87	16.70	0.47	-65.70	0.47	-65.70	0.87	16.70
5700	0.88	16.10	0.46	-66.50	0.46	-66.50	0.88	16.10
5750	0.88	15.50	0.45	-67.30	0.45	-67.30	0.88	15.50
5800	0.88	15.00	0.44	-68.00	0.44	-68.00	0.88	15.00
5850	0.89	14.60	0.43	-68.60	0.43	-68.60	0.89	14.60
5900	0.89	14.50	0.41	-69.10	0.41	-69.10	0.89	14.50
5950	0.89	14.40	0.40	-69.70	0.40	-69.70	0.89	14.40
6000	0.90	13.40	0.40	-70.30	0.40	-70.30	0.90	13.40
6050	0.90	12.40	0.40	-70.90	0.40	-70.90	0.90	12.40
6100	0.91	12.30	0.38	-71.40	0.38	-71.40	0.91	12.30
6150	0.91	12.30	0.37	-71.90	0.37	-71.90	0.91	12.30
6200	0.92	12.30	0.36	-72.60	0.36	-72.60	0.92	12.30
6250	0.93	12.20	0.35	-73.30	0.35	-73.30	0.93	12.20
6300	0.93	12.10	0.34	-74.00	0.34	-74.00	0.93	12.10
6350	0.94	11.90	0.33	-74.60	0.33	-74.60	0.94	11.90
6400	0.94	11.90	0.32	-75.40	0.32	-75.40	0.94	11.90
6450	0.94	11.90	0.31	-76.10	0.31	-76.10	0.94	11.90
6500	0.94	11.70	0.29	-76.70	0.29	-76.70	0.94	11.70
6550	0.95	11.50	0.28	-77.40	0.28	-77.40	0.95	11.50
6600	0.95	11.30	0.27	-78.20	0.27	-78.20	0.95	11.30
6650	0.95	11.10	0.26	-79.00	0.26	-79.00	0.95	11.10
6700	0.95	11.00	0.25	-79.40	0.25	-79.40	0.95	11.00
6750	0.95	11.00	0.24	-79.80	0.24	-79.80	0.95	11.00
6800	0.96	10.80	0.23	-80.20	0.23	-80.20	0.96	10.80
6850	0.97	10.60	0.22	-80.50	0.22	-80.50	0.97	10.60
6900	0.97	9.90	0.20	-81.30	0.20	-81.30	0.97	9.90
6950	0.97	9.20	0.19	-82.10	0.19	-82.10	0.97	9.20
7000	0.97	9.10	0.18	-82.40	0.18	-82.40	0.97	9.10
7050	0.97	9.00	0.17	-82.80	0.17	-82.80	0.97	9.00
7100	0.97	8.40	0.16	-83.10	0.16	-83.10	0.97	8.40
7150	0.97	7.80	0.15	-83.50	0.15	-83.50	0.97	7.80
7200	0.97	7.60	0.13	-83.30	0.13	-83.30	0.97	7.60
7250	0.97	7.50	0.12	-83.20	0.12	-83.20	0.97	7.50
7300	0.98	6.80	0.11	-82.80	0.11	-82.80	0.98	6.80
7350	0.99	6.20	0.10	-82.50	0.10	-82.50	0.99	6.20
7400	0.98	5.40	0.09	-82.10	0.09	-82.10	0.98	5.40
7450	0.97	4.60	0.08	-81.70	0.08	-81.70	0.97	4.60
7500	0.98	3.80	0.07	-79.90	0.07	-79.90	0.98	3.80
7550	0.99	3.10	0.06	-78.00	0.06	-78.00	0.99	3.10
7600	0.99	1.90	0.05	-74.20	0.05	-74.20	0.99	1.90
7650	0.99	0.60	0.04	-70.40	0.04	-70.40	0.99	0.60
7700	0.98	-0.40	0.03	-57.30	0.03	-57.30	0.98	-0.40
7750	0.98	-1.50	0.02	-44.30	0.02	-44.30	0.98	-1.50
7800	0.98	-2.40	0.02	-12.20	0.02	-12.20	0.98	-2.40
7850	0.97	-3.30	0.02	19.80	0.02	19.80	0.97	-3.30
7900	0.98	-4.90	0.03	35.00	0.03	35.00	0.98	-4.90
7950	0.99	-6.50	0.04	50.20	0.04	50.20	0.99	-6.50
8000	0.98	-8.00	0.05	54.70	0.05	54.70	0.98	-8.00
8050	0.98	-9.50	0.06	59.10	0.06	59.10	0.98	-9.50
8100	0.97	-10.70	0.07	61.00	0.07	61.00	0.97	-10.70
8150	0.96	-11.80	0.08	62.80	0.08	62.80	0.96	-11.80
8200	0.96	-13.10	0.09	63.40	0.09	63.40	0.96	-13.10
8250	0.96	-14.30	0.10	63.90	0.10	63.90	0.96	-14.30
8300	0.95	-15.40	0.11	64.30	0.11	64.30	0.95	-15.40
8350	0.95	-16.50	0.12	64.60	0.12	64.60	0.95	-16.50
8400	0.95	-17.70	0.13	64.20	0.13	64.20	0.95	-17.70
8450	0.95	-19.00	0.14	63.90	0.14	63.90	0.95	-19.00
8500	0.95	-19.90	0.16	63.50	0.16	63.50	0.95	-19.90
8550	0.94	-20.90	0.17	63.10	0.17	63.10	0.94	-20.90
8600	0.94	-21.90	0.18	62.00	0.18	62.00	0.94	-21.90
8650	0.95	-22.90	0.19	61.00	0.19	61.00	0.95	-22.90
8700	0.94	-23.70	0.20	59.90	0.20	59.90	0.94	-23.70
8750	0.94	-24.50	0.21	58.90	0.21	58.90	0.94	-24.50
8800	0.93	-25.30	0.21	57.90	0.21	57.90	0.93	-25.30
8850	0.92	-26.10	0.22	57.00	0.22	57.00	0.92	-26.10
8900	0.92	-26.20	0.23	56.60	0.23	56.60	0.92	-26.20
8950	0.92	-26.20	0.23	56.30	0.23	56.30	0.92	-26.20
9000	0.92	-26.80	0.24	56.30	0.24	56.30	0.92	-26.80
9050	0.93	-27.30	0.24	56.30	0.24	56.30	0.93	-27.30
9100	0.92	-28.00	0.25	56.60	0.25	56.60	0.92	-28.00
9150	0.92	-28.60	0.26	56.90	0.26	56.90	0.92	-28.60
9200	0.91	-29.30	0.26	57.50	0.26	57.50	0.91	-29.30
9250	0.91	-30.10	0.27	58.10	0.27	58.10	0.91	-30.10
9300	0.91	-30.20	0.28	58.00	0.28	58.00	0.91	-30.20
9350	0.91	-30.30	0.30	57.90	0.30	57.90	0.91	-30.30
9400	0.91	-31.10	0.30	57.90	0.30	57.90	0.91	-31.10
9450	0.90	-31.90	0.31	57.90	0.31	57.90	0.90	-31.90
9500	0.90	-32.10	0.32	57.60	0.32	57.60	0.90	-32.10
9550	0.90	-32.30	0.34	57.20	0.34	57.20	0.90	-32.30
9600	0.90	-33.00	0.34	56.70	0.34	56.70	0.90	-33.00
9650	0.90	-33.60	0.35	56.30	0.35	56.30	0.90	-33.60
9700	0.89	-34.10	0.36	56.10	0.36	56.10	0.89	-34.10
9750	0.89	-34.60	0.37	55.90	0.37	55.90	0.89	-34.60
9800	0.89	-34.90	0.38	55.20	0.38	55.20	0.89	-34.90
9850	0.89	-35.20	0.40	54.60	0.40	54.60	0.89	-35.20
9900	0.88	-35.60	0.40	54.10	0.40	54.10	0.88	-35.60
9950	0.87	-36.10	0.41	53.70	0.41	53.70	0.87	-36.10
10000	0.87	-36.50	0.42	53.50	0.42	53.50	0.87	-36.50
10050	0.87	-36.90	0.43	53.40	0.43	53.40	0.87	-36.90
10100	0.86	-37.30	0.44	52.70	0.44	52.70	0.86	-37.30
10150	0.85	-37.70	0.44	52.00	0.44	52.00	0.85	-37.70
10200	0.85	-38.00	0.46	51.70	0.46	51.70	0.85	-38.00
10250	0.84	-38.30	0.47	51.40	0.47	51.40	0.84	-38.30
10300	0.84	-38.90	0.47	51.10	0.47	51.10	0.84	-38.90
10350	0.84	-39.40	0.48	50.90	0.48	50.90	0.84	-39.40
10400	0.83	-40.40	0.49	50.10	0.49	50.10	0.83	-40.40
10450	0.82	-41.40	0.51	49.40	0.51	49.40	0.82	-41.40
10500	0.82	-41.60	0.51	49.10	0.51	49.10	0.82	-41.60
10550	0.82	-41.90	0.52	48.80	0.52	48.80	0.82	-41.90
10600	0.81	-43.40	0.53	47.80	0.53	47.80	0.81	-43.40
10650	0.80	-44.90	0.54	46.80	0.54	46.80	0.80	-44.90
10700	0.80	-44.90	0.55	46.50	0.55	46.50	0.80	-44.90
10750	0.80	-44.90	0.55	46.20	0.55	46.20	0.80	-44.90
10800	0.79	-46.00	0.56	45.70	0.56	45.70	0.79	-46.00
10850	0.79	-47.10	0.57	45.10	0.57	45.10	0.79	-47.10
10900	0.78	-48.40	0.58	44.20	0.58	44.20	0.78	-48.40
10950	0.78	-49.70	0.59	43.30	0.59	43.30	0.78	-49.70
11000	0.76	-50.10	0.59	42.80	0.59	42.80	0.76	-50.10
11050	0.74	-50.50	0.59	42.30	0.59	42.30	0.74	-50.50
11100	0.75	-51.60	0.60	41.80	0.60	41.80	0.75	-51.60
11150	0.76	-52.70	0.61	41.30	0.61	41.30	0.76	-52.70
11200	0.75	-52.80	0.61	40.70	0.61	40.70	0.75	-52.80
11250	0.74	-53.00	0.61	40.10	0.61	40.10	0.74	-53.00
11300	0.74	-54.10	0.62	39.40	0.62	39.40	0.74	-54.10
11350	0.73	-55.30	0.62	38.70	0.62	38.70	0.73	-55.30
11400	0.73	-54.60	0.63	38.80	0.63	38.80	0.73	-54.60
11450	0.73	-54.00	0.63	38.80	0.63	38.80	0.73	-54.00
11500	0.72	-55.20	0.64	37.90	0.64	37.90	0.72	-55.20
11550	0.71	-56.40	0.64	37.00	0.64	37.00	0.71	-56.40
11600	0.71	-56.30	0.65	36.80	0.65	36.80	0.71	-56.30
11650	0.71	-56.20	0.66	36.60	0.66	36.60	0.71	-56.20
11700	0.71	-56.70	0.66	36.00	0.66	36.00	0.71	-56.70
11750	0.70	-57.20	0.67	35.40	0.67	35.40	0.70	-57.20
11800	0.69	-57.40	0.67	35.00	0.67	35.00	0.69	-57.40
11850	0.69	-57.70	0.68	34.50	0.68	34.50	0.69	-57.70
11900	0.68	-58.00	0.68	34.20	0.68	34.20	0.68	-58.00
11950	0.66	-58.40	0.68	34.00	0.68	34.00	0.66	-58.40
12000	0.67	-59.70	0.69	32.90	0.69	32.90	0.67	-59.70
12050	0.67	-60.90	0.70	31.90	0.70	31.90	0.67	-60.90
12100	0.66	-61.50	0.70	31.50	0.70	31.50	0.66	-61.50
12150	0.65	-62.10	0.70	31.10	0.70	31.10	0.65	-62.10
12200	0.64	-62.70	0.70	30.60	0.70	30.60	0.64	-62.70
12250	0.64	-63.30	0.71	30.10	0.71	30.10	0.64	-63.30
12300	0.64	-63.20	0.71	29.70	0.71	29.70	0.64	-63.20
12350	0.63	-63.10	0.72	29.30	0.72	29.30	0.63	-63.10
12400	0.63	-63.80	0.71	28.90	0.71	28.90	0.63	-63.80
12450	0.63	-64.60	0.71	28.50	0.71	28.50	0.63	-64.60
12500	0.63	-64.00	0.72	28.20	0.72	28.20	0.63	-64.00
12550	0.63	-63.40	0.73	27.90	0.73	27.90	0.63	-63.40
12600	0.63	-63.40	0.73	27.70	0.73	27.70	0.63	-63.40
12650	0.63	-63.40	0.72	27.50	0.72	27.50	0.63	-63.40
12700	0.63	-63.00	0.73	27.10	0.73	27.10	0.63	-63.00
12750	0.63	-62.50	0.73	26.70	0.73	26.70	0.63	-62.50
12800	0.63	-62.00	0.74	26.70	0.74	26.70	0.63	-62.00
12850	0.63	-61.40	0.74	26.70	0.74	26.70	0.63	-61.40
12900	0.62	-61.20	0.74	26.20	0.74	26.20	0.62	-61.20
12950	0.62	-61.00	0.75	25.60	0.75	25.60	0.62	-61.00
13000	0.62	-60.70	0.75	25.60	0.75	25.60	0.62	-60.70
13050	0.62	-60.40	0.76	25.70	0.76	25.70	0.62	-60.40
13100	0.61	-60.30	0.76	25.10	0.76	25.10	0.61	-60.30
13150	0.60	-60.30	0.76	24.60	0.76	24.60	0.60	-60.30
13200	0.60	-60.50	0.77	24.50	0.77	24.50	0.60	-60.50
13250	0.60	-60.70	0.77	24.40	0.77	24.40	0.60	-60.70
13300	0.57	-59.10	0.77	23.80	0.77	23.80	0.57	-59.10
13350	0.55	-57.50	0.77	23.30	0.77	23.30	0.55	-57.50
13400	0.56	-59.50	0.77	22.70	0.77	22.70	0.56	-59.50
13450	0.57	-61.60	0.78	22.10	0.78	22.10	0.57	-61.60
13500	0.56	-61.80	0.78	21.90	0.78	21.90	0.56	-61.80
13550	0.55	-62.00	0.78	21.60	0.78	21.60	0.55	-62.00
13600	0.54	-62.80	0.78	21.20	0.78	21.20	0.54	-62.80
13650	0.54	-63.60	0.78	20.70	0.78	20.70	0.54	-63.60
13700	0.54	-64.20	0.79	20.40	0.79	20.40	0.54	-64.20
13750	0.54	-64.70	0.79	20.10	0.79	20.10	0.54	-64.70
13800	0.53	-65.40	0.79	19.70	0.79	19.70	0.53	-65.40
13850	0.52	-66.00	0.79	19.40	0.79	19.40	0.52	-66.00
13900	0.53	-66.60	0.79	19.10	0.79	19.10	0.53	-66.60
13950	0.53	-67.20	0.80	18.70	0.80	18.70	0.53	-67.20
14000	0.52	-67.30	0.80	18.50	0.80	18.50	0.52	-67.30
14050	0.52	-67.50	0.81	18.20	0.81	18.20	0.52	-67.50
14100	0.52	-68.40	0.81	17.70	0.81	17.70	0.52	-68.40
14150	0.52	-69.30	0.81	17.30	0.81	17.30	0.52	-69.30
14200	0.52	-69.20	0.81	16.90	0.81	16.90	0.52	-69.20
14250	0.51	-69.10	0.81	16.60	0.81	16.60	0.51	-69.10
14300	0.51	-69.60	0.82	16.30	0.82	16.30	0.51	-69.60
14350	0.50	-70.10	0.82	16.00	0.82	16.00	0.50	-70.10
14400	0.50	-70.30	0.83	15.50	0.83	15.50	0.50	-70.30
14450	0.50	-70.40	0.83	14.90	0.83	14.90	0.50	-70.40
14500	0.50	-70.40	0.83	14.80	0.83	14.80	0.50	-70.40
14550	0.49	-70.30	0.83	14.70	0.83	14.70	0.49	-70.30
14600	0.48	-70.40	0.84	14.20	0.84	14.20	0.48	-70.40
14650	0.47	-70.50	0.84	13.60	0.84	13.60	0.47	-70.50
14700	0.47	-71.00	0.85	13.20	0.85	13.20	0.47	-71.00
14750	0.46	-71.50	0.85	12.90	0.85	12.90	0.46	-71.50
14800	0.45	-71.50	0.85	12.50	0.85	12.50	0.45	-71.50
14850	0.44	-71.60	0.86	12.10	0.86	12.10	0.44	-71.60
14900	0.44	-71.80	0.86	11.70	0.86	11.70	0.44	-71.80
14950	0.43	-72.00	0.87	11.30	0.87	11.30	0.43	-72.00
15000	0.43	-72.70	0.87	10.90	0.87	10.90	0.43	-72.70
15050	0.42	-73.40	0.87	10.50	0.87	10.50	0.42	-73.40
15100	0.41	-72.90	0.87	10.20	0.87	10.20	0.41	-72.90
15150	0.41	-72.40	0.88	10.00	0.88	10.00	0.41	-72.40
15200	0.41	-72.90	0.88	9.80	0.88	9.80	0.41	-72.90
15250	0.40	-73.30	0.89	9.50	0.89	9.50	0.40	-73.30
15300	0.40	-73.10	0.89	8.90	0.89	8.90	0.40	-73.10
15350	0.39	-72.90	0.89	8.20	0.89	8.20	0.39	-72.90
15400	0.39	-72.30	0.89	8.20	0.89	8.20	0.39	-72.30
15450	0.38	-71.60	0.89	8.10	0.89	8.10	0.38	-71.60
15500	0.38	-70.70	0.89	7.40	0.89	7.40	0.38	-70.70
15550	0.37	-69.90	0.90	6.80	0.90	6.80	0.37	-69.90
15600	0.37	-69.00	0.90	6.60	0.90	6.60	0.37	-69.00
15650	0.37	-68.00	0.90	6.30	0.90	6.30	0.37	-68.00
15700	0.36	-67.00	0.90	5.90	0.90	5.90	0.36	-67.00
15750	0.35	-66.00	0.90	5.40	0.90	5.40	0.35	-66.00
15800	0.34	-64.70	0.90	5.20	0.90	5.20	0.34	-64.70
15850	0.33	-63.50	0.91	5.00	0.91	5.00	0.33	-63.50
15900	0.33	-62.60	0.91	4.70	0.91	4.70	0.33	-62.60
15950	0.32	-61.70	0.91	4.30	0.91	4.30	0.32	-61.70
16000	0.31	-59.60	0.91	3.90	0.91	3.90	0.31	-59.60
16050	0.30	-57.50	0.92	3.50	0.92	3.50	0.30	-57.50
16100	0.29	-57.10	0.92	3.00	0.92	3.00	0.29	-57.10
16150	0.28	-56.80	0.91	2.40	0.91	2.40	0.28	-56.80
16200	0.27	-55.30	0.91	2.10	0.91	2.10	0.27	-55.30
16250	0.26	-53.80	0.91	1.80	0.91	1.80	0.26	-53.80
16300	0.25	-53.80	0.92	1.40	0.92	1.40	0.25	-53.80
16350	0.25	-53.80	0.92	0.90	0.92	0.90	0.25	-53.80
16400	0.24	-53.80	0.91	0.80	0.91	0.80	0.24	-53.80
16450	0.23	-53.80	0.91	0.60	0.91	0.60	0.23	-53.80
16500	0.23	-55.80	0.90	0.70	0.90	0.70	0.23	-55.80
16550	0.23	-57.90	0.90	0.70	0.90	0.70	0.23	-57.90
16600	0.23	-58.60	0.91	0.50	0.91	0.50	0.23	-58.60
16650	0.22	-59.40	0.92	0.30	0.92	0.30	0.22	-59.40
16700	0.22	-61.60	0.92	0.20	0.92	0.20	0.22	-61.60
16750	0.22	-63.80	0.92	0.20	0.92	0.20	0.22	-63.80
16800	0.22	-64.50	0.92	0.10	0.92	0.10	0.22	-64.50
16850	0.22	-65.20	0.93	0.00	0.93	0.00	0.22	-65.20
16900	0.22	-66.00	0.93	-0.20	0.93	-0.20	0.22	-66.00
16950	0.21	-66.80	0.93	-0.40	0.93	-0.40	0.21	-66.80
17000	0.21	-67.70	0.94	-0.80	0.94	-0.80	0.21	-67.70
17050	0.20	-68.50	0.94	-1.10	0.94	-1.10	0.20	-68.50
17100	0.20	-67.30	0.94	-1.50	0.94	-1.50	0.20	-67.30
17150	0.20	-66.10	0.94	-1.80	0.94	-1.80	0.20	-66.10
17200	0.19	-65.60	0.94	-2.10	0.94	-2.10	0.19	-65.60
17250	0.18	-65.00	0.94	-2.30	0.94	-2.30	0.18	-65.00
17300	0.17	-63.90	0.95	-2.60	0.95	-2.60	0.17	-63.90
17350	0.17	-62.80	0.95	-3.00	0.95	-3.00	0.17	-62.80
17400	0.16	-64.60	0.95	-3.40	0.95	-3.40	0.16	-64.60
17450	0.15	-66.40	0.95	-3.70	0.95	-3.70	0.15	-66.40
17500	0.14	-63.90	0.95	-4.20	0.95	-4.20	0.14	-63.90
17550	0.13	-61.50	0.95	-4.70	0.95	-4.70	0.13	-61.50
17600	0.12	-62.20	0.95	-5.20	0.95	-5.20	0.12	-62.20
17650	0.11	-62.90	0.95	-5.60	0.95	-5.60	0.11	-62.90
17700	0.10	-64.60	0.95	-6.10	0.95	-6.10	0.10	-64.60
17750	0.09	-66.30	0.95	-6.50	0.95	-6.50	0.09	-66.30
17800	0.08	-68.40	0.95	-6.90	0.95	-6.90	0.08	-68.40
17850	0.08	-70.60	0.95	-7.40	0.95	-7.40	0.08	-70.60
17900	0.07	-74.80	0.95	-7.80	0.95	-7.80	0.07	-74.80
17950	0.07	-79.10	0.95	-8.10	0.95	-8.10	0.07	-79.10
18000	0.06	-81.30	0.95	-8.70	0.95	-8.70	0.06	-81.30
18050	0.06	-83.60	0.95	-9.20	0.95	-9.20	0.06	-83.60
18100	0.06	-86.40	0.95	-9.60	0.95	-9.60	0.06	-86.40
18150	0.07	-89.30	0.95	-10.00	0.95	-10.00	0.07	-89.30
18200	0.07	-87.00	0.95	-10.50	0.95	-10.50	0.07	-87.00
18250	0.07	-84.70	0.95	-11.00	0.95	-11.00	0.07	-84.70
18300	0.07	-83.60	0.95	-11.50	0.95	-11.50	0.07	-83.60
18350	0.08	-82.50	0.95	-12.00	0.95	-12.00	0.08	-82.50
18400	0.07	-73.30	0.95	-12.30	0.95	-12.30	0.07	-73.30
18450	0.07	-64.10	0.95	-12.70	0.95	-12.70	0.07	-64.10
18500	0.08	-61.00	0.95	-13.20	0.95	-13.20	0.08	-61.00
18550	0.08	-58.00	0.95	-13.60	0.95	-13.60	0.08	-58.00
18600	0.08	-46.20	0.95	-14.00	0.95	-14.00	0.08	-46.20
18650	0.07	-34.50	0.95	-14.40	0.95	-14.40	0.07	-34.50
18700	0.07	-36.10	0.94	-15.10	0.94	-15.10	0.07	-36.10
18750	0.08	-37.70	0.94	-15.80	0.94	-15.80	0.08	-37.70
18800	0.08	-28.70	0.93	-16.30	0.93	-16.30	0.08	-28.70
18850	0.08	-19.80	0.93	-16.70	0.93	-16.70	0.08	-19.80
18900	0.08	-15.50	0.93	-17.40	0.93	-17.40	0.08	-15.50
18950	0.09	-11.20	0.92	-18.20	0.92	-18.20	0.09	-11.20
19000	0.08	-7.90	0.91	-18.50	0.91	-18.50	0.08	-7.90
19050	0.08	-4.50	0.90	-18.90	0.90	-18.90	0.08	-4.50
19100	0.09	-2.80	0.90	-19.40	0.90	-19.40	0.09	-2.80
19150	0.11	-1.00	0.89	-20.00	0.89	-20.00	0.11	-1.00
19200	0.12	-5.50	0.88	-20.60	0.88	-20.60	0.12	-5.50
19250	0.13	-10.00	0.88	-21.20	0.88	-21.20	0.13	-10.00
19300	0.15	-10.70	0.87	-22.00	0.87	-22.00	0.15	-10.70
19350	0.18	-11.50	0.86	-22.80	0.86	-22.80	0.18	-11.50
19400	0.20	-15.10	0.85	-24.00	0.85	-24.00	0.20	-15.10
19450	0.22	-18.70	0.83	-25.20	0.83	-25.20	0.22	-18.70
19500	0.25	-21.90	0.80	-25.40	0.80	-25.40	0.25	-21.90
