#	mhz	s	ma	r	50			
50	0.01	54.80	1.00	0.70	1.00	0.70	0.01	54.80
100	0.02	66.00	1.00	0.30	1.00	0.30	0.02	66.00
150	0.03	77.20	1.00	-0.20	1.00	-0.20	0.03	77.20
200	0.04	78.60	0.99	-0.80	0.99	-0.80	0.04	78.60
250	0.05	80.00	0.99	-1.40	0.99	-1.40	0.05	80.00
300	0.05	79.90	0.99	-2.10	0.99	-2.10	0.05	79.90
350	0.06	79.80	0.99	-2.80	0.99	-2.80	0.06	79.80
400	0.07	79.00	0.99	-3.30	0.99	-3.30	0.07	79.00
450	0.08	78.20	0.99	-3.80	0.99	-3.80	0.08	78.20
500	0.10	81.40	0.99	-4.80	0.99	-4.80	0.10	81.40
550	0.11	84.60	0.99	-5.70	0.99	-5.70	0.11	84.60
600	0.12	84.30	0.99	-6.40	0.99	-6.40	0.12	84.30
650	0.13	84.00	0.98	-7.00	0.98	-7.00	0.13	84.00
700	0.14	84.00	0.98	-7.60	0.98	-7.60	0.14	84.00
750	0.15	84.00	0.98	-8.20	0.98	-8.20	0.15	84.00
800	0.16	83.20	0.98	-8.90	0.98	-8.90	0.16	83.20
850	0.16	82.30	0.98	-9.50	0.98	-9.50	0.16	82.30
900	0.17	81.80	0.98	-10.10	0.98	-10.10	0.17	81.80
950	0.19	81.40	0.97	-10.70	0.97	-10.70	0.19	81.40
1000	0.19	80.70	0.97	-11.30	0.97	-11.30	0.19	80.70
1050	0.20	80.10	0.97	-12.00	0.97	-12.00	0.20	80.10
1100	0.21	79.70	0.97	-12.60	0.97	-12.60	0.21	79.70
1150	0.22	79.30	0.96	-13.30	0.96	-13.30	0.22	79.30
1200	0.23	78.60	0.96	-13.80	0.96	-13.80	0.23	78.60
1250	0.24	77.90	0.96	-14.40	0.96	-14.40	0.24	77.90
1300	0.25	77.20	0.96	-15.00	0.96	-15.00	0.25	77.20
1350	0.26	76.50	0.96	-15.70	0.96	-15.70	0.26	76.50
1400	0.27	75.80	0.95	-16.20	0.95	-16.20	0.27	75.80
1450	0.28	75.20	0.95	-16.80	0.95	-16.80	0.28	75.20
1500	0.29	74.40	0.94	-17.50	0.94	-17.50	0.29	74.40
1550	0.30	73.60	0.94	-18.20	0.94	-18.20	0.30	73.60
1600	0.31	72.70	0.94	-18.80	0.94	-18.80	0.31	72.70
1650	0.32	71.80	0.94	-19.40	0.94	-19.40	0.32	71.80
1700	0.32	71.20	0.93	-20.10	0.93	-20.10	0.32	71.20
1750	0.33	70.50	0.93	-20.70	0.93	-20.70	0.33	70.50
1800	0.34	69.60	0.93	-21.20	0.93	-21.20	0.34	69.60
1850	0.35	68.60	0.93	-21.80	0.93	-21.80	0.35	68.60
1900	0.36	67.70	0.92	-22.30	0.92	-22.30	0.36	67.70
1950	0.37	66.70	0.92	-22.90	0.92	-22.90	0.37	66.70
2000	0.37	65.90	0.91	-23.60	0.91	-23.60	0.37	65.90
2050	0.38	65.10	0.91	-24.30	0.91	-24.30	0.38	65.10
2100	0.39	64.40	0.91	-24.80	0.91	-24.80	0.39	64.40
2150	0.40	63.80	0.90	-25.20	0.90	-25.20	0.40	63.80
2200	0.41	62.80	0.90	-25.90	0.90	-25.90	0.41	62.80
2250	0.42	61.80	0.89	-26.60	0.89	-26.60	0.42	61.80
2300	0.43	61.10	0.89	-27.10	0.89	-27.10	0.43	61.10
2350	0.43	60.50	0.88	-27.50	0.88	-27.50	0.43	60.50
2400	0.44	59.60	0.88	-28.20	0.88	-28.20	0.44	59.60
2450	0.45	58.70	0.88	-28.90	0.88	-28.90	0.45	58.70
2500	0.46	57.90	0.87	-29.50	0.87	-29.50	0.46	57.90
2550	0.47	57.20	0.87	-30.20	0.87	-30.20	0.47	57.20
2600	0.48	56.50	0.86	-30.70	0.86	-30.70	0.48	56.50
2650	0.49	55.90	0.86	-31.30	0.86	-31.30	0.49	55.90
2700	0.50	55.30	0.85	-31.90	0.85	-31.90	0.50	55.30
2750	0.51	54.60	0.85	-32.50	0.85	-32.50	0.51	54.60
2800	0.51	53.80	0.84	-33.00	0.84	-33.00	0.51	53.80
2850	0.52	53.00	0.84	-33.60	0.84	-33.60	0.52	53.00
2900	0.53	52.30	0.83	-34.50	0.83	-34.50	0.53	52.30
2950	0.54	51.50	0.82	-35.30	0.82	-35.30	0.54	51.50
3000	0.55	50.90	0.82	-35.90	0.82	-35.90	0.55	50.90
3050	0.56	50.30	0.81	-36.50	0.81	-36.50	0.56	50.30
3100	0.57	49.10	0.80	-37.30	0.80	-37.30	0.57	49.10
3150	0.58	48.00	0.79	-38.20	0.79	-38.20	0.58	48.00
3200	0.59	47.70	0.79	-38.50	0.79	-38.50	0.59	47.70
3250	0.60	47.50	0.78	-38.90	0.78	-38.90	0.60	47.50
3300	0.61	46.80	0.78	-39.80	0.78	-39.80	0.61	46.80
3350	0.62	46.10	0.77	-40.70	0.77	-40.70	0.62	46.10
3400	0.63	45.20	0.76	-41.10	0.76	-41.10	0.63	45.20
3450	0.63	44.40	0.75	-41.60	0.75	-41.60	0.63	44.40
3500	0.64	43.90	0.75	-42.20	0.75	-42.20	0.64	43.90
3550	0.65	43.40	0.74	-42.80	0.74	-42.80	0.65	43.40
3600	0.66	42.70	0.73	-43.60	0.73	-43.60	0.66	42.70
3650	0.67	42.10	0.72	-44.40	0.72	-44.40	0.67	42.10
3700	0.68	41.20	0.71	-45.00	0.71	-45.00	0.68	41.20
3750	0.69	40.20	0.71	-45.70	0.71	-45.70	0.69	40.20
3800	0.69	39.50	0.70	-46.40	0.70	-46.40	0.69	39.50
3850	0.70	38.70	0.69	-47.10	0.69	-47.10	0.70	38.70
3900	0.71	37.80	0.68	-48.00	0.68	-48.00	0.71	37.80
3950	0.72	36.90	0.67	-48.90	0.67	-48.90	0.72	36.90
4000	0.73	36.00	0.66	-49.70	0.66	-49.70	0.73	36.00
4050	0.74	35.10	0.65	-50.40	0.65	-50.40	0.74	35.10
4100	0.75	34.00	0.64	-51.30	0.64	-51.30	0.75	34.00
4150	0.75	33.00	0.63	-52.20	0.63	-52.20	0.75	33.00
4200	0.76	32.00	0.62	-52.80	0.62	-52.80	0.76	32.00
4250	0.78	31.00	0.61	-53.40	0.61	-53.40	0.78	31.00
4300	0.78	29.90	0.60	-54.20	0.60	-54.20	0.78	29.90
4350	0.79	28.90	0.59	-55.00	0.59	-55.00	0.79	28.90
4400	0.80	27.90	0.58	-55.80	0.58	-55.80	0.80	27.90
4450	0.81	26.80	0.57	-56.60	0.57	-56.60	0.81	26.80
4500	0.81	25.80	0.56	-57.60	0.56	-57.60	0.81	25.80
4550	0.82	24.70	0.54	-58.70	0.54	-58.70	0.82	24.70
4600	0.83	23.70	0.53	-59.30	0.53	-59.30	0.83	23.70
4650	0.84	22.70	0.52	-59.90	0.52	-59.90	0.84	22.70
4700	0.85	21.70	0.51	-60.70	0.51	-60.70	0.85	21.70
4750	0.85	20.60	0.50	-61.50	0.50	-61.50	0.85	20.60
4800	0.85	19.40	0.49	-62.40	0.49	-62.40	0.85	19.40
4850	0.86	18.20	0.48	-63.40	0.48	-63.40	0.86	18.20
4900	0.87	17.50	0.46	-63.90	0.46	-63.90	0.87	17.50
4950	0.88	16.90	0.45	-64.40	0.45	-64.40	0.88	16.90
5000	0.89	15.50	0.44	-65.50	0.44	-65.50	0.89	15.50
5050	0.90	14.20	0.43	-66.60	0.43	-66.60	0.90	14.20
5100	0.89	13.10	0.42	-67.60	0.42	-67.60	0.89	13.10
5150	0.89	12.00	0.40	-68.60	0.40	-68.60	0.89	12.00
5200	0.89	11.80	0.39	-68.90	0.39	-68.90	0.89	11.80
5250	0.90	11.50	0.37	-69.30	0.37	-69.30	0.90	11.50
5300	0.92	10.40	0.37	-70.10	0.37	-70.10	0.92	10.40
5350	0.94	9.30	0.36	-70.90	0.36	-70.90	0.94	9.30
5400	0.93	8.30	0.34	-71.90	0.34	-71.90	0.93	8.30
5450	0.93	7.40	0.33	-73.00	0.33	-73.00	0.93	7.40
5500	0.94	6.70	0.32	-73.60	0.32	-73.60	0.94	6.70
5550	0.95	6.10	0.31	-74.20	0.31	-74.20	0.95	6.10
5600	0.95	5.20	0.29	-75.10	0.29	-75.10	0.95	5.20
5650	0.95	4.40	0.28	-76.10	0.28	-76.10	0.95	4.40
5700	0.95	3.70	0.27	-76.80	0.27	-76.80	0.95	3.70
5750	0.95	3.00	0.25	-77.60	0.25	-77.60	0.95	3.00
5800	0.95	2.40	0.24	-78.20	0.24	-78.20	0.95	2.40
5850	0.95	1.80	0.22	-78.80	0.22	-78.80	0.95	1.80
5900	0.96	1.70	0.21	-79.10	0.21	-79.10	0.96	1.70
5950	0.96	1.60	0.20	-79.50	0.20	-79.50	0.96	1.60
6000	0.96	0.20	0.19	-80.20	0.19	-80.20	0.96	0.20
6050	0.97	-1.10	0.18	-80.80	0.18	-80.80	0.97	-1.10
6100	0.97	-1.20	0.17	-80.90	0.17	-80.90	0.97	-1.20
6150	0.97	-1.30	0.15	-81.00	0.15	-81.00	0.97	-1.30
6200	0.98	-1.40	0.14	-81.30	0.14	-81.30	0.98	-1.40
6250	0.98	-1.50	0.13	-81.50	0.13	-81.50	0.98	-1.50
6300	0.98	-1.80	0.11	-81.30	0.11	-81.30	0.98	-1.80
6350	0.99	-2.10	0.10	-81.10	0.10	-81.10	0.99	-2.10
6400	0.98	-2.20	0.09	-80.30	0.09	-80.30	0.98	-2.20
6450	0.98	-2.20	0.07	-79.50	0.07	-79.50	0.98	-2.20
6500	0.98	-2.50	0.06	-77.00	0.06	-77.00	0.98	-2.50
6550	0.98	-2.80	0.05	-74.50	0.05	-74.50	0.98	-2.80
6600	0.99	-3.00	0.04	-65.90	0.04	-65.90	0.99	-3.00
6650	0.99	-3.30	0.03	-57.30	0.03	-57.30	0.99	-3.30
6700	0.98	-3.30	0.02	-25.20	0.02	-25.20	0.98	-3.30
6750	0.98	-3.40	0.02	7.00	0.02	7.00	0.98	-3.40
6800	0.99	-3.60	0.03	29.10	0.03	29.10	0.99	-3.60
6850	0.99	-3.80	0.03	51.20	0.03	51.20	0.99	-3.80
6900	0.99	-4.50	0.05	56.40	0.05	56.40	0.99	-4.50
6950	0.98	-5.20	0.06	61.60	0.06	61.60	0.98	-5.20
7000	0.98	-5.20	0.07	63.50	0.07	63.50	0.98	-5.20
7050	0.98	-5.30	0.08	65.50	0.08	65.50	0.98	-5.30
7100	0.98	-5.90	0.09	66.00	0.09	66.00	0.98	-5.90
7150	0.97	-6.50	0.10	66.60	0.10	66.60	0.97	-6.50
7200	0.97	-6.70	0.11	67.00	0.11	67.00	0.97	-6.70
7250	0.96	-6.80	0.13	67.40	0.13	67.40	0.96	-6.80
7300	0.97	-7.50	0.14	67.40	0.14	67.40	0.97	-7.50
7350	0.98	-8.20	0.15	67.30	0.15	67.30	0.98	-8.20
7400	0.97	-9.00	0.16	66.90	0.16	66.90	0.97	-9.00
7450	0.96	-9.70	0.17	66.40	0.17	66.40	0.96	-9.70
7500	0.96	-10.60	0.18	66.20	0.18	66.20	0.96	-10.60
7550	0.97	-11.40	0.19	66.10	0.19	66.10	0.97	-11.40
7600	0.97	-12.60	0.20	65.30	0.20	65.30	0.97	-12.60
7650	0.96	-13.80	0.22	64.60	0.22	64.60	0.96	-13.80
7700	0.95	-14.80	0.23	64.20	0.23	64.20	0.95	-14.80
7750	0.95	-15.90	0.23	63.80	0.23	63.80	0.95	-15.90
7800	0.94	-16.80	0.25	63.50	0.25	63.50	0.94	-16.80
7850	0.94	-17.70	0.26	63.10	0.26	63.10	0.94	-17.70
7900	0.94	-19.30	0.27	62.40	0.27	62.40	0.94	-19.30
7950	0.94	-21.00	0.28	61.60	0.28	61.60	0.94	-21.00
8000	0.94	-22.40	0.29	60.90	0.29	60.90	0.94	-22.40
8050	0.93	-23.90	0.30	60.10	0.30	60.10	0.93	-23.90
8100	0.92	-24.90	0.31	59.80	0.31	59.80	0.92	-24.90
8150	0.91	-25.90	0.32	59.50	0.32	59.50	0.91	-25.90
8200	0.90	-27.20	0.33	58.80	0.33	58.80	0.90	-27.20
8250	0.90	-28.50	0.34	58.10	0.34	58.10	0.90	-28.50
8300	0.90	-29.50	0.35	57.70	0.35	57.70	0.90	-29.50
8350	0.89	-30.60	0.36	57.30	0.36	57.30	0.89	-30.60
8400	0.89	-31.80	0.37	56.40	0.37	56.40	0.89	-31.80
8450	0.89	-33.00	0.38	55.50	0.38	55.50	0.89	-33.00
8500	0.88	-33.90	0.40	55.10	0.40	55.10	0.88	-33.90
8550	0.87	-34.80	0.41	54.60	0.41	54.60	0.87	-34.80
8600	0.87	-35.80	0.42	53.60	0.42	53.60	0.87	-35.80
8650	0.87	-36.80	0.43	52.60	0.43	52.60	0.87	-36.80
8700	0.87	-37.50	0.44	51.80	0.44	51.80	0.87	-37.50
8750	0.86	-38.30	0.44	50.90	0.44	50.90	0.86	-38.30
8800	0.85	-39.00	0.45	50.30	0.45	50.30	0.85	-39.00
8850	0.84	-39.60	0.45	49.70	0.45	49.70	0.84	-39.60
8900	0.84	-39.80	0.46	49.30	0.46	49.30	0.84	-39.80
8950	0.84	-40.00	0.47	48.80	0.47	48.80	0.84	-40.00
9000	0.83	-40.50	0.47	48.40	0.47	48.40	0.83	-40.50
9050	0.83	-41.10	0.47	48.10	0.47	48.10	0.83	-41.10
9100	0.83	-41.70	0.48	47.90	0.48	47.90	0.83	-41.70
9150	0.82	-42.40	0.49	47.60	0.49	47.60	0.82	-42.40
9200	0.82	-43.20	0.50	47.70	0.50	47.70	0.82	-43.20
9250	0.81	-43.90	0.50	47.80	0.50	47.80	0.81	-43.90
9300	0.81	-44.20	0.52	47.20	0.52	47.20	0.81	-44.20
9350	0.80	-44.40	0.53	46.70	0.53	46.70	0.80	-44.40
9400	0.80	-45.10	0.53	46.50	0.53	46.50	0.80	-45.10
9450	0.79	-45.70	0.54	46.40	0.54	46.40	0.79	-45.70
9500	0.79	-46.00	0.55	45.80	0.55	45.80	0.79	-46.00
9550	0.78	-46.30	0.56	45.20	0.56	45.20	0.78	-46.30
9600	0.78	-46.90	0.57	44.50	0.57	44.50	0.78	-46.90
9650	0.78	-47.40	0.58	43.90	0.58	43.90	0.78	-47.40
9700	0.77	-48.00	0.59	43.60	0.59	43.60	0.77	-48.00
9750	0.76	-48.50	0.60	43.20	0.60	43.20	0.76	-48.50
9800	0.76	-48.70	0.60	42.50	0.60	42.50	0.76	-48.70
9850	0.75	-49.00	0.61	41.80	0.61	41.80	0.75	-49.00
9900	0.75	-49.20	0.62	41.40	0.62	41.40	0.75	-49.20
9950	0.74	-49.50	0.62	40.90	0.62	40.90	0.74	-49.50
10000	0.73	-50.00	0.63	40.60	0.63	40.60	0.73	-50.00
10050	0.73	-50.50	0.64	40.30	0.64	40.30	0.73	-50.50
10100	0.72	-50.70	0.64	39.70	0.64	39.70	0.72	-50.70
10150	0.71	-50.80	0.65	39.10	0.65	39.10	0.71	-50.80
10200	0.71	-51.20	0.66	38.70	0.66	38.70	0.71	-51.20
10250	0.70	-51.60	0.67	38.40	0.67	38.40	0.70	-51.60
10300	0.69	-52.20	0.67	38.10	0.67	38.10	0.69	-52.20
10350	0.69	-52.70	0.67	37.80	0.67	37.80	0.69	-52.70
10400	0.68	-53.70	0.69	37.00	0.69	37.00	0.68	-53.70
10450	0.67	-54.70	0.70	36.30	0.70	36.30	0.67	-54.70
10500	0.67	-55.00	0.70	36.00	0.70	36.00	0.67	-55.00
10550	0.67	-55.20	0.71	35.80	0.71	35.80	0.67	-55.20
10600	0.66	-56.60	0.71	34.90	0.71	34.90	0.66	-56.60
10650	0.64	-58.00	0.72	34.00	0.72	34.00	0.64	-58.00
10700	0.64	-58.00	0.73	33.70	0.73	33.70	0.64	-58.00
10750	0.64	-58.10	0.73	33.50	0.73	33.50	0.64	-58.10
10800	0.64	-59.10	0.74	33.00	0.74	33.00	0.64	-59.10
10850	0.63	-60.10	0.74	32.60	0.74	32.60	0.63	-60.10
10900	0.62	-61.40	0.75	31.70	0.75	31.70	0.62	-61.40
10950	0.62	-62.70	0.76	30.90	0.76	30.90	0.62	-62.70
11000	0.60	-63.10	0.75	30.60	0.75	30.60	0.60	-63.10
11050	0.59	-63.40	0.75	30.30	0.75	30.30	0.59	-63.40
11100	0.60	-64.40	0.76	29.70	0.76	29.70	0.60	-64.40
11150	0.61	-65.40	0.77	29.20	0.77	29.20	0.61	-65.40
11200	0.60	-65.40	0.77	28.80	0.77	28.80	0.60	-65.40
11250	0.59	-65.40	0.76	28.40	0.76	28.40	0.59	-65.40
11300	0.58	-66.30	0.77	27.80	0.77	27.80	0.58	-66.30
11350	0.58	-67.30	0.77	27.10	0.77	27.10	0.58	-67.30
11400	0.58	-66.60	0.78	27.20	0.78	27.20	0.58	-66.60
11450	0.58	-66.00	0.78	27.20	0.78	27.20	0.58	-66.00
11500	0.57	-67.10	0.78	26.50	0.78	26.50	0.57	-67.10
11550	0.56	-68.20	0.79	25.80	0.79	25.80	0.56	-68.20
11600	0.56	-68.00	0.79	25.50	0.79	25.50	0.56	-68.00
11650	0.56	-67.90	0.80	25.30	0.80	25.30	0.56	-67.90
11700	0.56	-68.40	0.80	24.80	0.80	24.80	0.56	-68.40
11750	0.55	-68.80	0.80	24.40	0.80	24.40	0.55	-68.80
11800	0.54	-69.10	0.81	24.00	0.81	24.00	0.54	-69.10
11850	0.54	-69.40	0.81	23.60	0.81	23.60	0.54	-69.40
11900	0.53	-69.80	0.81	23.30	0.81	23.30	0.53	-69.80
11950	0.52	-70.20	0.81	23.10	0.81	23.10	0.52	-70.20
12000	0.52	-71.40	0.82	22.20	0.82	22.20	0.52	-71.40
12050	0.52	-72.60	0.82	21.30	0.82	21.30	0.52	-72.60
12100	0.51	-73.20	0.82	21.00	0.82	21.00	0.51	-73.20
12150	0.50	-73.80	0.82	20.80	0.82	20.80	0.50	-73.80
12200	0.50	-74.30	0.82	20.30	0.82	20.30	0.50	-74.30
12250	0.50	-74.80	0.82	19.90	0.82	19.90	0.50	-74.80
12300	0.49	-74.70	0.83	19.50	0.83	19.50	0.49	-74.70
12350	0.49	-74.60	0.83	19.10	0.83	19.10	0.49	-74.60
12400	0.49	-75.10	0.82	18.90	0.82	18.90	0.49	-75.10
12450	0.49	-75.60	0.82	18.70	0.82	18.70	0.49	-75.60
12500	0.49	-75.00	0.83	18.40	0.83	18.40	0.49	-75.00
12550	0.49	-74.40	0.83	18.10	0.83	18.10	0.49	-74.40
12600	0.49	-74.20	0.83	18.00	0.83	18.00	0.49	-74.20
12650	0.49	-74.10	0.83	17.80	0.83	17.80	0.49	-74.10
12700	0.49	-73.30	0.83	17.50	0.83	17.50	0.49	-73.30
12750	0.49	-72.60	0.83	17.20	0.83	17.20	0.49	-72.60
12800	0.49	-72.00	0.84	17.10	0.84	17.10	0.49	-72.00
12850	0.49	-71.50	0.84	17.10	0.84	17.10	0.49	-71.50
12900	0.49	-71.00	0.84	16.70	0.84	16.70	0.49	-71.00
12950	0.49	-70.50	0.84	16.30	0.84	16.30	0.49	-70.50
13000	0.49	-70.10	0.85	16.30	0.85	16.30	0.49	-70.10
13050	0.49	-69.70	0.86	16.30	0.86	16.30	0.49	-69.70
13100	0.48	-69.40	0.85	15.80	0.85	15.80	0.48	-69.40
13150	0.47	-69.10	0.85	15.40	0.85	15.40	0.47	-69.10
13200	0.47	-69.20	0.86	15.40	0.86	15.40	0.47	-69.20
13250	0.46	-69.40	0.86	15.30	0.86	15.30	0.46	-69.40
13300	0.45	-67.70	0.86	14.80	0.86	14.80	0.45	-67.70
13350	0.43	-66.00	0.86	14.40	0.86	14.40	0.43	-66.00
13400	0.43	-67.80	0.86	13.90	0.86	13.90	0.43	-67.80
13450	0.44	-69.70	0.86	13.40	0.86	13.40	0.44	-69.70
13500	0.43	-69.90	0.87	13.20	0.87	13.20	0.43	-69.90
13550	0.42	-70.10	0.87	13.00	0.87	13.00	0.42	-70.10
13600	0.42	-70.80	0.87	12.60	0.87	12.60	0.42	-70.80
13650	0.42	-71.50	0.86	12.30	0.86	12.30	0.42	-71.50
13700	0.41	-71.90	0.87	12.00	0.87	12.00	0.41	-71.90
13750	0.41	-72.30	0.87	11.60	0.87	11.60	0.41	-72.30
13800	0.41	-72.70	0.87	11.40	0.87	11.40	0.41	-72.70
13850	0.40	-73.20	0.87	11.20	0.87	11.20	0.40	-73.20
13900	0.41	-73.50	0.87	10.90	0.87	10.90	0.41	-73.50
13950	0.41	-73.80	0.88	10.60	0.88	10.60	0.41	-73.80
14000	0.40	-73.70	0.88	10.30	0.88	10.30	0.40	-73.70
14050	0.40	-73.60	0.88	10.00	0.88	10.00	0.40	-73.60
14100	0.40	-74.10	0.88	9.70	0.88	9.70	0.40	-74.10
14150	0.40	-74.70	0.88	9.30	0.88	9.30	0.40	-74.70
14200	0.40	-74.30	0.88	9.00	0.88	9.00	0.40	-74.30
14250	0.39	-73.90	0.88	8.60	0.88	8.60	0.39	-73.90
14300	0.39	-74.10	0.89	8.40	0.89	8.40	0.39	-74.10
14350	0.39	-74.40	0.89	8.20	0.89	8.20	0.39	-74.40
14400	0.39	-74.20	0.89	7.70	0.89	7.70	0.39	-74.20
14450	0.39	-74.00	0.89	7.20	0.89	7.20	0.39	-74.00
14500	0.38	-73.80	0.90	7.10	0.90	7.10	0.38	-73.80
14550	0.37	-73.50	0.90	7.00	0.90	7.00	0.37	-73.50
14600	0.37	-73.30	0.90	6.60	0.90	6.60	0.37	-73.30
14650	0.36	-73.00	0.90	6.10	0.90	6.10	0.36	-73.00
14700	0.35	-73.40	0.90	5.80	0.90	5.80	0.35	-73.40
14750	0.35	-73.90	0.91	5.50	0.91	5.50	0.35	-73.90
14800	0.34	-73.50	0.91	5.10	0.91	5.10	0.34	-73.50
14850	0.33	-73.20	0.91	4.70	0.91	4.70	0.33	-73.20
14900	0.33	-73.40	0.92	4.40	0.92	4.40	0.33	-73.40
14950	0.32	-73.60	0.92	4.00	0.92	4.00	0.32	-73.60
15000	0.32	-73.80	0.92	3.70	0.92	3.70	0.32	-73.80
15050	0.31	-74.10	0.92	3.30	0.92	3.30	0.31	-74.10
15100	0.31	-73.50	0.92	3.10	0.92	3.10	0.31	-73.50
15150	0.30	-72.90	0.93	2.90	0.93	2.90	0.30	-72.90
15200	0.30	-73.00	0.93	2.70	0.93	2.70	0.30	-73.00
15250	0.29	-73.10	0.93	2.50	0.93	2.50	0.29	-73.10
15300	0.29	-72.60	0.93	2.00	0.93	2.00	0.29	-72.60
15350	0.29	-72.10	0.93	1.40	0.93	1.40	0.29	-72.10
15400	0.28	-71.00	0.93	1.30	0.93	1.30	0.28	-71.00
15450	0.28	-70.00	0.93	1.20	0.93	1.20	0.28	-70.00
15500	0.28	-68.60	0.93	0.70	0.93	0.70	0.28	-68.60
15550	0.27	-67.20	0.94	0.20	0.94	0.20	0.27	-67.20
15600	0.27	-65.80	0.94	-0.10	0.94	-0.10	0.27	-65.80
15650	0.27	-64.50	0.94	-0.30	0.94	-0.30	0.27	-64.50
15700	0.26	-62.60	0.94	-0.70	0.94	-0.70	0.26	-62.60
15750	0.26	-60.80	0.94	-1.10	0.94	-1.10	0.26	-60.80
15800	0.25	-59.10	0.94	-1.20	0.94	-1.20	0.25	-59.10
15850	0.24	-57.40	0.94	-1.40	0.94	-1.40	0.24	-57.40
15900	0.24	-55.70	0.94	-1.70	0.94	-1.70	0.24	-55.70
15950	0.24	-54.00	0.94	-2.00	0.94	-2.00	0.24	-54.00
16000	0.23	-50.90	0.94	-2.30	0.94	-2.30	0.23	-50.90
16050	0.22	-47.80	0.94	-2.50	0.94	-2.50	0.22	-47.80
16100	0.21	-46.70	0.94	-3.00	0.94	-3.00	0.21	-46.70
16150	0.20	-45.50	0.94	-3.50	0.94	-3.50	0.20	-45.50
16200	0.19	-43.10	0.94	-3.80	0.94	-3.80	0.19	-43.10
16250	0.19	-40.80	0.94	-4.00	0.94	-4.00	0.19	-40.80
16300	0.18	-40.50	0.94	-4.40	0.94	-4.40	0.18	-40.50
16350	0.17	-40.20	0.94	-4.70	0.94	-4.70	0.17	-40.20
16400	0.17	-39.60	0.94	-4.80	0.94	-4.80	0.17	-39.60
16450	0.16	-39.10	0.93	-4.90	0.93	-4.90	0.16	-39.10
16500	0.16	-42.20	0.93	-4.90	0.93	-4.90	0.16	-42.20
16550	0.16	-45.20	0.93	-4.80	0.93	-4.80	0.16	-45.20
16600	0.15	-45.30	0.93	-5.10	0.93	-5.10	0.15	-45.30
16650	0.15	-45.40	0.94	-5.30	0.94	-5.30	0.15	-45.40
16700	0.15	-48.30	0.94	-5.40	0.94	-5.40	0.15	-48.30
16750	0.14	-51.20	0.94	-5.50	0.94	-5.50	0.14	-51.20
16800	0.14	-51.60	0.94	-5.60	0.94	-5.60	0.14	-51.60
16850	0.14	-51.90	0.94	-5.80	0.94	-5.80	0.14	-51.90
16900	0.14	-51.60	0.95	-6.00	0.95	-6.00	0.14	-51.60
16950	0.14	-51.20	0.95	-6.20	0.95	-6.20	0.14	-51.20
17000	0.13	-51.40	0.95	-6.60	0.95	-6.60	0.13	-51.40
17050	0.13	-51.60	0.95	-7.00	0.95	-7.00	0.13	-51.60
17100	0.13	-48.30	0.95	-7.40	0.95	-7.40	0.13	-48.30
17150	0.13	-45.00	0.95	-7.80	0.95	-7.80	0.13	-45.00
17200	0.13	-41.80	0.95	-8.10	0.95	-8.10	0.13	-41.80
17250	0.12	-38.70	0.94	-8.40	0.94	-8.40	0.12	-38.70
17300	0.12	-35.10	0.94	-8.80	0.94	-8.80	0.12	-35.10
17350	0.12	-31.50	0.94	-9.20	0.94	-9.20	0.12	-31.50
17400	0.12	-29.70	0.94	-9.60	0.94	-9.60	0.12	-29.70
17450	0.12	-27.90	0.93	-10.00	0.93	-10.00	0.12	-27.90
17500	0.12	-25.80	0.92	-10.40	0.92	-10.40	0.12	-25.80
17550	0.13	-23.70	0.91	-10.80	0.91	-10.80	0.13	-23.70
17600	0.13	-25.40	0.90	-10.70	0.90	-10.70	0.13	-25.40
17650	0.13	-27.00	0.88	-10.70	0.88	-10.70	0.13	-27.00
17700	0.13	-35.10	0.88	-9.80	0.88	-9.80	0.13	-35.10
17750	0.13	-43.10	0.87	-9.00	0.87	-9.00	0.13	-43.10
17800	0.12	-53.20	0.88	-8.30	0.88	-8.30	0.12	-53.20
17850	0.11	-63.20	0.89	-7.70	0.89	-7.70	0.11	-63.20
17900	0.10	-73.10	0.90	-7.50	0.90	-7.50	0.10	-73.10
17950	0.09	-83.00	0.91	-7.30	0.91	-7.30	0.09	-83.00
18000	0.08	-91.00	0.92	-7.80	0.92	-7.80	0.08	-91.00
18050	0.08	-98.90	0.93	-8.30	0.93	-8.30	0.08	-98.90
18100	0.08	-103.20	0.93	-8.60	0.93	-8.60	0.08	-103.20
18150	0.08	-107.50	0.94	-9.00	0.94	-9.00	0.08	-107.50
18200	0.08	-108.50	0.94	-9.50	0.94	-9.50	0.08	-108.50
18250	0.08	-109.60	0.95	-10.00	0.95	-10.00	0.08	-109.60
18300	0.08	-108.70	0.95	-10.40	0.95	-10.40	0.08	-108.70
18350	0.08	-107.80	0.95	-10.80	0.95	-10.80	0.08	-107.80
18400	0.08	-102.40	0.95	-11.10	0.95	-11.10	0.08	-102.40
18450	0.07	-97.10	0.95	-11.40	0.95	-11.40	0.07	-97.10
18500	0.07	-94.70	0.96	-11.70	0.96	-11.70	0.07	-94.70
18550	0.07	-92.30	0.96	-12.10	0.96	-12.10	0.07	-92.30
18600	0.06	-87.40	0.96	-12.30	0.96	-12.30	0.06	-87.40
18650	0.05	-82.40	0.96	-12.50	0.96	-12.50	0.05	-82.40
18700	0.05	-84.40	0.96	-13.00	0.96	-13.00	0.05	-84.40
18750	0.06	-86.40	0.96	-13.50	0.96	-13.50	0.06	-86.40
18800	0.05	-82.50	0.96	-13.70	0.96	-13.70	0.05	-82.50
18850	0.05	-78.50	0.96	-14.00	0.96	-14.00	0.05	-78.50
18900	0.04	-80.80	0.95	-14.30	0.95	-14.30	0.04	-80.80
18950	0.04	-83.20	0.95	-14.70	0.95	-14.70	0.04	-83.20
19000	0.04	-98.20	0.95	-14.70	0.95	-14.70	0.04	-98.20
19050	0.04	-113.30	0.94	-14.70	0.94	-14.70	0.04	-113.30
19100	0.03	-103.00	0.94	-14.80	0.94	-14.80	0.03	-103.00
19150	0.03	-92.70	0.94	-14.90	0.94	-14.90	0.03	-92.70
19200	0.03	-92.70	0.94	-14.90	0.94	-14.90	0.03	-92.70
19250	0.04	-92.70	0.95	-15.00	0.95	-15.00	0.04	-92.70
19300	0.05	-81.50	0.95	-15.30	0.95	-15.30	0.05	-81.50
19350	0.05	-70.40	0.95	-15.50	0.95	-15.50	0.05	-70.40
19400	0.06	-72.20	0.96	-16.00	0.96	-16.00	0.06	-72.20
19450	0.06	-74.00	0.96	-16.60	0.96	-16.60	0.06	-74.00
