#	mhz	s	ma	r	50			
50	0.01	65.00	1.00	0.50	1.00	0.50	0.01	65.00
100	0.03	71.80	1.00	-0.20	1.00	-0.20	0.03	71.80
150	0.04	78.50	0.99	-0.90	0.99	-0.90	0.04	78.50
200	0.05	79.30	0.99	-1.80	0.99	-1.80	0.05	79.30
250	0.07	80.00	0.99	-2.60	0.99	-2.60	0.07	80.00
300	0.08	79.50	0.99	-3.50	0.99	-3.50	0.08	79.50
350	0.09	79.10	0.99	-4.40	0.99	-4.40	0.09	79.10
400	0.10	78.20	0.99	-5.10	0.99	-5.10	0.10	78.20
450	0.12	77.20	0.98	-5.80	0.98	-5.80	0.12	77.20
500	0.14	79.90	0.98	-7.20	0.98	-7.20	0.14	79.90
550	0.16	82.70	0.98	-8.50	0.98	-8.50	0.16	82.70
600	0.17	82.00	0.98	-9.30	0.98	-9.30	0.17	82.00
650	0.18	81.40	0.97	-10.20	0.97	-10.20	0.18	81.40
700	0.20	81.20	0.97	-11.00	0.97	-11.00	0.20	81.20
750	0.21	81.00	0.97	-11.90	0.97	-11.90	0.21	81.00
800	0.22	79.90	0.97	-12.70	0.97	-12.70	0.22	79.90
850	0.23	78.70	0.96	-13.60	0.96	-13.60	0.23	78.70
900	0.25	77.90	0.96	-14.40	0.96	-14.40	0.25	77.90
950	0.26	77.20	0.95	-15.20	0.95	-15.20	0.26	77.20
1000	0.28	76.30	0.95	-16.10	0.95	-16.10	0.28	76.30
1050	0.29	75.40	0.94	-16.90	0.94	-16.90	0.29	75.40
1100	0.30	74.80	0.94	-17.80	0.94	-17.80	0.30	74.80
1150	0.31	74.10	0.94	-18.70	0.94	-18.70	0.31	74.10
1200	0.33	73.30	0.93	-19.50	0.93	-19.50	0.33	73.30
1250	0.34	72.40	0.93	-20.20	0.93	-20.20	0.34	72.40
1300	0.35	71.40	0.92	-21.10	0.92	-21.10	0.35	71.40
1350	0.37	70.50	0.92	-22.00	0.92	-22.00	0.37	70.50
1400	0.38	69.60	0.91	-22.70	0.91	-22.70	0.38	69.60
1450	0.39	68.80	0.91	-23.50	0.91	-23.50	0.39	68.80
1500	0.40	67.70	0.90	-24.40	0.90	-24.40	0.40	67.70
1550	0.41	66.70	0.90	-25.30	0.90	-25.30	0.41	66.70
1600	0.43	65.50	0.89	-26.10	0.89	-26.10	0.43	65.50
1650	0.44	64.40	0.89	-26.90	0.89	-26.90	0.44	64.40
1700	0.45	63.60	0.88	-27.80	0.88	-27.80	0.45	63.60
1750	0.46	62.70	0.87	-28.60	0.87	-28.60	0.46	62.70
1800	0.47	61.60	0.87	-29.30	0.87	-29.30	0.47	61.60
1850	0.48	60.50	0.86	-30.10	0.86	-30.10	0.48	60.50
1900	0.49	59.40	0.86	-30.80	0.86	-30.80	0.49	59.40
1950	0.50	58.20	0.85	-31.60	0.85	-31.60	0.50	58.20
2000	0.51	57.20	0.84	-32.40	0.84	-32.40	0.51	57.20
2050	0.52	56.10	0.83	-33.30	0.83	-33.30	0.52	56.10
2100	0.53	55.30	0.83	-34.00	0.83	-34.00	0.53	55.30
2150	0.54	54.50	0.82	-34.60	0.82	-34.60	0.54	54.50
2200	0.55	53.30	0.81	-35.50	0.81	-35.50	0.55	53.30
2250	0.56	52.00	0.81	-36.40	0.81	-36.40	0.56	52.00
2300	0.57	51.20	0.80	-37.00	0.80	-37.00	0.57	51.20
2350	0.58	50.40	0.79	-37.60	0.79	-37.60	0.58	50.40
2400	0.59	49.40	0.78	-38.50	0.78	-38.50	0.59	49.40
2450	0.61	48.30	0.78	-39.30	0.78	-39.30	0.61	48.30
2500	0.62	47.30	0.77	-40.20	0.77	-40.20	0.62	47.30
2550	0.63	46.30	0.76	-41.10	0.76	-41.10	0.63	46.30
2600	0.64	45.60	0.75	-41.70	0.75	-41.70	0.64	45.60
2650	0.65	44.80	0.74	-42.40	0.74	-42.40	0.65	44.80
2700	0.66	43.90	0.73	-43.20	0.73	-43.20	0.66	43.90
2750	0.67	43.00	0.72	-44.00	0.72	-44.00	0.67	43.00
2800	0.68	42.00	0.72	-44.70	0.72	-44.70	0.68	42.00
2850	0.69	41.10	0.71	-45.40	0.71	-45.40	0.69	41.10
2900	0.70	40.20	0.70	-46.50	0.70	-46.50	0.70	40.20
2950	0.71	39.30	0.69	-47.50	0.69	-47.50	0.71	39.30
3000	0.72	38.50	0.68	-48.30	0.68	-48.30	0.72	38.50
3050	0.73	37.70	0.67	-49.00	0.67	-49.00	0.73	37.70
3100	0.74	36.40	0.65	-50.00	0.65	-50.00	0.74	36.40
3150	0.74	35.10	0.64	-50.90	0.64	-50.90	0.74	35.10
3200	0.75	34.70	0.63	-51.40	0.63	-51.40	0.75	34.70
3250	0.76	34.30	0.62	-51.90	0.62	-51.90	0.76	34.30
3300	0.77	33.40	0.61	-52.90	0.61	-52.90	0.77	33.40
3350	0.79	32.50	0.60	-54.00	0.60	-54.00	0.79	32.50
3400	0.79	31.60	0.59	-54.60	0.59	-54.60	0.79	31.60
3450	0.80	30.70	0.58	-55.10	0.58	-55.10	0.80	30.70
3500	0.81	30.10	0.57	-55.80	0.57	-55.80	0.81	30.10
3550	0.81	29.40	0.56	-56.50	0.56	-56.50	0.81	29.40
3600	0.82	28.50	0.55	-57.50	0.55	-57.50	0.82	28.50
3650	0.83	27.70	0.53	-58.40	0.53	-58.40	0.83	27.70
3700	0.83	26.70	0.52	-59.10	0.52	-59.10	0.83	26.70
3750	0.84	25.60	0.51	-59.90	0.51	-59.90	0.84	25.60
3800	0.85	24.80	0.50	-60.70	0.50	-60.70	0.85	24.80
3850	0.86	23.90	0.48	-61.40	0.48	-61.40	0.86	23.90
3900	0.87	22.80	0.47	-62.50	0.47	-62.50	0.87	22.80
3950	0.87	21.70	0.46	-63.60	0.46	-63.60	0.87	21.70
4000	0.88	20.70	0.45	-64.30	0.45	-64.30	0.88	20.70
4050	0.88	19.70	0.44	-65.10	0.44	-65.10	0.88	19.70
4100	0.89	18.60	0.42	-66.10	0.42	-66.10	0.89	18.60
4150	0.89	17.50	0.41	-67.10	0.41	-67.10	0.89	17.50
4200	0.90	16.40	0.39	-67.60	0.39	-67.60	0.90	16.40
4250	0.91	15.40	0.38	-68.20	0.38	-68.20	0.91	15.40
4300	0.92	14.30	0.37	-69.00	0.37	-69.00	0.92	14.30
4350	0.92	13.10	0.35	-69.80	0.35	-69.80	0.92	13.10
4400	0.93	12.00	0.34	-70.60	0.34	-70.60	0.93	12.00
4450	0.93	10.90	0.33	-71.50	0.33	-71.50	0.93	10.90
4500	0.93	10.00	0.31	-72.40	0.31	-72.40	0.93	10.00
4550	0.93	9.00	0.30	-73.30	0.30	-73.30	0.93	9.00
4600	0.94	7.90	0.29	-73.80	0.29	-73.80	0.94	7.90
4650	0.96	6.80	0.28	-74.40	0.28	-74.40	0.96	6.80
4700	0.95	5.70	0.26	-75.10	0.26	-75.10	0.95	5.70
4750	0.95	4.70	0.25	-75.80	0.25	-75.80	0.95	4.70
4800	0.96	3.50	0.23	-76.60	0.23	-76.60	0.96	3.50
4850	0.96	2.20	0.22	-77.40	0.22	-77.40	0.96	2.20
4900	0.96	1.60	0.21	-77.70	0.21	-77.70	0.96	1.60
4950	0.97	1.00	0.20	-78.00	0.20	-78.00	0.97	1.00
5000	0.98	-0.50	0.18	-78.90	0.18	-78.90	0.98	-0.50
5050	0.98	-2.00	0.17	-79.90	0.17	-79.90	0.98	-2.00
5100	0.97	-2.90	0.16	-80.40	0.16	-80.40	0.97	-2.90
5150	0.96	-3.90	0.14	-80.90	0.14	-80.90	0.96	-3.90
5200	0.96	-4.00	0.13	-80.60	0.13	-80.60	0.96	-4.00
5250	0.96	-4.20	0.12	-80.30	0.12	-80.30	0.96	-4.20
5300	0.98	-5.40	0.11	-80.30	0.11	-80.30	0.98	-5.40
5350	1.00	-6.60	0.09	-80.30	0.09	-80.30	1.00	-6.60
5400	0.99	-7.40	0.08	-79.60	0.08	-79.60	0.99	-7.40
5450	0.98	-8.20	0.07	-79.00	0.07	-79.00	0.98	-8.20
5500	0.99	-8.80	0.06	-76.30	0.06	-76.30	0.99	-8.80
5550	1.00	-9.40	0.05	-73.60	0.05	-73.60	1.00	-9.40
5600	0.99	-10.20	0.04	-64.60	0.04	-64.60	0.99	-10.20
5650	0.99	-11.00	0.02	-55.70	0.02	-55.70	0.99	-11.00
5700	0.99	-11.60	0.02	-21.20	0.02	-21.20	0.99	-11.60
5750	0.98	-12.10	0.02	13.30	0.02	13.30	0.98	-12.10
5800	0.98	-12.50	0.02	33.70	0.02	33.70	0.98	-12.50
5850	0.98	-12.90	0.03	54.10	0.03	54.10	0.98	-12.90
5900	0.98	-13.00	0.04	59.50	0.04	59.50	0.98	-13.00
5950	0.98	-13.00	0.05	64.80	0.05	64.80	0.98	-13.00
6000	0.98	-14.40	0.07	66.00	0.07	66.00	0.98	-14.40
6050	0.98	-15.80	0.08	67.30	0.08	67.30	0.98	-15.80
6100	0.98	-15.80	0.09	68.10	0.09	68.10	0.98	-15.80
6150	0.98	-15.70	0.10	69.00	0.10	69.00	0.98	-15.70
6200	0.98	-15.80	0.11	69.00	0.11	69.00	0.98	-15.80
6250	0.98	-15.80	0.12	68.90	0.12	68.90	0.98	-15.80
6300	0.98	-16.00	0.13	68.80	0.13	68.80	0.98	-16.00
6350	0.98	-16.10	0.14	68.70	0.14	68.70	0.98	-16.10
6400	0.98	-16.00	0.15	68.40	0.15	68.40	0.98	-16.00
6450	0.97	-15.90	0.16	68.00	0.16	68.00	0.97	-15.90
6500	0.97	-16.10	0.17	67.60	0.17	67.60	0.97	-16.10
6550	0.97	-16.30	0.18	67.20	0.18	67.20	0.97	-16.30
6600	0.97	-16.30	0.19	66.70	0.19	66.70	0.97	-16.30
6650	0.96	-16.30	0.20	66.10	0.20	66.10	0.96	-16.30
6700	0.96	-16.20	0.21	65.80	0.21	65.80	0.96	-16.20
6750	0.96	-16.10	0.22	65.60	0.22	65.60	0.96	-16.10
6800	0.96	-16.20	0.23	65.20	0.23	65.20	0.96	-16.20
6850	0.96	-16.20	0.24	64.90	0.24	64.90	0.96	-16.20
6900	0.96	-16.70	0.25	64.20	0.25	64.20	0.96	-16.70
6950	0.95	-17.10	0.26	63.40	0.26	63.40	0.95	-17.10
7000	0.95	-17.10	0.27	63.00	0.27	63.00	0.95	-17.10
7050	0.94	-17.00	0.28	62.60	0.28	62.60	0.94	-17.00
7100	0.94	-17.40	0.29	62.10	0.29	62.10	0.94	-17.40
7150	0.93	-17.80	0.29	61.50	0.29	61.50	0.93	-17.80
7200	0.93	-17.80	0.30	61.30	0.30	61.30	0.93	-17.80
7250	0.92	-17.80	0.31	61.10	0.31	61.10	0.92	-17.80
7300	0.93	-18.40	0.32	60.60	0.32	60.60	0.93	-18.40
7350	0.94	-19.00	0.33	60.10	0.33	60.10	0.94	-19.00
7400	0.92	-19.60	0.34	59.50	0.34	59.50	0.92	-19.60
7450	0.91	-20.10	0.35	58.80	0.35	58.80	0.91	-20.10
7500	0.92	-20.90	0.36	58.50	0.36	58.50	0.92	-20.90
7550	0.92	-21.60	0.37	58.10	0.37	58.10	0.92	-21.60
7600	0.91	-22.60	0.38	57.30	0.38	57.30	0.91	-22.60
7650	0.90	-23.70	0.38	56.60	0.38	56.60	0.90	-23.70
7700	0.90	-24.50	0.39	56.20	0.39	56.20	0.90	-24.50
7750	0.89	-25.40	0.40	55.80	0.40	55.80	0.89	-25.40
7800	0.89	-26.20	0.41	55.40	0.41	55.40	0.89	-26.20
7850	0.88	-27.00	0.42	55.00	0.42	55.00	0.88	-27.00
7900	0.88	-28.50	0.43	54.30	0.43	54.30	0.88	-28.50
7950	0.88	-30.10	0.43	53.60	0.43	53.60	0.88	-30.10
8000	0.88	-31.30	0.44	52.90	0.44	52.90	0.88	-31.30
8050	0.87	-32.60	0.45	52.20	0.45	52.20	0.87	-32.60
8100	0.86	-33.50	0.46	52.00	0.46	52.00	0.86	-33.50
8150	0.85	-34.40	0.46	51.80	0.46	51.80	0.85	-34.40
8200	0.84	-35.60	0.47	51.10	0.47	51.10	0.84	-35.60
8250	0.84	-36.70	0.48	50.40	0.48	50.40	0.84	-36.70
8300	0.83	-37.60	0.49	50.10	0.49	50.10	0.83	-37.60
8350	0.83	-38.50	0.50	49.90	0.50	49.90	0.83	-38.50
8400	0.83	-39.60	0.50	49.00	0.50	49.00	0.83	-39.60
8450	0.82	-40.70	0.51	48.20	0.51	48.20	0.82	-40.70
8500	0.82	-41.50	0.52	47.80	0.52	47.80	0.82	-41.50
8550	0.81	-42.30	0.53	47.50	0.53	47.50	0.81	-42.30
8600	0.81	-43.10	0.54	46.60	0.54	46.60	0.81	-43.10
8650	0.80	-43.90	0.55	45.70	0.55	45.70	0.80	-43.90
8700	0.80	-44.60	0.55	45.10	0.55	45.10	0.80	-44.60
8750	0.80	-45.30	0.56	44.40	0.56	44.40	0.80	-45.30
8800	0.79	-45.80	0.56	44.00	0.56	44.00	0.79	-45.80
8850	0.78	-46.30	0.56	43.60	0.56	43.60	0.78	-46.30
8900	0.77	-46.50	0.57	43.10	0.57	43.10	0.77	-46.50
8950	0.77	-46.60	0.57	42.70	0.57	42.70	0.77	-46.60
9000	0.77	-47.10	0.58	42.30	0.58	42.30	0.77	-47.10
9050	0.77	-47.50	0.58	42.00	0.58	42.00	0.77	-47.50
9100	0.76	-48.10	0.59	41.70	0.59	41.70	0.76	-48.10
9150	0.76	-48.60	0.59	41.50	0.59	41.50	0.76	-48.60
9200	0.75	-49.40	0.60	41.50	0.60	41.50	0.75	-49.40
9250	0.74	-50.10	0.61	41.60	0.61	41.60	0.74	-50.10
9300	0.74	-50.30	0.62	41.00	0.62	41.00	0.74	-50.30
9350	0.74	-50.40	0.63	40.50	0.63	40.50	0.74	-50.40
9400	0.73	-51.00	0.63	40.40	0.63	40.40	0.73	-51.00
9450	0.73	-51.60	0.63	40.20	0.63	40.20	0.73	-51.60
9500	0.72	-51.80	0.64	39.60	0.64	39.60	0.72	-51.80
9550	0.71	-52.10	0.65	39.00	0.65	39.00	0.71	-52.10
9600	0.71	-52.50	0.66	38.50	0.66	38.50	0.71	-52.50
9650	0.71	-52.90	0.67	37.90	0.67	37.90	0.71	-52.90
9700	0.70	-53.40	0.67	37.60	0.67	37.60	0.70	-53.40
9750	0.70	-53.90	0.68	37.30	0.68	37.30	0.70	-53.90
9800	0.69	-54.00	0.69	36.60	0.69	36.60	0.69	-54.00
9850	0.69	-54.10	0.69	36.00	0.69	36.00	0.69	-54.10
9900	0.68	-54.30	0.69	35.70	0.69	35.70	0.68	-54.30
9950	0.67	-54.40	0.69	35.40	0.69	35.40	0.67	-54.40
10000	0.67	-54.90	0.70	35.00	0.70	35.00	0.67	-54.90
10050	0.66	-55.30	0.71	34.70	0.71	34.70	0.66	-55.30
10100	0.65	-55.40	0.72	34.20	0.72	34.20	0.65	-55.40
10150	0.65	-55.40	0.72	33.70	0.72	33.70	0.65	-55.40
10200	0.64	-55.70	0.73	33.40	0.73	33.40	0.64	-55.70
10250	0.63	-56.10	0.74	33.10	0.74	33.10	0.63	-56.10
10300	0.63	-56.50	0.74	32.80	0.74	32.80	0.63	-56.50
10350	0.63	-57.00	0.74	32.50	0.74	32.50	0.63	-57.00
10400	0.62	-58.00	0.75	31.80	0.75	31.80	0.62	-58.00
10450	0.60	-59.00	0.76	31.10	0.76	31.10	0.60	-59.00
10500	0.61	-59.10	0.76	30.90	0.76	30.90	0.61	-59.10
10550	0.61	-59.30	0.77	30.70	0.77	30.70	0.61	-59.30
10600	0.60	-60.60	0.77	29.90	0.77	29.90	0.60	-60.60
10650	0.58	-62.00	0.78	29.10	0.78	29.10	0.58	-62.00
10700	0.58	-62.00	0.78	28.90	0.78	28.90	0.58	-62.00
10750	0.58	-62.00	0.79	28.70	0.79	28.70	0.58	-62.00
10800	0.57	-63.00	0.79	28.30	0.79	28.30	0.57	-63.00
10850	0.57	-63.90	0.79	28.00	0.79	28.00	0.57	-63.90
10900	0.56	-65.20	0.80	27.20	0.80	27.20	0.56	-65.20
10950	0.56	-66.40	0.80	26.40	0.80	26.40	0.56	-66.40
11000	0.55	-66.70	0.80	26.20	0.80	26.20	0.55	-66.70
11050	0.54	-67.00	0.80	26.00	0.80	26.00	0.54	-67.00
11100	0.54	-67.90	0.80	25.50	0.80	25.50	0.54	-67.90
11150	0.55	-68.90	0.81	25.10	0.81	25.10	0.55	-68.90
11200	0.54	-68.80	0.81	24.70	0.81	24.70	0.54	-68.80
11250	0.54	-68.70	0.81	24.30	0.81	24.30	0.54	-68.70
11300	0.53	-69.60	0.81	23.80	0.81	23.80	0.53	-69.60
11350	0.53	-70.50	0.81	23.20	0.81	23.20	0.53	-70.50
11400	0.53	-69.80	0.82	23.30	0.82	23.30	0.53	-69.80
11450	0.52	-69.10	0.82	23.40	0.82	23.40	0.52	-69.10
11500	0.52	-70.20	0.82	22.70	0.82	22.70	0.52	-70.20
11550	0.51	-71.20	0.82	22.00	0.82	22.00	0.51	-71.20
11600	0.51	-71.00	0.83	21.80	0.83	21.80	0.51	-71.00
11650	0.51	-70.80	0.83	21.60	0.83	21.60	0.51	-70.80
11700	0.50	-71.20	0.83	21.20	0.83	21.20	0.50	-71.20
11750	0.50	-71.50	0.84	20.70	0.84	20.70	0.50	-71.50
11800	0.49	-71.80	0.84	20.40	0.84	20.40	0.49	-71.80
11850	0.49	-72.10	0.84	20.00	0.84	20.00	0.49	-72.10
11900	0.48	-72.50	0.84	19.80	0.84	19.80	0.48	-72.50
11950	0.47	-72.90	0.84	19.60	0.84	19.60	0.47	-72.90
12000	0.47	-74.10	0.85	18.80	0.85	18.80	0.47	-74.10
12050	0.47	-75.20	0.85	17.90	0.85	17.90	0.47	-75.20
12100	0.46	-75.80	0.85	17.70	0.85	17.70	0.46	-75.80
12150	0.46	-76.40	0.85	17.50	0.85	17.50	0.46	-76.40
12200	0.46	-76.90	0.85	17.10	0.85	17.10	0.46	-76.90
12250	0.45	-77.40	0.85	16.70	0.85	16.70	0.45	-77.40
12300	0.45	-77.20	0.85	16.30	0.85	16.30	0.45	-77.20
12350	0.45	-77.10	0.85	16.00	0.85	16.00	0.45	-77.10
12400	0.45	-77.60	0.85	15.80	0.85	15.80	0.45	-77.60
12450	0.45	-78.10	0.85	15.60	0.85	15.60	0.45	-78.10
12500	0.45	-77.50	0.85	15.40	0.85	15.40	0.45	-77.50
12550	0.45	-76.80	0.86	15.10	0.86	15.10	0.45	-76.80
12600	0.45	-76.70	0.85	15.00	0.85	15.00	0.45	-76.70
12650	0.45	-76.50	0.85	14.90	0.85	14.90	0.45	-76.50
12700	0.45	-75.60	0.85	14.60	0.85	14.60	0.45	-75.60
12750	0.45	-74.80	0.86	14.30	0.86	14.30	0.45	-74.80
12800	0.45	-74.20	0.86	14.30	0.86	14.30	0.45	-74.20
12850	0.45	-73.60	0.86	14.20	0.86	14.20	0.45	-73.60
12900	0.45	-73.00	0.86	13.90	0.86	13.90	0.45	-73.00
12950	0.44	-72.40	0.86	13.50	0.86	13.50	0.44	-72.40
13000	0.45	-72.00	0.87	13.50	0.87	13.50	0.45	-72.00
13050	0.45	-71.60	0.87	13.50	0.87	13.50	0.45	-71.60
13100	0.44	-71.10	0.87	13.10	0.87	13.10	0.44	-71.10
13150	0.43	-70.70	0.87	12.70	0.87	12.70	0.43	-70.70
13200	0.43	-70.80	0.88	12.70	0.88	12.70	0.43	-70.80
13250	0.42	-70.90	0.88	12.60	0.88	12.60	0.42	-70.90
13300	0.41	-69.10	0.88	12.10	0.88	12.10	0.41	-69.10
13350	0.40	-67.40	0.88	11.70	0.88	11.70	0.40	-67.40
13400	0.40	-69.20	0.88	11.20	0.88	11.20	0.40	-69.20
13450	0.40	-71.00	0.88	10.80	0.88	10.80	0.40	-71.00
13500	0.39	-71.20	0.88	10.60	0.88	10.60	0.39	-71.20
13550	0.39	-71.40	0.88	10.30	0.88	10.30	0.39	-71.40
13600	0.38	-72.10	0.88	10.00	0.88	10.00	0.38	-72.10
13650	0.38	-72.80	0.88	9.70	0.88	9.70	0.38	-72.80
13700	0.38	-73.10	0.88	9.40	0.88	9.40	0.38	-73.10
13750	0.38	-73.50	0.89	9.10	0.89	9.10	0.38	-73.50
13800	0.38	-73.90	0.88	8.90	0.88	8.90	0.38	-73.90
13850	0.37	-74.40	0.88	8.60	0.88	8.60	0.37	-74.40
13900	0.37	-74.70	0.89	8.40	0.89	8.40	0.37	-74.70
13950	0.37	-74.90	0.89	8.10	0.89	8.10	0.37	-74.90
14000	0.37	-74.80	0.89	7.80	0.89	7.80	0.37	-74.80
14050	0.37	-74.60	0.89	7.50	0.89	7.50	0.37	-74.60
14100	0.37	-75.10	0.89	7.20	0.89	7.20	0.37	-75.10
14150	0.37	-75.60	0.89	6.80	0.89	6.80	0.37	-75.60
14200	0.36	-75.20	0.89	6.50	0.89	6.50	0.36	-75.20
14250	0.36	-74.80	0.89	6.10	0.89	6.10	0.36	-74.80
14300	0.35	-75.00	0.90	5.90	0.90	5.90	0.35	-75.00
14350	0.35	-75.20	0.90	5.70	0.90	5.70	0.35	-75.20
14400	0.35	-74.80	0.90	5.20	0.90	5.20	0.35	-74.80
14450	0.34	-74.50	0.90	4.80	0.90	4.80	0.34	-74.50
14500	0.34	-73.50	0.90	4.80	0.90	4.80	0.34	-73.50
14550	0.33	-72.60	0.90	4.80	0.90	4.80	0.33	-72.60
14600	0.32	-71.90	0.91	4.50	0.91	4.50	0.32	-71.90
14650	0.32	-71.10	0.91	4.10	0.91	4.10	0.32	-71.10
14700	0.31	-71.40	0.91	3.70	0.91	3.70	0.31	-71.40
14750	0.31	-71.70	0.92	3.40	0.92	3.40	0.31	-71.70
14800	0.30	-71.20	0.92	3.00	0.92	3.00	0.30	-71.20
14850	0.30	-70.60	0.92	2.60	0.92	2.60	0.30	-70.60
14900	0.29	-70.80	0.92	2.20	0.92	2.20	0.29	-70.80
14950	0.29	-70.90	0.93	1.90	0.93	1.90	0.29	-70.90
15000	0.28	-71.10	0.93	1.50	0.93	1.50	0.28	-71.10
15050	0.28	-71.30	0.93	1.10	0.93	1.10	0.28	-71.30
15100	0.27	-70.50	0.93	0.90	0.93	0.90	0.27	-70.50
15150	0.27	-69.80	0.94	0.70	0.94	0.70	0.27	-69.80
15200	0.27	-69.90	0.94	0.50	0.94	0.50	0.27	-69.90
15250	0.26	-69.90	0.94	0.30	0.94	0.30	0.26	-69.90
15300	0.26	-69.20	0.94	-0.30	0.94	-0.30	0.26	-69.20
15350	0.26	-68.60	0.94	-0.80	0.94	-0.80	0.26	-68.60
15400	0.25	-67.40	0.94	-1.00	0.94	-1.00	0.25	-67.40
15450	0.25	-66.30	0.94	-1.10	0.94	-1.10	0.25	-66.30
15500	0.25	-64.60	0.94	-1.60	0.94	-1.60	0.25	-64.60
15550	0.25	-63.00	0.94	-2.00	0.94	-2.00	0.25	-63.00
15600	0.24	-61.40	0.94	-2.30	0.94	-2.30	0.24	-61.40
15650	0.24	-59.80	0.95	-2.50	0.95	-2.50	0.24	-59.80
15700	0.24	-57.70	0.94	-2.90	0.94	-2.90	0.24	-57.70
15750	0.23	-55.50	0.94	-3.30	0.94	-3.30	0.23	-55.50
15800	0.23	-53.50	0.94	-3.50	0.94	-3.50	0.23	-53.50
15850	0.22	-51.40	0.94	-3.60	0.94	-3.60	0.22	-51.40
15900	0.22	-49.40	0.94	-4.00	0.94	-4.00	0.22	-49.40
15950	0.22	-47.40	0.94	-4.30	0.94	-4.30	0.22	-47.40
16000	0.21	-43.80	0.95	-4.50	0.95	-4.50	0.21	-43.80
16050	0.20	-40.20	0.95	-4.70	0.95	-4.70	0.20	-40.20
16100	0.19	-38.70	0.94	-5.20	0.94	-5.20	0.19	-38.70
16150	0.18	-37.10	0.94	-5.70	0.94	-5.70	0.18	-37.10
16200	0.18	-34.40	0.94	-5.90	0.94	-5.90	0.18	-34.40
16250	0.17	-31.60	0.94	-6.10	0.94	-6.10	0.17	-31.60
16300	0.17	-31.20	0.94	-6.40	0.94	-6.40	0.17	-31.20
16350	0.16	-30.80	0.94	-6.70	0.94	-6.70	0.16	-30.80
16400	0.15	-29.60	0.94	-6.90	0.94	-6.90	0.15	-29.60
16450	0.15	-28.50	0.94	-7.00	0.94	-7.00	0.15	-28.50
16500	0.14	-31.70	0.94	-6.90	0.94	-6.90	0.14	-31.70
16550	0.14	-35.00	0.93	-6.90	0.93	-6.90	0.14	-35.00
16600	0.13	-34.50	0.94	-7.10	0.94	-7.10	0.13	-34.50
16650	0.13	-34.00	0.94	-7.30	0.94	-7.30	0.13	-34.00
16700	0.13	-37.30	0.95	-7.40	0.95	-7.40	0.13	-37.30
16750	0.12	-40.60	0.95	-7.50	0.95	-7.50	0.12	-40.60
16800	0.12	-41.10	0.95	-7.60	0.95	-7.60	0.12	-41.10
16850	0.12	-41.60	0.95	-7.70	0.95	-7.70	0.12	-41.60
16900	0.12	-41.10	0.95	-7.90	0.95	-7.90	0.12	-41.10
16950	0.11	-40.60	0.96	-8.10	0.96	-8.10	0.11	-40.60
17000	0.11	-40.80	0.96	-8.40	0.96	-8.40	0.11	-40.80
17050	0.10	-41.00	0.96	-8.70	0.96	-8.70	0.10	-41.00
17100	0.10	-37.70	0.96	-9.10	0.96	-9.10	0.10	-37.70
17150	0.10	-34.40	0.96	-9.40	0.96	-9.40	0.10	-34.40
17200	0.10	-30.60	0.96	-9.60	0.96	-9.60	0.10	-30.60
17250	0.09	-26.70	0.96	-9.70	0.96	-9.70	0.09	-26.70
17300	0.09	-22.50	0.96	-10.00	0.96	-10.00	0.09	-22.50
17350	0.09	-18.30	0.97	-10.30	0.97	-10.30	0.09	-18.30
17400	0.08	-14.50	0.97	-10.60	0.97	-10.60	0.08	-14.50
17450	0.07	-10.60	0.96	-10.90	0.96	-10.90	0.07	-10.60
17500	0.07	-5.00	0.96	-11.20	0.96	-11.20	0.07	-5.00
17550	0.08	0.60	0.96	-11.60	0.96	-11.60	0.08	0.60
17600	0.07	9.30	0.96	-12.00	0.96	-12.00	0.07	9.30
17650	0.07	18.00	0.96	-12.40	0.96	-12.40	0.07	18.00
17700	0.06	24.90	0.96	-12.60	0.96	-12.60	0.06	24.90
17750	0.06	31.80	0.96	-12.90	0.96	-12.90	0.06	31.80
17800	0.06	36.30	0.96	-13.30	0.96	-13.30	0.06	36.30
17850	0.06	40.80	0.97	-13.70	0.97	-13.70	0.06	40.80
17900	0.05	48.00	0.96	-14.00	0.96	-14.00	0.05	48.00
17950	0.05	55.20	0.96	-14.30	0.96	-14.30	0.05	55.20
18000	0.05	58.30	0.96	-14.80	0.96	-14.80	0.05	58.30
18050	0.05	61.50	0.96	-15.30	0.96	-15.30	0.05	61.50
18100	0.05	61.70	0.96	-15.60	0.96	-15.60	0.05	61.70
18150	0.04	61.90	0.96	-15.80	0.96	-15.80	0.04	61.90
18200	0.04	59.90	0.96	-16.30	0.96	-16.30	0.04	59.90
18250	0.04	57.90	0.96	-16.80	0.96	-16.80	0.04	57.90
18300	0.04	50.00	0.96	-17.10	0.96	-17.10	0.04	50.00
18350	0.04	42.20	0.96	-17.30	0.96	-17.30	0.04	42.20
18400	0.04	37.10	0.96	-17.70	0.96	-17.70	0.04	37.10
18450	0.05	31.90	0.96	-18.00	0.96	-18.00	0.05	31.90
18500	0.05	30.00	0.96	-18.20	0.96	-18.20	0.05	30.00
18550	0.06	28.00	0.96	-18.40	0.96	-18.40	0.06	28.00
18600	0.07	31.60	0.96	-18.70	0.96	-18.70	0.07	31.60
18650	0.08	35.30	0.96	-18.90	0.96	-18.90	0.08	35.30
18700	0.07	33.60	0.96	-19.40	0.96	-19.40	0.07	33.60
18750	0.07	31.90	0.96	-19.90	0.96	-19.90	0.07	31.90
18800	0.08	33.60	0.96	-20.10	0.96	-20.10	0.08	33.60
18850	0.08	35.30	0.96	-20.20	0.96	-20.20	0.08	35.30
18900	0.08	38.60	0.95	-20.70	0.95	-20.70	0.08	38.60
18950	0.09	41.90	0.95	-21.20	0.95	-21.20	0.09	41.90
19000	0.08	46.70	0.95	-21.20	0.95	-21.20	0.08	46.70
19050	0.08	51.50	0.94	-21.30	0.94	-21.30	0.08	51.50
19100	0.08	48.00	0.94	-21.40	0.94	-21.40	0.08	48.00
19150	0.09	44.50	0.94	-21.50	0.94	-21.50	0.09	44.50
19200	0.09	39.30	0.94	-21.70	0.94	-21.70	0.09	39.30
19250	0.08	34.20	0.94	-21.80	0.94	-21.80	0.08	34.20
19300	0.09	28.20	0.94	-22.10	0.94	-22.10	0.09	28.20
19350	0.10	22.30	0.95	-22.50	0.95	-22.50	0.10	22.30
19400	0.10	18.30	0.95	-23.10	0.95	-23.10	0.10	18.30
19450	0.10	14.40	0.95	-23.70	0.95	-23.70	0.10	14.40
19500	0.10	8.30	0.95	-23.90	0.95	-23.90	0.10	8.30
