#	mhz	s	ma	r	50			
50	0.02	56.30	0.99	0.30	0.99	0.30	0.02	56.30
100	0.04	66.10	0.99	-0.60	0.99	-0.60	0.04	66.10
150	0.05	75.90	0.99	-1.50	0.99	-1.50	0.05	75.90
200	0.07	76.70	0.99	-2.50	0.99	-2.50	0.07	76.70
250	0.09	77.50	0.99	-3.60	0.99	-3.60	0.09	77.50
300	0.10	77.00	0.98	-4.70	0.98	-4.70	0.10	77.00
350	0.12	76.60	0.98	-5.80	0.98	-5.80	0.12	76.60
400	0.13	75.70	0.98	-6.70	0.98	-6.70	0.13	75.70
450	0.15	74.80	0.98	-7.60	0.98	-7.60	0.15	74.80
500	0.18	77.20	0.97	-9.30	0.97	-9.30	0.18	77.20
550	0.20	79.70	0.97	-10.90	0.97	-10.90	0.20	79.70
600	0.22	78.90	0.96	-11.90	0.96	-11.90	0.22	78.90
650	0.23	78.00	0.96	-13.00	0.96	-13.00	0.23	78.00
700	0.25	77.70	0.96	-14.00	0.96	-14.00	0.25	77.70
750	0.27	77.40	0.95	-15.10	0.95	-15.10	0.27	77.40
800	0.28	76.00	0.95	-16.10	0.95	-16.10	0.28	76.00
850	0.29	74.60	0.94	-17.10	0.94	-17.10	0.29	74.60
900	0.31	73.70	0.93	-18.20	0.93	-18.20	0.31	73.70
950	0.33	72.70	0.93	-19.20	0.93	-19.20	0.33	72.70
1000	0.35	71.60	0.92	-20.30	0.92	-20.30	0.35	71.60
1050	0.36	70.50	0.92	-21.40	0.92	-21.40	0.36	70.50
1100	0.38	69.70	0.91	-22.50	0.91	-22.50	0.38	69.70
1150	0.40	68.80	0.90	-23.60	0.90	-23.60	0.40	68.80
1200	0.41	67.80	0.89	-24.50	0.89	-24.50	0.41	67.80
1250	0.43	66.80	0.89	-25.40	0.89	-25.40	0.43	66.80
1300	0.44	65.60	0.88	-26.50	0.88	-26.50	0.44	65.60
1350	0.46	64.40	0.88	-27.60	0.88	-27.60	0.46	64.40
1400	0.47	63.40	0.87	-28.60	0.87	-28.60	0.47	63.40
1450	0.49	62.30	0.86	-29.50	0.86	-29.50	0.49	62.30
1500	0.50	61.00	0.85	-30.60	0.85	-30.60	0.50	61.00
1550	0.51	59.70	0.84	-31.80	0.84	-31.80	0.51	59.70
1600	0.53	58.40	0.83	-32.80	0.83	-32.80	0.53	58.40
1650	0.54	57.10	0.82	-33.80	0.82	-33.80	0.54	57.10
1700	0.56	56.00	0.81	-34.80	0.81	-34.80	0.56	56.00
1750	0.57	54.90	0.80	-35.90	0.80	-35.90	0.57	54.90
1800	0.58	53.70	0.80	-36.80	0.80	-36.80	0.58	53.70
1850	0.60	52.40	0.79	-37.70	0.79	-37.70	0.60	52.40
1900	0.61	51.10	0.78	-38.70	0.78	-38.70	0.61	51.10
1950	0.62	49.70	0.76	-39.60	0.76	-39.60	0.62	49.70
2000	0.63	48.50	0.75	-40.70	0.75	-40.70	0.63	48.50
2050	0.64	47.20	0.74	-41.70	0.74	-41.70	0.64	47.20
2100	0.65	46.20	0.73	-42.60	0.73	-42.60	0.65	46.20
2150	0.67	45.20	0.72	-43.40	0.72	-43.40	0.67	45.20
2200	0.68	43.70	0.71	-44.50	0.71	-44.50	0.68	43.70
2250	0.69	42.30	0.70	-45.70	0.70	-45.70	0.69	42.30
2300	0.70	41.30	0.69	-46.40	0.69	-46.40	0.70	41.30
2350	0.71	40.40	0.67	-47.10	0.67	-47.10	0.71	40.40
2400	0.72	39.00	0.66	-48.20	0.66	-48.20	0.72	39.00
2450	0.73	37.70	0.65	-49.30	0.65	-49.30	0.73	37.70
2500	0.75	36.50	0.64	-50.40	0.64	-50.40	0.75	36.50
2550	0.76	35.30	0.62	-51.50	0.62	-51.50	0.76	35.30
2600	0.77	34.30	0.61	-52.30	0.61	-52.30	0.77	34.30
2650	0.78	33.40	0.60	-53.10	0.60	-53.10	0.78	33.40
2700	0.79	32.20	0.58	-54.10	0.58	-54.10	0.79	32.20
2750	0.80	31.10	0.57	-55.20	0.57	-55.20	0.80	31.10
2800	0.81	29.90	0.56	-56.00	0.56	-56.00	0.81	29.90
2850	0.82	28.80	0.55	-56.90	0.55	-56.90	0.82	28.80
2900	0.83	27.60	0.53	-58.10	0.53	-58.10	0.83	27.60
2950	0.84	26.50	0.51	-59.40	0.51	-59.40	0.84	26.50
3000	0.85	25.50	0.50	-60.30	0.50	-60.30	0.85	25.50
3050	0.86	24.50	0.49	-61.20	0.49	-61.20	0.86	24.50
3100	0.86	23.10	0.47	-62.30	0.47	-62.30	0.86	23.10
3150	0.87	21.60	0.45	-63.30	0.45	-63.30	0.87	21.60
3200	0.88	21.00	0.44	-63.90	0.44	-63.90	0.88	21.00
3250	0.89	20.50	0.42	-64.60	0.42	-64.60	0.89	20.50
3300	0.90	19.40	0.41	-65.70	0.41	-65.70	0.90	19.40
3350	0.91	18.30	0.39	-66.90	0.39	-66.90	0.91	18.30
3400	0.91	17.20	0.38	-67.50	0.38	-67.50	0.91	17.20
3450	0.92	16.10	0.36	-68.20	0.36	-68.20	0.92	16.10
3500	0.92	15.30	0.34	-69.00	0.34	-69.00	0.92	15.30
3550	0.93	14.40	0.33	-69.80	0.33	-69.80	0.93	14.40
3600	0.93	13.30	0.31	-70.70	0.31	-70.70	0.93	13.30
3650	0.93	12.30	0.30	-71.70	0.30	-71.70	0.93	12.30
3700	0.94	11.10	0.28	-72.40	0.28	-72.40	0.94	11.10
3750	0.95	10.00	0.27	-73.20	0.27	-73.20	0.95	10.00
3800	0.95	8.90	0.25	-73.90	0.25	-73.90	0.95	8.90
3850	0.95	7.90	0.23	-74.60	0.23	-74.60	0.95	7.90
3900	0.96	6.60	0.22	-75.60	0.22	-75.60	0.96	6.60
3950	0.96	5.40	0.20	-76.50	0.20	-76.50	0.96	5.40
4000	0.96	4.20	0.19	-77.00	0.19	-77.00	0.96	4.20
4050	0.97	3.10	0.17	-77.40	0.17	-77.40	0.97	3.10
4100	0.97	1.90	0.15	-77.90	0.15	-77.90	0.97	1.90
4150	0.97	0.80	0.14	-78.30	0.14	-78.30	0.97	0.80
4200	0.98	-0.40	0.12	-78.10	0.12	-78.10	0.98	-0.40
4250	0.98	-1.60	0.11	-77.80	0.11	-77.80	0.98	-1.60
4300	0.98	-2.80	0.09	-76.90	0.09	-76.90	0.98	-2.80
4350	0.98	-4.00	0.08	-76.00	0.08	-76.00	0.98	-4.00
4400	0.98	-5.20	0.06	-72.70	0.06	-72.70	0.98	-5.20
4450	0.98	-6.40	0.05	-69.50	0.05	-69.50	0.98	-6.40
4500	0.98	-7.20	0.03	-55.10	0.03	-55.10	0.98	-7.20
4550	0.98	-8.10	0.02	-40.70	0.02	-40.70	0.98	-8.10
4600	0.99	-9.40	0.02	-0.80	0.02	-0.80	0.99	-9.40
4650	1.00	-10.60	0.02	39.10	0.02	39.10	1.00	-10.60
4700	0.99	-11.70	0.04	51.10	0.04	51.10	0.99	-11.70
4750	0.98	-12.80	0.05	63.00	0.05	63.00	0.98	-12.80
4800	0.98	-14.10	0.06	65.80	0.06	65.80	0.98	-14.10
4850	0.98	-15.30	0.07	68.60	0.07	68.60	0.98	-15.30
4900	0.98	-16.00	0.09	69.80	0.09	69.80	0.98	-16.00
4950	0.99	-16.60	0.10	71.00	0.10	71.00	0.99	-16.60
5000	0.98	-18.20	0.12	70.70	0.12	70.70	0.98	-18.20
5050	0.98	-19.80	0.13	70.40	0.13	70.40	0.98	-19.80
5100	0.97	-20.60	0.14	70.20	0.14	70.20	0.97	-20.60
5150	0.96	-21.50	0.15	70.00	0.15	70.00	0.96	-21.50
5200	0.96	-21.60	0.16	70.20	0.16	70.20	0.96	-21.60
5250	0.95	-21.80	0.18	70.30	0.18	70.30	0.95	-21.80
5300	0.97	-23.20	0.19	69.40	0.19	69.40	0.97	-23.20
5350	0.98	-24.60	0.20	68.60	0.20	68.60	0.98	-24.60
5400	0.97	-25.20	0.22	67.90	0.22	67.90	0.97	-25.20
5450	0.95	-25.90	0.22	67.20	0.22	67.20	0.95	-25.90
5500	0.96	-26.50	0.24	66.60	0.24	66.60	0.96	-26.50
5550	0.96	-27.20	0.25	66.00	0.25	66.00	0.96	-27.20
5600	0.95	-27.90	0.26	65.30	0.26	65.30	0.95	-27.90
5650	0.94	-28.50	0.27	64.60	0.27	64.60	0.94	-28.50
5700	0.94	-29.00	0.28	64.00	0.28	64.00	0.94	-29.00
5750	0.94	-29.40	0.29	63.40	0.29	63.40	0.94	-29.40
5800	0.93	-29.80	0.30	62.80	0.30	62.80	0.93	-29.80
5850	0.93	-30.10	0.31	62.20	0.31	62.20	0.93	-30.10
5900	0.92	-30.10	0.32	61.90	0.32	61.90	0.92	-30.10
5950	0.92	-30.10	0.33	61.50	0.33	61.50	0.92	-30.10
6000	0.92	-31.60	0.34	60.30	0.34	60.30	0.92	-31.60
6050	0.91	-33.10	0.36	59.10	0.36	59.10	0.91	-33.10
6100	0.91	-33.00	0.37	58.80	0.37	58.80	0.91	-33.00
6150	0.90	-32.90	0.38	58.60	0.38	58.60	0.90	-32.90
6200	0.90	-32.90	0.39	57.80	0.39	57.80	0.90	-32.90
6250	0.90	-32.90	0.40	57.00	0.40	57.00	0.90	-32.90
6300	0.90	-33.00	0.41	56.50	0.41	56.50	0.90	-33.00
6350	0.89	-33.10	0.41	56.00	0.41	56.00	0.89	-33.10
6400	0.89	-32.90	0.42	55.30	0.42	55.30	0.89	-32.90
6450	0.88	-32.80	0.43	54.70	0.43	54.70	0.88	-32.80
6500	0.88	-32.80	0.44	54.10	0.44	54.10	0.88	-32.80
6550	0.88	-32.90	0.44	53.50	0.44	53.50	0.88	-32.90
6600	0.87	-32.80	0.45	52.80	0.45	52.80	0.87	-32.80
6650	0.87	-32.70	0.46	52.20	0.46	52.20	0.87	-32.70
6700	0.86	-32.50	0.47	51.90	0.47	51.90	0.86	-32.50
6750	0.86	-32.20	0.47	51.50	0.47	51.50	0.86	-32.20
6800	0.86	-32.30	0.48	51.10	0.48	51.10	0.86	-32.30
6850	0.86	-32.30	0.49	50.60	0.49	50.60	0.86	-32.30
6900	0.85	-32.50	0.50	50.00	0.50	50.00	0.85	-32.50
6950	0.84	-32.80	0.50	49.30	0.50	49.30	0.84	-32.80
7000	0.84	-32.60	0.51	48.90	0.51	48.90	0.84	-32.60
7050	0.83	-32.40	0.52	48.50	0.52	48.50	0.83	-32.40
7100	0.82	-32.70	0.52	48.00	0.52	48.00	0.82	-32.70
7150	0.82	-33.00	0.53	47.50	0.53	47.50	0.82	-33.00
7200	0.81	-32.90	0.54	47.30	0.54	47.30	0.81	-32.90
7250	0.81	-32.70	0.54	47.00	0.54	47.00	0.81	-32.70
7300	0.81	-33.40	0.55	46.50	0.55	46.50	0.81	-33.40
7350	0.81	-34.00	0.56	46.00	0.56	46.00	0.81	-34.00
7400	0.80	-34.40	0.56	45.40	0.56	45.40	0.80	-34.40
7450	0.79	-34.80	0.57	44.90	0.57	44.90	0.79	-34.80
7500	0.79	-35.50	0.58	44.50	0.58	44.50	0.79	-35.50
7550	0.80	-36.30	0.59	44.10	0.59	44.10	0.80	-36.30
7600	0.79	-37.20	0.59	43.40	0.59	43.40	0.79	-37.20
7650	0.78	-38.10	0.60	42.70	0.60	42.70	0.78	-38.10
7700	0.77	-38.70	0.60	42.40	0.60	42.40	0.77	-38.70
7750	0.76	-39.40	0.61	42.10	0.61	42.10	0.76	-39.40
7800	0.76	-40.30	0.61	41.60	0.61	41.60	0.76	-40.30
7850	0.75	-41.20	0.62	41.20	0.62	41.20	0.75	-41.20
7900	0.75	-42.50	0.63	40.60	0.63	40.60	0.75	-42.50
7950	0.75	-43.80	0.63	39.90	0.63	39.90	0.75	-43.80
8000	0.74	-45.00	0.64	39.30	0.64	39.30	0.74	-45.00
8050	0.73	-46.30	0.64	38.70	0.64	38.70	0.73	-46.30
8100	0.72	-47.00	0.65	38.60	0.65	38.60	0.72	-47.00
8150	0.71	-47.70	0.65	38.50	0.65	38.50	0.71	-47.70
8200	0.71	-48.80	0.66	37.80	0.66	37.80	0.71	-48.80
8250	0.70	-50.00	0.67	37.10	0.67	37.10	0.70	-50.00
8300	0.69	-50.80	0.67	36.90	0.67	36.90	0.69	-50.80
8350	0.69	-51.60	0.68	36.70	0.68	36.70	0.69	-51.60
8400	0.68	-52.50	0.69	36.00	0.69	36.00	0.68	-52.50
8450	0.68	-53.40	0.69	35.30	0.69	35.30	0.68	-53.40
8500	0.67	-54.10	0.70	34.90	0.70	34.90	0.67	-54.10
8550	0.67	-54.90	0.71	34.60	0.71	34.60	0.67	-54.90
8600	0.66	-55.50	0.71	33.90	0.71	33.90	0.66	-55.50
8650	0.66	-56.20	0.72	33.20	0.72	33.20	0.66	-56.20
8700	0.65	-56.80	0.72	32.60	0.72	32.60	0.65	-56.80
8750	0.65	-57.40	0.73	32.10	0.73	32.10	0.65	-57.40
8800	0.64	-57.70	0.73	31.90	0.73	31.90	0.64	-57.70
8850	0.63	-58.10	0.73	31.70	0.73	31.70	0.63	-58.10
8900	0.63	-58.30	0.74	31.20	0.74	31.20	0.63	-58.30
8950	0.62	-58.50	0.74	30.70	0.74	30.70	0.62	-58.50
9000	0.62	-58.80	0.74	30.30	0.74	30.30	0.62	-58.80
9050	0.61	-59.20	0.75	30.00	0.75	30.00	0.61	-59.20
9100	0.61	-59.70	0.75	29.60	0.75	29.60	0.61	-59.70
9150	0.60	-60.20	0.75	29.30	0.75	29.30	0.60	-60.20
9200	0.59	-61.10	0.76	29.20	0.76	29.20	0.59	-61.10
9250	0.59	-61.90	0.77	29.10	0.77	29.10	0.59	-61.90
9300	0.58	-61.90	0.77	28.60	0.77	28.60	0.58	-61.90
9350	0.57	-61.90	0.78	28.00	0.78	28.00	0.57	-61.90
9400	0.57	-62.50	0.78	27.90	0.78	27.90	0.57	-62.50
9450	0.57	-63.10	0.78	27.70	0.78	27.70	0.57	-63.10
9500	0.56	-63.20	0.79	27.10	0.79	27.10	0.56	-63.20
9550	0.55	-63.40	0.80	26.50	0.80	26.50	0.55	-63.40
9600	0.55	-63.70	0.80	26.00	0.80	26.00	0.55	-63.70
9650	0.54	-63.90	0.81	25.50	0.81	25.50	0.54	-63.90
9700	0.53	-64.50	0.81	25.10	0.81	25.10	0.53	-64.50
9750	0.53	-65.00	0.82	24.80	0.82	24.80	0.53	-65.00
9800	0.52	-64.80	0.82	24.20	0.82	24.20	0.52	-64.80
9850	0.52	-64.60	0.83	23.70	0.83	23.70	0.52	-64.60
9900	0.51	-64.80	0.83	23.40	0.83	23.40	0.51	-64.80
9950	0.50	-65.00	0.82	23.10	0.82	23.10	0.50	-65.00
10000	0.50	-65.30	0.83	22.80	0.83	22.80	0.50	-65.30
10050	0.49	-65.60	0.84	22.40	0.84	22.40	0.49	-65.60
10100	0.48	-65.50	0.84	22.00	0.84	22.00	0.48	-65.50
10150	0.48	-65.50	0.84	21.60	0.84	21.60	0.48	-65.50
10200	0.47	-65.70	0.85	21.20	0.85	21.20	0.47	-65.70
10250	0.46	-66.00	0.85	20.90	0.85	20.90	0.46	-66.00
10300	0.46	-66.40	0.85	20.60	0.85	20.60	0.46	-66.40
10350	0.45	-66.80	0.85	20.30	0.85	20.30	0.45	-66.80
10400	0.44	-67.90	0.86	19.70	0.86	19.70	0.44	-67.90
10450	0.43	-69.00	0.87	19.00	0.87	19.00	0.43	-69.00
10500	0.43	-68.90	0.87	18.80	0.87	18.80	0.43	-68.90
10550	0.43	-68.70	0.87	18.50	0.87	18.50	0.43	-68.70
10600	0.42	-70.10	0.88	17.80	0.88	17.80	0.42	-70.10
10650	0.41	-71.50	0.88	17.10	0.88	17.10	0.41	-71.50
10700	0.40	-71.30	0.88	16.80	0.88	16.80	0.40	-71.30
10750	0.40	-71.10	0.89	16.50	0.89	16.50	0.40	-71.10
10800	0.40	-72.00	0.89	16.10	0.89	16.10	0.40	-72.00
10850	0.39	-73.00	0.89	15.80	0.89	15.80	0.39	-73.00
10900	0.38	-73.90	0.89	14.90	0.89	14.90	0.38	-73.90
10950	0.37	-74.90	0.89	14.10	0.89	14.10	0.37	-74.90
11000	0.36	-75.00	0.89	13.70	0.89	13.70	0.36	-75.00
11050	0.36	-75.00	0.88	13.30	0.88	13.30	0.36	-75.00
11100	0.36	-75.50	0.89	12.60	0.89	12.60	0.36	-75.50
11150	0.36	-75.90	0.89	11.90	0.89	11.90	0.36	-75.90
11200	0.35	-74.20	0.88	11.20	0.88	11.20	0.35	-74.20
11250	0.35	-72.60	0.87	10.40	0.87	10.40	0.35	-72.60
11300	0.35	-71.20	0.86	9.60	0.86	9.60	0.35	-71.20
11350	0.35	-69.80	0.84	8.90	0.84	8.90	0.35	-69.80
11400	0.37	-67.50	0.82	9.80	0.82	9.80	0.37	-67.50
11450	0.39	-65.30	0.80	10.80	0.80	10.80	0.39	-65.30
11500	0.40	-68.10	0.80	12.10	0.80	12.10	0.40	-68.10
11550	0.41	-70.90	0.81	13.40	0.81	13.40	0.41	-70.90
11600	0.41	-72.60	0.82	13.90	0.82	13.90	0.41	-72.60
11650	0.42	-74.40	0.84	14.40	0.84	14.40	0.42	-74.40
11700	0.41	-75.80	0.86	14.10	0.86	14.10	0.41	-75.80
11750	0.40	-77.20	0.87	13.70	0.87	13.70	0.40	-77.20
11800	0.39	-78.10	0.87	13.30	0.87	13.30	0.39	-78.10
11850	0.38	-79.00	0.88	12.90	0.88	12.90	0.38	-79.00
11900	0.37	-80.00	0.88	12.60	0.88	12.60	0.37	-80.00
11950	0.36	-81.10	0.89	12.30	0.89	12.30	0.36	-81.10
12000	0.36	-82.40	0.89	11.60	0.89	11.60	0.36	-82.40
12050	0.36	-83.70	0.90	10.80	0.90	10.80	0.36	-83.70
12100	0.35	-84.50	0.89	10.50	0.89	10.50	0.35	-84.50
12150	0.35	-85.30	0.89	10.20	0.89	10.20	0.35	-85.30
12200	0.34	-86.00	0.90	9.80	0.90	9.80	0.34	-86.00
12250	0.34	-86.70	0.90	9.50	0.90	9.50	0.34	-86.70
12300	0.34	-86.50	0.90	9.10	0.90	9.10	0.34	-86.50
12350	0.34	-86.40	0.90	8.70	0.90	8.70	0.34	-86.40
12400	0.34	-87.00	0.90	8.50	0.90	8.50	0.34	-87.00
12450	0.34	-87.60	0.89	8.40	0.89	8.40	0.34	-87.60
12500	0.34	-86.90	0.90	8.10	0.90	8.10	0.34	-86.90
12550	0.33	-86.10	0.90	7.80	0.90	7.80	0.33	-86.10
12600	0.34	-85.90	0.90	7.70	0.90	7.70	0.34	-85.90
12650	0.34	-85.60	0.90	7.60	0.90	7.60	0.34	-85.60
12700	0.34	-84.40	0.90	7.30	0.90	7.30	0.34	-84.40
12750	0.34	-83.20	0.90	7.10	0.90	7.10	0.34	-83.20
12800	0.34	-82.50	0.91	7.00	0.91	7.00	0.34	-82.50
12850	0.33	-81.80	0.91	6.80	0.91	6.80	0.33	-81.80
12900	0.33	-80.80	0.91	6.60	0.91	6.60	0.33	-80.80
12950	0.33	-79.90	0.91	6.30	0.91	6.30	0.33	-79.90
13000	0.33	-79.40	0.91	6.20	0.91	6.20	0.33	-79.40
13050	0.33	-79.00	0.92	6.10	0.92	6.10	0.33	-79.00
13100	0.32	-78.10	0.92	5.80	0.92	5.80	0.32	-78.10
13150	0.31	-77.20	0.92	5.50	0.92	5.50	0.31	-77.20
13200	0.31	-77.30	0.92	5.50	0.92	5.50	0.31	-77.30
13250	0.31	-77.40	0.92	5.40	0.92	5.40	0.31	-77.40
13300	0.30	-75.50	0.92	5.00	0.92	5.00	0.30	-75.50
13350	0.29	-73.50	0.92	4.50	0.92	4.50	0.29	-73.50
13400	0.29	-75.00	0.92	4.10	0.92	4.10	0.29	-75.00
13450	0.29	-76.50	0.92	3.70	0.92	3.70	0.29	-76.50
13500	0.28	-76.70	0.92	3.50	0.92	3.50	0.28	-76.70
13550	0.28	-76.90	0.92	3.30	0.92	3.30	0.28	-76.90
13600	0.27	-77.40	0.92	3.10	0.92	3.10	0.27	-77.40
13650	0.27	-77.90	0.92	2.80	0.92	2.80	0.27	-77.90
13700	0.27	-78.20	0.92	2.50	0.92	2.50	0.27	-78.20
13750	0.27	-78.60	0.93	2.20	0.93	2.20	0.27	-78.60
13800	0.27	-78.60	0.92	2.00	0.92	2.00	0.27	-78.60
13850	0.26	-78.60	0.92	1.80	0.92	1.80	0.26	-78.60
13900	0.26	-78.60	0.92	1.60	0.92	1.60	0.26	-78.60
13950	0.27	-78.70	0.93	1.40	0.93	1.40	0.27	-78.70
14000	0.26	-77.90	0.93	1.10	0.93	1.10	0.26	-77.90
14050	0.26	-77.20	0.93	0.80	0.93	0.80	0.26	-77.20
14100	0.26	-77.30	0.93	0.50	0.93	0.50	0.26	-77.30
14150	0.26	-77.40	0.93	0.20	0.93	0.20	0.26	-77.40
14200	0.26	-76.30	0.93	-0.10	0.93	-0.10	0.26	-76.30
14250	0.25	-75.20	0.93	-0.40	0.93	-0.40	0.25	-75.20
14300	0.25	-74.90	0.93	-0.60	0.93	-0.60	0.25	-74.90
14350	0.25	-74.50	0.94	-0.80	0.94	-0.80	0.25	-74.50
14400	0.25	-73.60	0.94	-1.30	0.94	-1.30	0.25	-73.60
14450	0.25	-72.70	0.94	-1.80	0.94	-1.80	0.25	-72.70
14500	0.24	-71.60	0.94	-1.90	0.94	-1.90	0.24	-71.60
14550	0.24	-70.50	0.94	-1.90	0.94	-1.90	0.24	-70.50
14600	0.23	-69.30	0.94	-2.30	0.94	-2.30	0.23	-69.30
14650	0.23	-68.20	0.94	-2.70	0.94	-2.70	0.23	-68.20
14700	0.22	-68.00	0.94	-3.10	0.94	-3.10	0.22	-68.00
14750	0.22	-67.80	0.94	-3.40	0.94	-3.40	0.22	-67.80
14800	0.21	-66.50	0.94	-3.80	0.94	-3.80	0.21	-66.50
14850	0.21	-65.20	0.94	-4.10	0.94	-4.10	0.21	-65.20
14900	0.20	-64.90	0.95	-4.40	0.95	-4.40	0.20	-64.90
14950	0.20	-64.70	0.95	-4.60	0.95	-4.60	0.20	-64.70
15000	0.19	-64.30	0.95	-5.00	0.95	-5.00	0.19	-64.30
15050	0.19	-64.00	0.95	-5.40	0.95	-5.40	0.19	-64.00
15100	0.19	-62.50	0.95	-5.60	0.95	-5.60	0.19	-62.50
15150	0.18	-61.00	0.95	-5.80	0.95	-5.80	0.18	-61.00
15200	0.18	-60.90	0.96	-5.90	0.96	-5.90	0.18	-60.90
15250	0.18	-60.70	0.96	-6.10	0.96	-6.10	0.18	-60.70
15300	0.18	-58.90	0.96	-6.60	0.96	-6.60	0.18	-58.90
15350	0.18	-57.20	0.95	-7.20	0.95	-7.20	0.18	-57.20
15400	0.18	-55.40	0.95	-7.30	0.95	-7.30	0.18	-55.40
15450	0.17	-53.70	0.95	-7.50	0.95	-7.50	0.17	-53.70
15500	0.17	-50.80	0.95	-7.90	0.95	-7.90	0.17	-50.80
15550	0.17	-48.00	0.95	-8.30	0.95	-8.30	0.17	-48.00
15600	0.17	-45.70	0.95	-8.50	0.95	-8.50	0.17	-45.70
15650	0.17	-43.30	0.96	-8.70	0.96	-8.70	0.17	-43.30
15700	0.17	-40.10	0.95	-9.10	0.95	-9.10	0.17	-40.10
15750	0.17	-36.90	0.95	-9.60	0.95	-9.60	0.17	-36.90
15800	0.17	-33.30	0.95	-9.70	0.95	-9.70	0.17	-33.30
15850	0.17	-29.70	0.95	-9.80	0.95	-9.80	0.17	-29.70
15900	0.17	-27.30	0.95	-10.20	0.95	-10.20	0.17	-27.30
15950	0.17	-25.00	0.95	-10.50	0.95	-10.50	0.17	-25.00
16000	0.17	-19.60	0.95	-10.60	0.95	-10.60	0.17	-19.60
16050	0.17	-14.30	0.95	-10.80	0.95	-10.80	0.17	-14.30
16100	0.16	-11.80	0.95	-11.20	0.95	-11.20	0.16	-11.80
16150	0.16	-9.40	0.94	-11.70	0.94	-11.70	0.16	-9.40
16200	0.16	-5.80	0.94	-11.80	0.94	-11.80	0.16	-5.80
16250	0.16	-2.20	0.94	-12.00	0.94	-12.00	0.16	-2.20
16300	0.15	-0.80	0.94	-12.20	0.94	-12.20	0.15	-0.80
16350	0.15	0.70	0.95	-12.50	0.95	-12.50	0.15	0.70
16400	0.14	3.70	0.94	-12.70	0.94	-12.70	0.14	3.70
16450	0.14	6.60	0.94	-12.80	0.94	-12.80	0.14	6.60
16500	0.13	5.30	0.94	-12.80	0.94	-12.80	0.13	5.30
16550	0.12	3.90	0.94	-12.80	0.94	-12.80	0.12	3.90
16600	0.12	6.30	0.94	-13.10	0.94	-13.10	0.12	6.30
16650	0.12	8.70	0.95	-13.40	0.95	-13.40	0.12	8.70
16700	0.11	8.60	0.95	-13.60	0.95	-13.60	0.11	8.60
16750	0.10	8.50	0.95	-13.70	0.95	-13.70	0.10	8.50
16800	0.11	8.70	0.95	-13.90	0.95	-13.90	0.11	8.70
16850	0.11	8.90	0.95	-14.10	0.95	-14.10	0.11	8.90
16900	0.11	11.20	0.95	-14.40	0.95	-14.40	0.11	11.20
16950	0.11	13.60	0.95	-14.70	0.95	-14.70	0.11	13.60
17000	0.11	15.60	0.95	-15.00	0.95	-15.00	0.11	15.60
17050	0.11	17.50	0.96	-15.40	0.96	-15.40	0.11	17.50
17100	0.11	18.80	0.95	-15.70	0.95	-15.70	0.11	18.80
17150	0.12	20.00	0.95	-16.10	0.95	-16.10	0.12	20.00
17200	0.12	24.00	0.95	-16.30	0.95	-16.30	0.12	24.00
17250	0.13	28.10	0.95	-16.50	0.95	-16.50	0.13	28.10
17300	0.13	30.20	0.95	-16.80	0.95	-16.80	0.13	30.20
17350	0.14	32.40	0.95	-17.10	0.95	-17.10	0.14	32.40
17400	0.14	36.30	0.95	-17.40	0.95	-17.40	0.14	36.30
17450	0.14	40.20	0.95	-17.70	0.95	-17.70	0.14	40.20
17500	0.15	41.00	0.95	-18.10	0.95	-18.10	0.15	41.00
17550	0.16	41.80	0.95	-18.50	0.95	-18.50	0.16	41.80
17600	0.16	45.50	0.95	-18.90	0.95	-18.90	0.16	45.50
17650	0.16	49.30	0.94	-19.40	0.94	-19.40	0.16	49.30
17700	0.17	51.70	0.94	-19.70	0.94	-19.70	0.17	51.70
17750	0.17	54.10	0.94	-20.00	0.94	-20.00	0.17	54.10
17800	0.17	54.80	0.94	-20.40	0.94	-20.40	0.17	54.80
17850	0.17	55.50	0.94	-20.90	0.94	-20.90	0.17	55.50
17900	0.17	58.20	0.94	-21.30	0.94	-21.30	0.17	58.20
17950	0.17	60.90	0.94	-21.70	0.94	-21.70	0.17	60.90
18000	0.17	60.70	0.94	-22.30	0.94	-22.30	0.17	60.70
18050	0.17	60.50	0.94	-22.90	0.94	-22.90	0.17	60.50
18100	0.17	60.30	0.94	-23.30	0.94	-23.30	0.17	60.30
18150	0.17	60.20	0.93	-23.80	0.93	-23.80	0.17	60.20
18200	0.17	58.90	0.93	-24.40	0.93	-24.40	0.17	58.90
18250	0.17	57.70	0.93	-25.00	0.93	-25.00	0.17	57.70
18300	0.17	55.20	0.93	-25.40	0.93	-25.40	0.17	55.20
18350	0.17	52.80	0.93	-25.80	0.93	-25.80	0.17	52.80
18400	0.18	50.30	0.92	-26.40	0.92	-26.40	0.18	50.30
18450	0.19	47.80	0.92	-26.90	0.92	-26.90	0.19	47.80
18500	0.20	47.00	0.92	-27.20	0.92	-27.20	0.20	47.00
18550	0.20	46.20	0.92	-27.50	0.92	-27.50	0.20	46.20
18600	0.22	45.90	0.92	-27.90	0.92	-27.90	0.22	45.90
18650	0.24	45.50	0.92	-28.40	0.92	-28.40	0.24	45.50
18700	0.23	44.40	0.91	-29.10	0.91	-29.10	0.23	44.40
18750	0.23	43.20	0.90	-29.90	0.90	-29.90	0.23	43.20
18800	0.25	43.10	0.90	-30.30	0.90	-30.30	0.25	43.10
18850	0.26	43.00	0.90	-30.60	0.90	-30.60	0.26	43.00
18900	0.26	42.70	0.89	-31.40	0.89	-31.40	0.26	42.70
18950	0.27	42.40	0.89	-32.20	0.89	-32.20	0.27	42.40
19000	0.27	43.30	0.88	-32.60	0.88	-32.60	0.27	43.30
19050	0.26	44.30	0.87	-32.90	0.87	-32.90	0.26	44.30
19100	0.28	41.90	0.86	-33.50	0.86	-33.50	0.28	41.90
19150	0.29	39.50	0.86	-34.00	0.86	-34.00	0.29	39.50
19200	0.29	36.90	0.85	-34.60	0.85	-34.60	0.29	36.90
19250	0.29	34.30	0.85	-35.10	0.85	-35.10	0.29	34.30
19300	0.31	31.20	0.84	-35.90	0.84	-35.90	0.31	31.20
19350	0.32	28.10	0.83	-36.60	0.83	-36.60	0.32	28.10
19400	0.33	24.90	0.83	-37.80	0.83	-37.80	0.33	24.90
19450	0.34	21.80	0.82	-39.00	0.82	-39.00	0.34	21.80
19500	0.35	18.30	0.81	-39.70	0.81	-39.70	0.35	18.30
19550	0.37	14.80	0.79	-40.40	0.79	-40.40	0.37	14.80
