!Keysight Technologies N9917A: A.08.15
!Date: Friday, 13 October 2017 17:36:09
!Timezone: (GMT-08:00) Pacific Time (US & Canada)
!Model: N9917A
!Serial: MY53102735
!GPS Latitude: 
!GPS Longitude: 
!GPS TimeStamp: 0001-01-01 00:00:00Z
!GPS Seconds Since Last Read: 0
!CHECKSUM:1392637309
!Correction: S11(ON U)S21(ON U)S12(ON U)S22(ON U)
!S2P File: Measurements:S11,S21,S12,S22:
# Hz S DB R 50
1000000000	-28.3069574267679	-9.63184970467854	-0.169849217513946	-129.583172349577	-0.164669896396776	-129.850578121443	-28.0308382965147	-88.6374485038673	
1013750000	-28.8435565791059	-12.2453640897118	-0.165656761324105	-131.675421430691	-0.164226996173493	-131.591062560546	-27.7627172396486	-88.8960358503698	
1027500000	-29.3084686745821	-16.7753147509799	-0.16555932160753	-133.347790351601	-0.172011001353745	-133.402115582535	-27.8098420765844	-90.0959559162675	
1041250000	-29.3785901865892	-21.6927540736749	-0.160521445194698	-135.259991204942	-0.168272626492756	-135.250744056999	-27.3700225070161	-94.7075425592352	
1055000000	-29.2475774029937	-22.2342499070427	-0.16799466789025	-137.200437226495	-0.172164898511934	-137.020782120506	-27.6285177010469	-97.1937110148633	
1068750000	-28.4773342953572	-21.9632608604617	-0.16778982903046	-138.664465540741	-0.174638611694574	-138.788428346261	-27.6298291667785	-98.1848430280869	
1082500000	-28.2962942987371	-16.9538903269746	-0.15898285857192	-140.621693595086	-0.174758147171446	-140.559011388266	-27.9111307716556	-97.6744037243354	
1096250000	-28.1179466073913	-16.2645904422568	-0.162936895937069	-142.427263376041	-0.17776271843288	-142.363050749977	-27.9424127861897	-101.493190210416	
1110000000	-28.5972606005601	-20.2668705373789	-0.173343232454262	-144.043411367965	-0.178650051758449	-144.10729420715	-27.7537158875301	-103.237526613635	
1123750000	-29.3910958342585	-26.5324068802489	-0.164755760083363	-145.990667296354	-0.174206989749926	-145.93150935207	-27.4691440803899	-106.509866160134	
1137500000	-29.29588002745	-29.755254844695	-0.166430679740793	-147.973063720258	-0.168211612288941	-147.72994712322	-27.2829855338385	-108.868795162524	
1151250000	-28.5829851281649	-29.2441240749749	-0.174351291531071	-149.42783582758	-0.18194196034793	-149.507843230287	-27.8074660372011	-110.512976264998	
1165000000	-28.3531834704327	-26.526981782804	-0.164266722847619	-151.279073011225	-0.182259162916801	-151.335964128663	-28.0381038819452	-111.161262146953	
1178750000	-28.3197671942465	-23.6847417259189	-0.176413165178358	-153.079830767423	-0.178622012433402	-153.045672075294	-28.1501837803042	-114.402121934417	
1192500000	-28.6205781989611	-24.1805907199605	-0.174689676774879	-154.825506907487	-0.185652151969264	-154.893273131643	-28.3035584202122	-117.241105835026	
1206250000	-28.655534701092	-25.416175029375	-0.182262683398506	-156.439584577196	-0.188464013412689	-156.574700499712	-28.2060840454958	-118.973152694258	
1220000000	-29.1785643549261	-33.2078618491279	-0.178747981262854	-158.485974972188	-0.191052547412699	-158.428671054735	-27.544069112895	-121.917467900251	
1233750000	-29.1566208815312	-34.4253326800512	-0.178888846491749	-160.460085695184	-0.181752845229792	-160.280575999142	-27.7786907112306	-123.858740431489	
1247500000	-28.6680105727866	-35.940594692698	-0.177113587213516	-161.921692578462	-0.191155387879786	-162.024602056712	-27.8530283433772	-123.486424934679	
1261250000	-28.2543003222592	-33.5473459971799	-0.181659106016408	-163.694279306272	-0.191789911947818	-163.756001856056	-28.1003404043634	-126.692267636707	
1275000000	-28.2313085288124	-32.1731433881023	-0.180600268255365	-165.630437931543	-0.188259282374249	-165.608119354063	-28.6469873330585	-126.114532934887	
1288750000	-28.4094816690048	-34.6931315789275	-0.19061501252937	-167.617998151074	-0.188595505747293	-167.499454404488	-28.3787863487985	-129.435422737852	
1302500000	-29.0355532107785	-36.9222076661293	-0.19049150117926	-169.160620130102	-0.190025506967711	-169.254606153257	-28.1884726061131	-133.911461363466	
1316250000	-29.333357764923	-37.9974034864521	-0.188199421399163	-170.833289486141	-0.202037304950631	-170.931461149039	-28.1336437030688	-135.715654134192	
1330000000	-28.8979722662087	-39.8089998967965	-0.189199815541964	-172.811168632955	-0.200809570949511	-172.76651528437	-28.0844606844328	-138.841360401904	
1343750000	-28.3133974484268	-41.0776192402814	-0.198618521948349	-174.60584015119	-0.204034685156523	-174.55720071155	-28.3899586097944	-139.321121737585	
1357500000	-28.346711348819	-37.9999892146609	-0.190746843344516	-176.398227646556	-0.195754039192059	-176.361321910405	-28.8589650851732	-140.994696101045	
1371250000	-28.1841885499403	-39.670203533647	-0.191040070066085	-178.129080653944	-0.202359387387645	-178.172041518832	-28.9106642838705	-143.580959584566	
1385000000	-28.8635930413728	-39.7052314798531	-0.196453378156758	-179.9001372416	-0.196190386406067	-179.922847740802	-28.8280527134021	-146.552734291479	
1398750000	-29.1134973907617	-43.7193870610663	-0.19967689763132	178.249624535395	-0.204825847182818	178.260548734013	-28.5557657692246	-150.143992083081	
1412500000	-29.0955968511948	-46.5533510029353	-0.196805102045363	176.3641934079	-0.20952635082418	176.505968596846	-28.3901235729219	-153.530217099663	
1426250000	-28.8293658735162	-48.3530730382017	-0.196796364660762	174.641750913608	-0.198650601131567	174.618285623622	-28.6263814796373	-154.261209301659	
1440000000	-28.5068610573189	-46.959045862974	-0.193812407825253	172.944061484915	-0.216081271707009	172.87110296224	-28.958810393227	-153.103010603178	
1453750000	-28.3241739951379	-45.6173856232085	-0.196487764845034	171.124960173837	-0.207279371004785	171.077273275799	-29.2644802748829	-154.980897338074	
1467500000	-28.5975132822012	-46.5511279634105	-0.206400215547897	169.257307051212	-0.207151543507414	169.274216290236	-29.559686039216	-156.853971647659	
1481250000	-29.2896181587702	-48.6494115016985	-0.205370491122643	167.430866192352	-0.207975245642002	167.467164269313	-29.3443095506936	-160.979928325534	
1495000000	-29.7253673334056	-51.3422416411298	-0.205129415461782	165.685337287761	-0.208904430161686	165.625752795331	-29.1459256528184	-165.840390929392	
1508750000	-29.8525155146959	-52.8325328140263	-0.200426763136561	163.93864454132	-0.216753507402796	163.831192752167	-29.3619660240678	-166.564246862735	
1522500000	-29.1794099626901	-54.1280887576058	-0.19817860236255	162.093259796655	-0.214009288838469	162.084831379385	-29.1201792199307	-169.134554193711	
1536250000	-28.5913273224995	-53.4628984891902	-0.206036719984316	160.322584390111	-0.214025482232431	160.291380732764	-30.0343158436411	-170.304579293139	
1550000000	-28.3111969779161	-52.3364299595994	-0.203317011378588	158.503652604864	-0.211665252830948	158.493597157891	-30.0879834656016	-170.914545802726	
1563750000	-28.9524401333585	-52.8246627619122	-0.21215426841257	156.611255092874	-0.212573077270282	156.707340623151	-30.0254268967956	-173.07052870451	
1577500000	-29.3945436012282	-54.649991098084	-0.213394949090375	154.894391785888	-0.218007613465553	154.853499744913	-29.7719932366462	-177.282702915836	
1591250000	-29.8408124014259	-58.7105736342892	-0.217524202181612	153.171684735898	-0.219752544152371	153.031001377464	-29.7927242324364	179.339782788508	
1605000000	-29.6336718410032	-60.5443250210688	-0.209967970484696	151.283116662301	-0.218158179138247	151.270257994798	-29.8565282942036	178.668505917968	
1618750000	-29.327750097345	-63.1735408976549	-0.214178531969729	149.465052615506	-0.221738698460136	149.48463746867	-30.457445494431	176.943824674704	
1632500000	-28.7372839544879	-59.7859776103597	-0.214116260642539	147.607841101435	-0.220283685697762	147.673934140473	-31.1283013720933	174.760809061345	
1646250000	-28.9155000342863	-59.637750161489	-0.212744429990367	145.814762063562	-0.221567257635749	145.85553656763	-31.2698020249569	171.192241353213	
1660000000	-29.3221365762146	-61.6627978951809	-0.223174457859984	143.897553609731	-0.223094429693895	143.999347764011	-31.0489148070068	169.279624412442	
1673750000	-29.7652675635671	-65.0493316750762	-0.214767168933538	142.320578451191	-0.230124956847647	142.240092222419	-30.8279022494582	163.94984329083	
1687500000	-30.1769544614902	-65.685159008832	-0.221935220306992	140.475629740335	-0.226296464343614	140.429789471491	-30.6751796746616	162.895604350186	
1701250000	-29.7890445484623	-69.3081502109786	-0.220584791881482	138.663898878017	-0.222564741011365	138.623710579647	-30.8413997580264	161.87335564417	
1715000000	-29.4412071174882	-68.5232530480171	-0.223847501681962	136.851502520591	-0.232103835608202	136.830990124745	-31.5992539852578	160.154298173147	
1728750000	-29.192372820209	-66.9331126605111	-0.219628378595479	134.978616571032	-0.229730699553771	135.0387157921	-32.4794296815005	157.766483862982	
1742500000	-29.5005345944291	-66.2295577509362	-0.227493215292236	133.163828747793	-0.231736845162905	133.21727730159	-32.3267971447136	152.873873005627	
1756250000	-29.9556486403406	-69.7584985164906	-0.222892001887813	131.318501707232	-0.234040347455026	131.437497744253	-32.3002996528519	149.647182230578	
1770000000	-30.4728194033944	-72.0844079099283	-0.231438579188655	129.654082461119	-0.234953798853377	129.55398071103	-31.6901764973862	147.620407019548	
1783750000	-30.4268838314998	-73.2246256848505	-0.2320188547225	127.878634884511	-0.231107630628036	127.75101581321	-32.1991231892665	145.974903221915	
1797500000	-30.4372316778809	-75.0224884295227	-0.231389324259879	126.03600953382	-0.231861082361335	125.978873091133	-32.3116738256763	144.056036809374	
1811250000	-29.9936034765387	-76.0636255637161	-0.228649358387709	124.27798911873	-0.237197308090374	124.242442499917	-32.9090008300544	141.813674247017	
1825000000	-29.5060152861941	-73.597632920372	-0.231033629274101	122.338313999867	-0.242979475977429	122.343821278804	-33.7510335939678	135.72797098912	
1838750000	-29.6307006245355	-72.4655536884417	-0.236691235820345	120.507694941204	-0.244037906707964	120.511881806775	-33.5911643454348	128.497020350201	
1852500000	-30.3207599775095	-74.7355450680505	-0.24269631976902	118.689111619331	-0.247708826668498	118.713546528898	-33.0414354672865	127.88673997537	
1866250000	-30.6933521711814	-76.6044538495361	-0.237719492902944	116.892961627757	-0.247542172636147	116.960257230666	-32.731983285562	122.294126669575	
1880000000	-30.4196297752358	-80.4776590550932	-0.242610006829591	115.062172407731	-0.244385826991675	115.030907837942	-32.521846541041	122.75040069593	
1893750000	-30.0480914578158	-82.1747513702997	-0.234741307073814	113.34455615908	-0.249505389666294	113.254448402529	-33.3334595425015	122.208412697363	
1907500000	-30.0953235412229	-84.8157004547674	-0.242011505742672	111.570643036573	-0.248282511141058	111.489092440988	-34.3970942943699	118.384851914901	
1921250000	-29.8994663921795	-80.4169450654738	-0.241612833738809	109.71863641186	-0.244437428492866	109.668268862359	-34.9799148917784	114.307552371033	
1935000000	-30.0385505732472	-79.1841032488336	-0.243611287343603	107.952446465139	-0.240297139502198	107.883211298381	-34.7222699903708	108.36725034922	
1948750000	-30.8841621590324	-82.6923103179077	-0.243752676701476	106.02120863956	-0.250932775184371	106.003348116495	-34.3484578535419	101.42322708701	
1962500000	-30.9700117208829	-85.8593921492903	-0.247469247504675	104.172252777989	-0.252882928279671	104.17747871631	-34.1266886327696	103.630716436175	
1976250000	-30.3918866387024	-86.4465384527358	-0.250083396382025	102.294148346437	-0.258749412582302	102.385915796225	-33.4486558635464	100.244982971067	
1990000000	-29.9545692345196	-88.6400727247892	-0.24846413826952	100.505736403305	-0.24968343519372	100.51385569507	-34.324248488798	99.46839326646	
2003750000	-29.6017156754233	-87.8796427721976	-0.247281410898035	98.6053598977441	-0.257767716798844	98.6526601845103	-35.2799254941593	99.1121436511481	
2017500000	-30.2400185924627	-86.0520680045249	-0.253285910338015	96.9576243919455	-0.253304789108446	96.8890288461913	-35.4021985196604	91.2565740659209	
2031250000	-30.6231402969739	-89.3070346202889	-0.24975450979463	95.2265580892928	-0.259003124038095	95.0446726158842	-35.4469260661185	84.2091246403214	
2045000000	-30.9463269800445	-87.7420726174741	-0.258315101316822	93.3590729979135	-0.260918966235663	93.2889740354525	-34.969821305825	81.281141148884	
2058750000	-31.1775759876085	-90.2737995769801	-0.257122553477097	91.4589698024816	-0.259912156637909	91.4651193123346	-34.9287337021852	78.3582507276914	
2072500000	-30.570440403461	-94.0862814031637	-0.255829178575925	89.6555217886878	-0.261770232846293	89.6654990121923	-34.171765498073	74.5980083346375	
2086250000	-30.1381680035526	-93.4350406532924	-0.254333060448028	87.7788960750601	-0.263632026813092	87.804925648028	-35.0162770501577	72.2512047510842	
2100000000	-30.3413957076916	-94.6425992481195	-0.25851336759305	85.9635688659491	-0.260603876344243	85.9451334362104	-35.8066432219947	69.3693887021951	
2113750000	-30.4512687123315	-92.5924647775754	-0.260658680055925	84.0938825030192	-0.2685436232886	84.1057567356208	-35.5359833531055	65.2910201018278	
2127500000	-31.0415667859845	-95.0237806598291	-0.255933995614342	82.2384022462471	-0.269529427564079	82.3229881711067	-35.217255620141	60.0072047221215	
2141250000	-31.5240631820136	-94.857516394948	-0.26263905369837	80.49626251914	-0.272336905335135	80.5226015193586	-34.3707383498486	56.0107838763913	
2155000000	-31.3570561975461	-99.8011164896744	-0.26211325193751	78.5241045147154	-0.26668714319888	78.5539850089753	-34.6840006995587	55.5576178922338	
2168750000	-30.6870662034213	-100.054865239597	-0.267268448853201	76.8854760449972	-0.267418706308931	76.7626087090461	-34.5772728786704	50.6687076022839	
2182500000	-30.3011308273686	-100.320662462545	-0.267291169754085	75.0960207539051	-0.26842421983275	74.9901545730796	-34.7040714652954	46.2394497705431	
2196250000	-29.9630436396261	-102.178872817062	-0.265294095307267	73.2123589957535	-0.26636596808143	73.19973468291	-34.957179399952	41.8342162499185	
2210000000	-30.5170902725825	-101.427363011732	-0.269845080520656	71.3867818289874	-0.27307038418176	71.3556944907426	-35.0474737379829	40.8633842888816	
2223750000	-31.2220262410081	-103.91553250096	-0.262187832089522	69.529474465154	-0.27259833828707	69.5172481476229	-34.9719162713395	37.2674169212946	
2237500000	-31.631055606491	-104.499910795013	-0.267245286566189	67.7208540285696	-0.275069291294973	67.733822576151	-34.4622781243174	35.1271196350959	
2251250000	-31.0092399580623	-105.40826213054	-0.26391011452115	65.7567031082768	-0.28023570376527	65.8073871197471	-34.3517169493424	26.5882899684458	
2265000000	-30.574665970847	-107.878058558461	-0.267703949582194	63.9821877784723	-0.277336792324982	63.9677955964713	-34.2783100007813	23.2293135387463	
2278750000	-30.0610463587683	-106.397144167771	-0.27207972224103	62.1052944970311	-0.279446951514974	62.1471106556572	-34.3590931118577	21.0588595473081	
2292500000	-30.0948702788661	-107.944596361355	-0.2809032941638	60.2930937557231	-0.279261576923749	60.3090493591785	-34.3359636906264	19.0340494754579	
2306250000	-30.6313469080454	-107.202564779277	-0.270446207096832	58.4901473210011	-0.276689492910835	58.508766197453	-33.8552428406069	16.1115968510671	
2320000000	-30.7971416902873	-109.284325269471	-0.276642180503438	56.5693798862024	-0.287361865124423	56.5938662816176	-33.3354244466061	17.8609635786528	
2333750000	-31.0132806411951	-110.002436200723	-0.281859984668835	54.8335088074195	-0.282342610502269	54.7328227355453	-32.8786705183094	11.7776627822014	
2347500000	-30.8234891231607	-114.515253366849	-0.288455657242494	53.0570966255742	-0.285386272017198	52.9268013144829	-33.3238014864856	9.64655407771256	
2361250000	-30.3732502830139	-117.651680382822	-0.286787057301308	51.1713122358161	-0.282402338535419	51.1240246348596	-33.3892699066436	4.57524190594865	
2375000000	-30.1485014854605	-116.660392382499	-0.279318343437074	49.3373168207029	-0.289652805651948	49.2788978841917	-33.4937218562013	2.54913846108387	
2388750000	-29.950599181556	-114.730970312452	-0.281986518089682	47.4509634985064	-0.288076151630191	47.4471868090569	-32.7169596676	-1.04512298630351	
2402500000	-30.4189936441144	-116.775009103285	-0.280961484128296	45.6339173906485	-0.291539490060009	45.6255012157491	-32.3802750799747	-0.160332638935278	
2416250000	-30.6546988515394	-120.86004238085	-0.28903237868546	43.7874879049557	-0.290475086078548	43.7940048166081	-32.4613772294754	-1.98345631596942	
2430000000	-30.2593878427246	-121.950684442996	-0.28465967129968	41.8438201470419	-0.29639481702448	41.9802179807729	-32.2482059445248	-4.19718795987668	
2443750000	-30.2007814086984	-124.302720969899	-0.298744106150853	40.0499361280073	-0.292514743929819	40.052358937047	-32.1973665654367	-7.9632559407957	
2457500000	-29.7352572293489	-122.800512183504	-0.289902865519822	38.1679998494493	-0.299233878469704	38.1934289768274	-32.4177170385734	-14.4855541796025	
2471250000	-29.501082602837	-122.594883050889	-0.290391440996838	36.3188863286781	-0.29523717906897	36.3534864219306	-32.1632803671221	-15.3970102939981	
2485000000	-29.887223265074	-123.123306898836	-0.296073892545065	34.4543408984127	-0.295139976944121	34.5129257179765	-31.443881136286	-18.1389250784694	
2498750000	-29.9735582665402	-124.934768971246	-0.29491830657102	32.6589153944027	-0.293523944191782	32.6863162647261	-31.2714104645321	-17.8908328482502	
2512500000	-29.9965214559775	-125.900402058477	-0.290107153977181	30.8326628783099	-0.301612370426583	30.8188288934705	-30.5984081815948	-20.5615755608219	
2526250000	-29.7614952550968	-130.020668984242	-0.295824723229389	28.8041251358622	-0.309701221692366	28.9412819976114	-30.9879988355182	-21.0281564529154	
2540000000	-29.1748484893765	-134.230761791683	-0.293468999251091	27.1244816052625	-0.297559601146998	27.0689885917859	-31.2955398202742	-24.3183450867363	
2553750000	-29.3391944278223	-134.483653684273	-0.296284852170289	25.3183930143987	-0.304318478079745	25.2301715788799	-31.1574866120614	-25.7919977886108	
2567500000	-29.2972510048508	-134.160914682679	-0.289539946840565	23.5269347029043	-0.30916559603843	23.3549480562001	-30.4879360129247	-30.929203913536	
2581250000	-29.3490232484091	-134.069672171274	-0.29574458834089	21.6202471486477	-0.300560899463442	21.606044308358	-30.3758623890581	-28.5518864341059	
2595000000	-29.6116858053912	-135.149648394933	-0.307147301507272	19.7124056875941	-0.309488360296693	19.6842358663218	-30.0407676066601	-29.4651896629267	
2608750000	-29.5735521711618	-138.877662282818	-0.315179276361483	17.8252475129875	-0.314142647133543	17.9084455822295	-29.7007454280133	-31.3904723567284	
2622500000	-28.8914645819091	-141.474234241038	-0.307308099066785	15.9914119493006	-0.314884133407679	16.0101012833315	-29.8557675923545	-37.4403993486786	
2636250000	-28.8151087223254	-142.321002563152	-0.296075919881087	14.1280027219431	-0.311202231334403	14.1535287135081	-29.3904914665035	-37.1979461805024	
2650000000	-28.2626489599879	-143.700847267189	-0.307625423563837	12.2342187043819	-0.299303041992485	12.2383291791284	-29.3916470702188	-41.1919211362127	
2663750000	-28.4207864635295	-142.862487606796	-0.307343758243844	10.289556944552	-0.309656924338684	10.3815487306769	-29.337152236615	-43.2279687393818	
2677500000	-28.8665898084513	-144.238044706521	-0.310269977535506	8.52442659474759	-0.312709912262552	8.50989802587047	-29.2058219326059	-43.46822313817	
2691250000	-28.6044169843829	-146.899901249467	-0.314046409458648	6.57680121035612	-0.320902150648066	6.65437913011863	-28.6396477547123	-44.0269009088353	
2705000000	-28.7338412101952	-148.624663613293	-0.330805873457289	4.77652394937384	-0.315197490650145	4.7641347218935	-28.677544253881	-45.6313274875578	
