!Keysight Technologies N9917A: A.08.15
!Date: Friday, 13 October 2017 17:20:55
!Timezone: (GMT-08:00) Pacific Time (US & Canada)
!Model: N9917A
!Serial: MY53102735
!GPS Latitude: 
!GPS Longitude: 
!GPS TimeStamp: 0001-01-01 00:00:00Z
!GPS Seconds Since Last Read: 0
!CHECKSUM:0388049347
!Correction: S11(ON U)S21(ON U)S12(ON U)S22(ON U)
!S2P File: Measurements:S11,S21,S12,S22:
# Hz S DB R 50
1000000000	-3.02426972231869	-112.894551886688	21.1068132379329	53.5301137773986	-36.0750020605437	-22.9647330078415	-5.34133712010446	-131.829617777242	
1013750000	-3.24760662614454	-119.199647293823	21.2746317705617	49.7957149188546	-38.7422396264091	-8.80013398594817	-5.73381086717116	-137.448739433972	
1027500000	-2.67213248070743	-123.323538802979	21.5324310772473	44.6924137565129	-32.183860550502	-24.1508111185159	-5.10098406354155	-139.683118454871	
1041250000	-3.18427281926814	-127.667924023929	21.5455098701201	40.3254238580305	-36.2138671644755	-39.8591452915421	-5.62300955350524	-142.045296757061	
1055000000	-2.9129701357721	-132.589902944493	21.6049236296715	36.2895714831119	-34.6177637960574	-38.4396169177239	-5.36176950273262	-145.559169100737	
1068750000	-2.81013160560542	-136.668069227837	21.664927041301	31.6610183536213	-35.8285752975797	-43.4828709228295	-5.21112212968726	-148.695194319615	
1082500000	-3.0692754346933	-142.54397596669	21.4580534601404	27.1224168215475	-33.1895759089599	-43.6527881162515	-5.09345236550005	-153.315972269373	
1096250000	-2.92650820020099	-147.496220998761	21.3990461404826	23.8204799535955	-33.4681726349449	-48.6862564073711	-5.1871739018044	-155.9096148264	
1110000000	-2.9841881705426	-155.105691559488	21.5913585588082	18.2858865205097	-36.3139185414524	-59.1144685747144	-5.3046276682091	-161.369393750157	
1123750000	-3.00477502307134	-159.108789396672	21.5308235144525	12.8935974227961	-35.7077994125764	-59.5545791406717	-5.41557525300385	-163.617402158368	
1137500000	-2.84719553329507	-164.963311318877	21.5041609397192	8.38271782785545	-33.7347187446807	-49.5182168907469	-5.10553808670309	-166.04031199942	
1151250000	-2.97687565767442	-173.556811055166	21.2829236027694	3.81419407056981	-31.1791276838985	-55.1194608095434	-5.09960328279543	-172.109916689333	
1165000000	-3.33838820476419	-178.91247603371	21.0307147060076	-0.686944112878005	-31.147003678519	-68.1456668699273	-5.40281944663652	-172.908398485865	
1178750000	-3.28171189944215	172.956918102925	20.6794628165326	-4.61602061381795	-35.0997706370397	-67.4119692555843	-5.19139356586088	-175.882272024234	
1192500000	-3.61503489862591	163.715477905129	20.3574605322949	-10.3981958906373	-37.3508771050933	-84.0542758030992	-5.17213182628288	-178.707763447515	
1206250000	-3.9999736182227	155.265689231865	19.7748556320278	-14.1131355871487	-34.2751096011896	-87.1728654160693	-5.02326670283596	179.849547767938	
1220000000	-4.69339323212955	142.545324011264	19.0278568761637	-17.9731974249105	-34.0943910684872	-89.9925496940937	-4.79762798149109	177.164258404567	
1233750000	-5.7807412332308	130.695272210352	18.0183094415937	-18.6488334756207	-33.4027718566715	-85.435339122645	-4.72665288491152	173.454736462639	
1247500000	-7.82795572775667	118.177527550883	17.2151277239809	-15.4811353734491	-38.4815557203286	-101.153229418476	-4.33582670852988	172.276148778506	
1261250000	-10.565335605409	103.798621897802	16.9026344977412	-8.02421277360908	-38.1244100849564	-62.7478481026044	-4.00650037808054	166.858638860222	
1275000000	-15.9058054021919	89.586735961925	17.6854958153214	-2.41809941778114	-35.6081675174019	-82.9041144511645	-3.65179703042165	162.993849224694	
1288750000	-29.8986288554368	86.9749069015995	18.7677001915456	-2.42281778904248	-34.1628736502366	-76.2904276371005	-3.50370839033829	157.42793824496	
1302500000	-23.0658763252624	-115.866002705508	19.6444419990745	-5.24009651641871	-34.3634558075942	-73.9144313784872	-3.58762030490747	150.803496817721	
1316250000	-15.0323254807419	-128.383295861568	20.2867283592886	-8.31687751509507	-32.8943257175737	-71.3372936539114	-3.8390619175262	146.748994376759	
1330000000	-12.662374812515	-136.938480603504	20.8236470498183	-13.1493441145298	-32.3729414751435	-81.3160617579754	-3.94840948305192	141.403060396738	
1343750000	-10.5394306950834	-143.396161792271	21.0929185457802	-18.7863795710015	-33.1312870414134	-86.9225822431955	-4.08665074106936	137.685300152502	
1357500000	-10.0896445123131	-148.569079777804	21.1496451487093	-23.9465427090353	-31.2807670173928	-84.1119429231447	-4.45909353178307	133.30904840247	
1371250000	-8.81075617419954	-158.521595208833	21.108504082176	-28.0035602709963	-33.7476440997762	-92.1016621175562	-4.8968887131541	130.574802259482	
1385000000	-8.06766603364985	-163.23447775153	21.0316230680258	-30.0201925837299	-32.5449521364054	-99.0129135423569	-5.06108885802911	131.186801955066	
1398750000	-7.42396529612647	-167.799925129819	21.3354262015771	-33.2789397838264	-33.0520566656818	-74.7387237824081	-5.05366774792821	130.187819938504	
1412500000	-7.32784056119728	-174.377048820171	21.3069908984777	-37.6458869943485	-31.4958741129013	-100.19869361979	-5.21516719165806	126.190930290357	
1426250000	-6.48901880976108	178.722516216011	21.4553187934188	-40.1594635121619	-32.5131062967888	-89.8535899569999	-4.86540156512544	126.002237444344	
1440000000	-6.70174544822583	174.675569220451	21.7256435336369	-42.9325871025197	-30.3186817015131	-105.354587008019	-4.89299607075836	122.662518953265	
1453750000	-6.62193855738867	168.171808841062	21.9989860342076	-46.3130258710881	-30.3177272981665	-98.6995464025393	-4.63916320943684	118.852661154793	
1467500000	-6.39401603138655	162.561656502778	22.1382706896834	-51.3878668017335	-30.5037866099157	-118.585759013161	-4.48293244390043	115.343440419618	
1481250000	-6.44061408355749	158.429667044544	22.1293142810027	-55.2414890958337	-30.6948623033519	-125.661492430541	-4.6220030767851	111.797825220726	
1495000000	-6.74318364806791	155.639102483818	22.161495463195	-59.6101190997898	-30.7235895838885	-129.669558040385	-4.81721096136672	108.401091098255	
1508750000	-6.74835423905893	148.911281556708	22.183007848616	-63.8105173892888	-28.7140191642075	-126.679724223382	-4.73623361914345	104.740244641439	
1522500000	-6.5751256828387	145.140208928928	22.1939224006138	-67.6811765169678	-31.0700980331736	-117.990901552738	-4.32553885467924	101.396783068707	
1536250000	-6.57556796847103	144.091420837152	22.2816894024752	-71.812001430961	-29.4338332851719	-137.741810024729	-4.62037436193243	99.6087189549295	
1550000000	-6.89948679436908	138.73082196708	22.2606365917548	-75.3209075485106	-30.0702593622646	-132.370262112815	-4.67121326643002	94.6514252085891	
1563750000	-7.27021242114866	133.869321712501	22.4322456162941	-79.3740019070619	-32.2570165063769	-135.426070371256	-4.88321692267296	89.5355644819447	
1577500000	-7.24449896827702	128.551112206382	22.3304134588168	-83.2927880142464	-29.4427105972731	-147.52531045405	-4.80393670003267	86.9609126554065	
1591250000	-7.23085543070287	124.11775999796	22.3362064349841	-87.0547201505695	-27.8999703692702	-145.215451475593	-4.62970631243724	82.6191525721701	
1605000000	-7.28982322202544	121.920534898665	22.2146297110891	-89.823564672911	-28.7880648896581	-139.033790264856	-4.87970796836333	81.1707372322351	
1618750000	-7.28753613746655	121.30962966696	22.1441180390305	-93.2831876593829	-29.7058425795213	-154.925387850382	-4.93949628956895	79.764293509245	
1632500000	-7.45186655351011	117.749685083691	22.1946454416329	-97.0269194072893	-29.3607064032104	-154.342575890402	-5.08105219893217	75.7159788230345	
1646250000	-7.59567703043909	115.465844418399	22.1430289356052	-100.709942090304	-28.4779707860608	-154.484094280992	-5.17588928970483	74.5255027195934	
1660000000	-8.11494521875651	111.147258405554	22.0648333984278	-104.178648906782	-30.4162416531033	-163.258109643278	-5.47506426327147	69.0428233282846	
1673750000	-8.27799861275446	103.478258067765	22.1596030783296	-107.550944886524	-28.047285719175	-170.878178539917	-5.1587551368898	65.027881181341	
1687500000	-8.57082243661459	107.266325869199	22.0197899449776	-110.365965575198	-30.2671842183134	179.840821135803	-5.55214885901361	64.1266385133514	
1701250000	-8.33446254567967	104.0121975117	22.006697959424	-114.633737100537	-30.2659740684891	174.820325288953	-5.53586536698132	62.3828450433495	
1715000000	-9.03073190724524	97.5711443177161	21.9514303617208	-117.099359548767	-28.7181531671883	-165.367776511512	-5.755071089682	56.1427045539581	
1728750000	-8.54299278996823	95.882750068121	21.8688734988818	-120.717682720224	-28.9859992595515	-176.657886252532	-5.62095422249864	55.6695569128935	
1742500000	-9.23749789580567	90.5280318032882	21.8889666942017	-124.086015768703	-29.8255487424983	-176.899683230567	-5.78552893501318	51.7203553289504	
1756250000	-9.20789148882676	91.4468108861955	21.8454582291314	-127.60662312987	-29.5631026502413	-171.328608884936	-5.90356977352898	50.5380886324128	
1770000000	-9.42234607436646	85.2865066855066	21.7783536201956	-130.459358508582	-29.7181296818029	177.457340890188	-5.95614009755904	46.1609534332258	
1783750000	-9.4692421999978	79.8702701852924	21.7348304277247	-133.650056934517	-27.9800665305486	175.103837960099	-6.17290661168526	40.8802659695674	
1797500000	-9.59560619553406	78.5552028032959	21.6034871287142	-137.169798579498	-30.1503052888534	172.637807057058	-6.21040286218251	39.8581012028876	
1811250000	-9.73911526087414	75.0936872193962	21.652980488745	-140.28473515158	-28.5454375443322	162.874214241749	-6.25196374019025	36.642338868503	
1825000000	-9.87910165526413	70.3569344520844	21.6457583545665	-143.414302655916	-28.8905834244994	158.571593383941	-6.42475555467585	33.8225288168527	
1838750000	-10.7731099085936	65.596001263661	21.4946842433681	-147.049483550901	-29.8114860856849	150.467166345124	-6.75157962277955	29.159864891798	
1852500000	-10.9535434446031	66.4450098927215	21.4724977398025	-149.949432977496	-30.2186580514937	155.695573434236	-6.73618432546703	28.6813480089379	
1866250000	-11.5703077616763	62.537430460004	21.4346492873948	-153.025917688779	-28.9284662521242	139.694209943558	-6.87353748893942	25.6380846596613	
1880000000	-10.837141737999	57.3250785336858	21.3530707529948	-155.915439526576	-29.2505769960503	159.697070869299	-6.81769302818999	21.8329483491775	
1893750000	-11.3050803688376	56.1225042302895	21.2601416716619	-158.896152270798	-28.36253749173	142.992483954541	-7.15960721871955	22.530673591506	
1907500000	-11.8375387690438	51.6071785974706	21.2982970473735	-162.388660709318	-28.9603900934222	147.180623034312	-7.32463465711658	16.5912524050992	
1921250000	-12.1417546656642	50.4715272566051	21.138198150029	-165.606145868343	-29.100845880558	142.511671661151	-7.51900494354453	15.5225744300708	
1935000000	-12.5457075686644	47.4113908668968	21.0759995093417	-169.003692969856	-29.6782536799493	150.502600773314	-7.77711062832745	14.4175144979907	
1948750000	-12.277660786988	38.6558211075835	21.0500761145355	-171.522728109125	-28.1472110452987	138.33274260397	-7.60863961447054	8.04108350461569	
1962500000	-12.7699663653958	41.0379921356926	20.9884821328226	-174.340440127306	-29.7505745538046	134.24861627238	-7.81985547310298	7.36169079209039	
1976250000	-13.317598873493	37.7791986292594	20.8815967548546	-177.766820825844	-28.1983749004157	128.03014660812	-7.89779456186897	2.65313747367807	
1990000000	-13.0638733160849	31.5771325357609	20.8560622400324	179.167017650523	-29.2620968644501	122.699546529727	-7.81736117437581	0.759363267317789	
2003750000	-13.9064183760041	31.7637075426755	20.8298037996094	176.170636241496	-27.7372652172151	134.062178133733	-8.51486818682824	-0.87454894176576	
2017500000	-14.3194530685241	24.9192404231281	20.684424415506	172.820616404891	-29.4902936239406	126.679722794942	-8.69040207342507	-5.42258142875437	
2031250000	-14.4833656584644	16.3125200418471	20.7008748198485	169.38461056502	-28.5456800170087	119.171833949869	-8.69955691487231	-9.69515279167621	
2045000000	-14.5218366743642	18.5575519294322	20.707937885707	167.839376779468	-30.0971850011039	114.615029289131	-8.89711282824095	-9.4523676356032	
2058750000	-14.8870803500543	13.0242022962786	20.6981797805867	164.405097358389	-29.5228756352963	112.187573423358	-8.81254741201561	-12.6203696187556	
2072500000	-15.3878072228283	0.620706662302997	20.4965432083135	161.600888355894	-29.6315275238832	120.515728882886	-8.90333937435378	-18.2715765951819	
2086250000	-15.1262397425752	1.83523857654755	20.4717043179315	158.552195264721	-29.0730639943165	109.069193214958	-9.42562411511934	-18.6586540986136	
2100000000	-16.2642574340286	-1.07848903018998	20.4069861333905	154.847572147179	-29.4672977278938	104.135273149691	-9.39811788282823	-23.6116366083861	
2113750000	-16.6620461199699	-6.09118625176877	20.3550972525492	152.12677505776	-29.2997444084131	107.487999214003	-9.86583405115585	-24.3439151426124	
2127500000	-16.4373717439687	-10.9088756066403	20.2321253835709	149.280316093771	-27.6591200428192	111.733083273687	-9.5487166725593	-28.8772304121015	
2141250000	-17.6650014697371	-19.5457557988832	20.1778424993746	145.722951604546	-28.4819753340458	95.4796007124177	-10.3081028493873	-32.5192488507153	
2155000000	-17.6169626122436	-22.8827999160143	20.1112562675198	143.95831922215	-29.1618933642788	97.4539890173622	-10.1573498267335	-33.1669238683244	
2168750000	-16.2294097146322	-27.3820226600207	20.114488499911	140.347787746284	-30.2918203212541	87.2266902477911	-9.93947127673924	-36.266681869275	
2182500000	-18.0695731524656	-30.5447017409857	20.0218473222023	137.943966082249	-29.1638765286436	87.7491958433733	-10.4942796282738	-40.9372218109698	
2196250000	-17.981705307327	-36.8677941251896	19.9276327809541	134.712769846583	-28.3405534822541	87.6262979931089	-10.8797697280855	-41.646702640018	
2210000000	-18.3762857483456	-44.8704836630441	19.8382723613585	131.835940582298	-28.6196432734326	82.5239904454256	-11.1954556176831	-43.8912202902457	
2223750000	-18.9526809804355	-62.0376320958059	19.8545522546203	129.056391772411	-27.6294882089799	75.5734248403612	-11.5104583564387	-45.9850247112835	
2237500000	-17.9297114517009	-54.9614659978607	19.6954812131753	126.383369665323	-28.2696267880935	89.6629239646118	-11.0493360756146	-53.8133941055965	
2251250000	-18.2818191785607	-58.4348308955793	19.6753936544433	123.800655529006	-29.0924689902446	77.8291893403986	-11.6512946216393	-55.0614876946529	
2265000000	-19.0566194706299	-69.0764073582898	19.5894822992644	120.427790947007	-28.3224004405683	86.1895622372036	-12.0890527703199	-56.1168446411463	
2278750000	-18.7526273704369	-76.7975948786676	19.4682010693261	117.618109610858	-28.8070299308333	72.1433697266675	-12.256229308814	-57.5444660448441	
2292500000	-17.5783564127989	-78.8179466702405	19.4087370917325	115.304752194512	-27.1335422986548	67.1489491327929	-11.6620917217062	-59.9678513322064	
2306250000	-18.3974836301997	-76.9053351399767	19.3647255300468	112.121284510564	-30.3070870014793	73.5734951113283	-13.019475939125	-63.1888664181559	
2320000000	-17.5245203514159	-88.0758207510562	19.3327882722652	109.361756160618	-28.401106032926	73.912013118091	-12.8882588049056	-66.5034574684287	
2333750000	-19.2984965915538	-97.4176254463583	19.3152720873765	106.3673205188	-27.2063483919524	53.478209614547	-13.9756641861939	-68.9964043569476	
2347500000	-18.5764465742073	-103.417557997602	19.1827474786321	103.622081679266	-27.9220260741258	54.7753748328037	-13.4646677800579	-72.0992424923417	
2361250000	-16.9873104006685	-105.593700486513	19.0890535670648	101.390022039398	-29.4932197847261	54.9931145507395	-13.3047272249716	-77.5392548920725	
2375000000	-17.4922156380864	-113.942943099187	19.0384324522993	98.1097244921518	-28.5934875469989	49.1303271731907	-13.7071568536894	-81.8388750848693	
2388750000	-17.2266073185677	-113.83238153598	18.9235331111155	95.2332485821148	-28.0342575907228	56.3425700969536	-14.4568327285825	-81.0121913134264	
2402500000	-17.1210898781969	-123.791190564754	18.8252918094811	92.4596363079996	-28.1430764122705	38.6864838342956	-15.1343601708407	-83.4632240867455	
2416250000	-16.4808086823327	-123.145201252845	18.8928450352583	90.3033402739904	-28.9751699564527	48.7250167278134	-14.539614273854	-89.0045451515358	
2430000000	-16.143868110549	-130.142171777113	18.7901215769273	87.355970957993	-28.9985467375125	46.7550003951742	-14.6605839345069	-90.5599019006154	
2443750000	-16.6875002025435	-128.134964039456	18.7000732319007	84.1491260075057	-28.3734355607391	26.6448203920137	-14.9396755644441	-93.6976961237556	
2457500000	-16.093575644904	-138.829968383814	18.6203970108004	81.7225956403036	-29.0073393901322	41.5596862968141	-15.6915943114804	-96.3237694063395	
2471250000	-15.9538319699035	-141.715665581298	18.5459758176474	78.5036195725146	-30.3089619182095	36.6908328823621	-17.0689577229401	-98.1132251994013	
2485000000	-16.1438248505973	-138.336130172326	18.4378776979154	76.2193338331205	-29.0822760437393	43.7102799341577	-16.3175316917399	-102.197551849026	
2498750000	-15.235922143727	-150.351412184658	18.4697543881418	73.074007321523	-29.6837722918251	34.5173552752052	-16.0754477987515	-105.661340155613	
2512500000	-15.4896821397684	-150.96701455529	18.3094629435891	70.5163783472695	-28.2868543986977	26.1577424716314	-17.2060237136423	-104.34806200896	
2526250000	-15.0664526114388	-156.216332199614	18.2870847984711	68.1324250696211	-28.2068341182807	24.5998674977006	-17.2548977494653	-108.879918663632	
2540000000	-15.1585717444936	-156.948123871902	18.2167835071867	64.8850131995667	-27.5217111853949	22.1778743960311	-17.6435221501732	-111.583158908652	
2553750000	-14.442343056292	-160.172215674472	18.1186651099042	62.4755056466073	-28.1949701637037	13.5371896978028	-16.9080934381173	-116.603451142741	
2567500000	-14.8879223394625	-167.941001996019	18.0779313829979	60.4112368733429	-29.8572242663911	15.0341653211349	-17.9225745774403	-121.704886186692	
2581250000	-14.5086844068758	-168.790678822949	17.9912505415215	57.5753912318531	-29.1498888150915	19.400472757238	-17.7717517651648	-125.354042698147	
2595000000	-14.2397784812714	-171.9153830811	17.8809581414757	54.9371769995232	-28.0033683280873	5.87613659297597	-18.8217984618562	-127.842513968776	
2608750000	-14.192311241725	-173.753468043169	17.8369096934837	52.0679958657596	-28.6468270973873	14.1089971643815	-18.3531975467173	-128.024398377421	
2622500000	-13.9398977749262	-174.949517065489	17.8199483016314	49.3050660277256	-27.4443829819917	19.6376004909613	-19.162039397374	-129.632237470085	
2636250000	-13.2153672416979	-179.888571046867	17.7658056322944	46.4426235453606	-27.8985104768385	12.2876378901494	-20.2489709040869	-133.902788645895	
2650000000	-13.3211479689507	178.679427871274	17.6851111154943	43.6949663831216	-29.3060117543873	4.44216276901663	-19.8108616538084	-133.656052680943	
2663750000	-13.5021410332651	174.295029886839	17.5791974117227	41.1387858816307	-29.1928943475584	-2.92499924651573	-20.1796649712706	-135.331651216449	
2677500000	-13.1671007253631	171.647651355128	17.453104432588	38.7844577365853	-29.6961716102744	-5.55613332132386	-20.8350586116006	-139.918544685622	
2691250000	-13.0367888949363	171.581389503864	17.3926037347658	36.2529474935665	-28.0721819823097	-14.8750229043857	-19.8431615557853	-140.896474195018	
2705000000	-12.3619925246594	168.717934961056	17.3719301030976	33.7399663337162	-28.7201130495968	-6.45435169224806	-19.7275814132004	-152.706728389843	
2718750000	-12.3436362083554	166.501634266425	17.2988587614114	30.6473806775934	-28.6096608130666	-6.59126028419387	-20.7158313366369	-148.196084692387	
2732500000	-12.1825175904663	164.82554529902	17.2004555453551	28.1548552461085	-28.5746687458442	-12.0104061268213	-20.4041601841611	-150.438211778587	
