Frequency (GHz)	DB(|S(2,1)|) : Single_Stage_Amp_Full_bias_at_6mA_Real	DB(|S(2,1)|) : Filter_Behind	DB(|S(2,1)|) : Filter_Ahead
0.1	-6.86406	1.14405	1.08721
0.2	-4.59241	2.53944	2.47793
0.3	-0.94861	5.27467	5.17754
0.4	2.33473	7.60376	7.45285
0.5	6.03619	10.3007	10.0737
0.6	9.42747	12.6347	12.4238
0.7	11.8343	13.9596	13.7953
0.8	14.2861	15.3801	15.4118
0.9	16.3426	16.6076	16.9165
1	18.5551	18.4047	19.0101
1.1	20.2819	19.9372	20.7984
1.2	21.5916	21.1165	21.8745
1.3	22.519	22.05	22.4312
1.4	23.2508	22.934	22.9903
1.5	23.3627	23.2106	23.2273
1.6	23.0905	22.996	23.2616
1.7	22.8146	22.671	23.2524
1.8	22.3748	22.1215	22.8349
1.9	21.9838	21.6474	22.1381
2	21.4848	21.1315	21.1711
2.1	20.7917	20.465	20.0681
2.2	20.4159	20.1491	19.4148
2.3	19.9259	19.7199	18.8368
2.4	19.4895	19.3246	18.5167
2.5	19.0945	18.9371	18.3364
2.6	18.7326	18.5549	18.231
2.7	18.3683	18.1776	18.0219
2.8	18.0082	17.8203	17.6399
2.9	17.6437	17.4759	17.0743
3	17.0956	16.9268	16.2349
3.1	16.6863	16.5128	15.5714
3.2	16.4177	16.2105	15.1714
3.3	16.0984	15.7919	14.8487
3.4	15.7987	15.3387	14.6566
3.5	15.2717	14.6439	14.3641
3.6	15.0372	14.2444	14.3659
3.7	14.7636	13.8958	14.3085
3.8	14.5396	13.664	14.2476
3.9	14.268	13.4963	14.0248
4	13.997	13.4246	13.7007
4.1	13.7061	13.3639	13.2195
4.2	13.376	13.165	12.5838
4.3	12.8367	12.5703	11.7786
4.4	12.3653	11.8322	11.124
4.5	11.8491	10.9891	10.6173
4.6	11.2815	10.236	10.4431
4.7	10.6558	9.67522	10.4065
4.8	9.77502	9.16348	10.1106
4.9	8.9506	8.83329	9.48535
5	8.2343	8.27556	8.33349
5.1	7.5335	6.94456	6.86234
5.2	6.46811	4.52369	5.20034
5.3	5.78124	2.26674	4.28548
5.4	4.9712	0.0772662	3.96136
5.5	4.03849	-1.91317	3.90992
5.6	3.26726	-3.3997	3.5723
5.7	2.54452	-4.39768	1.51386
5.8	1.42927	-5.14001	-2.4014
5.9	0.706268	-4.75027	-5.67914
6	-0.0795564	-2.4745	-8.39951
6.1	-0.776228	-1.76715	-10.6792
6.2	-1.8136	-11.8337	-13.6611
6.3	-2.53523	-20.0488	-18.4389
6.4	-3.44264	-27.9603	-25.7686
6.5	-4.48415	-36.9119	-35.1559
6.6	-5.3929	-48.481	-47.3088
6.7	-6.44088	-45.376	-44.7257
6.8	-7.33771	-41.6122	-41.353
6.9	-8.408	-40.1039	-40.1526
7	-9.82432	-39.6489	-39.8763
7.1	-11.4257	-39.5593	-39.9508
7.2	-13.0785	-39.3842	-40.0527
7.3	-14.7299	-38.7087	-39.8939
7.4	-16.3414	-37.2779	-39.3175
7.5	-18.2952	-34.8689	-38.5405
7.6	-19.4945	-33.1366	-36.2711
7.7	-20.2782	-38.3027	-32.5707
7.8	-21.2312	-43.5753	-27.683
7.9	-21.76	-47.0845	-24.0797
8	-21.6916	-49.1505	-27.0949
8.1	-22.1814	-51.2556	-34.8957
8.2	-22.3722	-52.6348	-41.14
8.3	-22.8427	-53.926	-46.8552
8.4	-23.3401	-55.0105	-51.4831
8.5	-23.4648	-55.3326	-55.132
8.6	-24.0982	-56.0189	-58.9917
8.7	-23.8146	-55.6547	-61.757
8.8	-24.1848	-55.2565	-64.6367
8.9	-24.1781	-53.8597	-66.6529
9	-23.8841	-51.1499	-68.0558
9.1	-23.6647	-45.8291	-67.5768
9.2	-23.9838	-43.6361	-66.4008
9.3	-23.5935	-46.097	-64.9314
9.4	-23.3774	-49.3309	-64.6042
9.5	-22.572	-51.9572	-64.1297
9.6	-22.3784	-54.7405	-63.8441
9.7	-21.4139	-56.4474	-62.4353
9.8	-21.8093	-59.9393	-63.0108
9.9	-21.2085	-61.7763	-65.0587
10	-22.7285	-66.2786	-72.5824
10.1	-23.2276	-69.831	-79.2186
10.2	-23.8202	-73.9531	-86.1377
10.3	-25.1015	-76.2124	-90.4637
10.4	-26.6234	-75.0434	-90.8134
10.5	-27.3325	-73.1798	-89.8411
10.6	-32.7177	-74.3349	-91.2459
10.7	-29.6635	-68.6894	-86.253
10.8	-29.785	-65.3511	-83.0606
10.9	-29.569	-61.3642	-80.1741
11	-30.6621	-56.0885	-77.1152
11.1	-33.5625	-48.6684	-75.8363
11.2	-33.1697	-58.8591	-70.439
11.3	-34.3417	-65.066	-65.4783
11.4	-34.6732	-68.2335	-57.363
11.5	-35.4478	-70.9553	-49.3751
11.6	-36.3417	-73.04	-51.9871
11.7	-36.9552	-74.4772	-52.8859
11.8	-37.006	-74.9097	-50.9607
11.9	-37.6338	-75.7103	-54.3115
12	-37.0982	-75.2495	-59.0244
12.1	-36.8889	-75.3913	-63.0114
12.2	-37.1703	-75.9965	-66.3444
12.3	-37.286	-76.4643	-68.8028
12.4	-37.772	-77.3281	-71.1145
12.5	-37.468	-77.3975	-72.2646
12.6	-37.3695	-77.6976	-73.346
12.7	-37.679	-78.4581	-74.6137
12.8	-37.6921	-78.84	-75.4187
12.9	-37.585	-79.1433	-75.9783
13	-37.4747	-79.3968	-76.417
13.1	-37.6812	-79.9598	-77.0942
13.2	-37.345	-79.9956	-77.194
13.3	-37.0077	-79.9028	-77.2119
13.4	-37.0342	-80.4079	-77.5397
13.5	-36.9123	-80.6018	-77.6912
13.6	-37.2144	-81.0977	-78.249
13.7	-37.5322	-81.6031	-78.7703
13.8	-37.6017	-81.9565	-79.0208
13.9	-38.1615	-82.5182	-79.7607
14	-38.1763	-82.8195	-79.9677
14.1	-38.966	-83.4854	-80.9234
14.2	-39.1671	-83.7925	-81.2948
14.3	-39.7287	-84.3348	-81.9892
14.4	-40.1645	-85.0269	-82.5736
14.5	-40.7747	-85.3137	-83.3431
14.6	-41.4151	-85.9711	-84.1558
14.7	-42.0377	-86.5572	-84.9088
14.8	-42.3856	-86.6212	-85.3778
14.9	-43.0473	-87.148	-86.2166
15	-43.6303	-87.5891	-86.9203
15.1	-44.1214	-87.9288	-87.5338
15.2	-44.561	-88.3633	-88.1455
15.3	-45.1021	-89.1554	-88.8265
15.4	-45.4399	-89.6344	-89.2613
15.5	-46.4261	-90.9731	-90.4111
15.6	-46.977	-91.6752	-91.1598
15.7	-47.6189	-92.4998	-91.9551
15.8	-48.4686	-93.5358	-92.9399
15.9	-49.8351	-94.8569	-94.4293
16	-50.6033	-95.5876	-95.3742
16.1	-51.8948	-97.0075	-96.802
16.2	-52.742	-97.8794	-97.7631
16.3	-53.7512	-98.9052	-98.913
16.4	-54.894	-100.11	-100.195
16.5	-55.8068	-101.022	-101.197
16.6	-56.5846	-101.818	-102.104
16.7	-57.7502	-103.072	-103.401
16.8	-58.4637	-103.765	-104.244
16.9	-59.9702	-105.309	-105.904
17	-61.7177	-107.015	-107.772
17.1	-63.5732	-108.906	-109.784
17.2	-65.3291	-110.634	-111.699
17.3	-66.722	-112.068	-113.217
17.4	-67.0453	-112.378	-113.746
17.5	-66.8562	-112.128	-113.718
17.6	-64.1885	-109.395	-111.19
17.7	-61.1327	-106.403	-108.264
17.8	-58.8221	-104.102	-106.107
17.9	-57.7346	-103.082	-105.088
18	-57.0643	-102.543	-104.518
18.1	-56.6307	-102.179	-104.201
18.2	-56.1329	-101.762	-103.858
18.3	-55.3817	-101.071	-103.369
18.4	-54.6347	-100.462	-102.837
18.5	-54.2124	-100.213	-102.601
18.6	-53.1661	-99.2801	-101.843
18.7	-51.7232	-97.9146	-100.598
18.8	-50.0147	-96.2173	-99.0821
18.9	-48.5186	-94.7339	-97.8247
19	-47.2579	-93.198	-96.6642
19.1	-48.5028	-94.5537	-98.0372
19.2	-49.7428	-96.1182	-99.5764
19.3	-51.8742	-98.4016	-102.035
19.4	-53.9823	-100.84	-104.55
19.5	-55.939	-102.894	-106.914
19.6	-57.6412	-104.879	-108.974
19.7	-58.7855	-106.147	-110.6
19.8	-60.2297	-107.747	-112.364
19.9	-59.9736	-107.674	-112.438
20	-61.6634	-109.523	-114.52
