!Keysight Technologies N9917A: A.08.15
!Date: Friday, 13 October 2017 17:26:18
!Timezone: (GMT-08:00) Pacific Time (US & Canada)
!Model: N9917A
!Serial: MY53102735
!GPS Latitude: 
!GPS Longitude: 
!GPS TimeStamp: 0001-01-01 00:00:00Z
!GPS Seconds Since Last Read: 0
!CHECKSUM:0366163264
!Correction: S11(ON U)S21(ON U)S12(ON U)S22(ON U)
!S2P File: Measurements:S11,S21,S12,S22:
# Hz S DB R 50
1000000000	-2.64760303767088	-105.997454481358	19.2639417433542	60.5340390315526	-36.7128064526658	-22.786456110871	-5.14077369520186	-129.428902607599	
1013750000	-2.55663379074456	-109.733128135391	19.4454618480502	56.8031879341451	-33.7733804688638	-20.2730625863681	-5.27005662284509	-133.215310778017	
1027500000	-2.39787434810257	-116.754881163386	19.7755998220703	51.6713777734417	-34.8601786902473	-16.4872055492765	-5.26943016794345	-137.554437363787	
1041250000	-2.58240424068178	-120.889768388988	19.81393990759	47.721727139627	-36.419461592993	-22.4463367530718	-5.28685478444099	-138.601108626748	
1055000000	-2.49733063459388	-124.911490724795	19.9447680083257	43.227508561194	-32.0461660370034	-10.482490494594	-4.82045111561246	-144.728803544657	
1068750000	-2.37454426856194	-129.928426987947	19.9796470818501	38.9216452930183	-32.3388187081248	-35.5492970729625	-5.09644708276483	-147.078663762498	
1082500000	-2.50221175225211	-135.036035145607	19.7999165618482	34.3117285751627	-33.7504871535192	-40.0101552609406	-4.85374702745647	-151.23061760668	
1096250000	-2.42994775421431	-140.357910140448	19.7529087408498	31.1280644637858	-31.773788862016	-35.9611332840197	-5.09420039180386	-153.839497594227	
1110000000	-2.29193627826965	-146.937992045525	19.9283099002322	26.1013145411823	-32.8152110711252	-65.3005604781033	-4.74790058180033	-159.515891093769	
1123750000	-2.15199584006984	-152.129426076326	19.9426853270566	20.4542333014932	-32.935621753412	-45.9272945812321	-4.81480811913656	-160.70165791636	
1137500000	-2.45149057525079	-159.127941838256	19.9662519041233	15.3754565093919	-32.5579280466638	-56.2223827349456	-4.82905972332503	-165.136365761704	
1151250000	-2.28793725646275	-164.813635310465	19.7442972949067	11.0868979680453	-32.646442064572	-59.8397270561043	-4.75496960649292	-168.205955810089	
1165000000	-2.55707464343745	-171.600481380157	19.4423707149069	6.09885779336096	-33.6158701652903	-72.9938921213404	-4.76804053166314	-171.522828997592	
1178750000	-2.80092826698666	-179.981886582286	19.0590057951154	1.87156361886033	-33.4972541080478	-77.6264969214969	-4.66228531539284	-173.412299801735	
1192500000	-3.35314215342113	171.19525116338	18.7457363342753	-3.35879769107123	-33.9911172588741	-65.0735353395495	-4.78252532310307	-176.509856796051	
1206250000	-3.726459692522	161.558475831391	18.2126533059028	-7.22781475915677	-34.5911067539068	-86.3524096456162	-4.66275891039209	-178.716043012756	
1220000000	-4.51890423110907	148.910365765914	17.4502684618753	-11.2547789807062	-36.0460078061155	-92.1571807187686	-4.70804197394304	178.379716472697	
1233750000	-5.75580181431438	136.625117427561	16.4444767809806	-12.0009984149301	-35.5335050259697	-62.518213490266	-4.10449428811434	175.832356613803	
1247500000	-7.92707100378356	120.726437461464	15.6017521804758	-8.54935757057767	-36.7881695206141	-108.792614076607	-4.07483424452908	174.40646841064	
1261250000	-11.7146173276645	105.765908475946	15.2123627137873	-0.884427517037659	-35.2174405272371	-71.0849787396063	-3.79626474793752	168.989677251148	
1275000000	-17.7934581939771	87.2151855676343	15.9436948482145	5.64404112539261	-36.128733689795	-51.6430779576226	-3.49607701704373	164.05994328796	
1288750000	-32.2916324913221	-67.3822318612235	17.0914986052082	6.0563158008525	-36.379713259321	-80.0485304314027	-3.08634900596049	158.721355879313	
1302500000	-17.8613578217526	-100.780445666649	17.9430263966547	3.68188687943248	-32.1718565053592	-48.227196851306	-3.32046722411786	155.313273392283	
1316250000	-11.9489471114612	-114.739448992222	18.6828353372742	0.788494087746908	-32.3250045880819	-65.8438624797327	-3.40520470113924	150.245574462944	
1330000000	-10.4664724396796	-127.741857518923	19.2889581766173	-3.99692759842647	-33.481599754159	-78.3422513283983	-3.59124902839356	145.358309361381	
1343750000	-9.20557223371967	-131.371730160348	19.5597266519637	-9.83269731049092	-35.0498523557563	-84.4372201972827	-3.62797765600553	141.370040558951	
1357500000	-7.84489601272587	-141.517833384429	19.6548103207627	-14.7896445253008	-30.729223900875	-81.2592501756139	-4.06667389670174	136.578426277634	
1371250000	-7.26454564985183	-145.022388882301	19.6215655483003	-18.3881150908506	-32.702807137734	-89.7795586697872	-4.36195124894558	133.176417478628	
1385000000	-6.35861557814748	-151.22152127505	19.6075621960161	-20.5772945570631	-31.5913581464495	-103.088840033392	-4.50181422623589	133.346063516256	
1398750000	-6.18259496470589	-158.730448340307	19.9435868153827	-24.4249342830115	-32.6988556258362	-101.042795402785	-4.62949066640592	129.660346354077	
1412500000	-5.63868192741922	-162.536571541935	19.9725728340296	-28.3480455494976	-31.0334527708055	-108.857900136938	-4.74720988680029	127.857731702269	
1426250000	-4.99549994889481	-169.658870883279	20.155644046933	-30.7673169275469	-30.327154296975	-89.8062960464011	-4.47034950460403	127.479406762344	
1440000000	-4.96986997007885	-175.278503322746	20.424339401604	-33.6221668547049	-31.863793724887	-97.3431794762331	-4.04603884835147	126.005085877793	
1453750000	-4.88614253509036	-178.596519278109	20.6309805617731	-36.4593756269395	-31.2944595319309	-109.217108571065	-3.69165454567641	122.061148092815	
1467500000	-5.06648419311641	175.226979843233	20.8973191255376	-41.719093355632	-29.9251371869385	-103.496904185797	-3.93739212219946	116.89522278906	
1481250000	-4.83441478330128	171.456609298208	20.9366608385309	-45.9428049909979	-29.8882969351725	-115.022051928171	-3.96833445525887	114.417730633978	
1495000000	-4.69769386351871	167.266268356002	21.0450570419743	-50.0816125032565	-30.1634241283454	-114.273869249133	-3.90984494810577	111.983212149367	
1508750000	-4.58303503362373	161.401933341675	21.1058771482416	-54.0066243636625	-28.9567136044343	-127.371498551569	-4.02878011856609	108.514988526899	
1522500000	-5.01911329281706	154.865280519123	21.1033740280834	-58.1709991106557	-28.8220518591342	-121.537727138597	-3.92549879547433	103.199165545436	
1536250000	-4.84813349711762	154.977543720374	21.0936902427195	-61.989730653149	-29.636973649822	-116.087661781482	-3.68350453689185	97.4179457992519	
1550000000	-5.00850835915212	151.23179184545	21.1564556085113	-65.8299212775776	-29.0930831346079	-133.042731143044	-3.82439607518871	95.6756448802549	
1563750000	-5.00997362268476	145.265727646856	21.3175537148247	-70.1330247642006	-28.559669925357	-128.389643023089	-3.95081898444333	93.6866021910619	
1577500000	-5.09244611783264	141.924528552775	21.2990660016708	-74.0616982151027	-29.6479604379994	-133.917601788859	-4.15973843961559	89.3922564015528	
1591250000	-5.10806990822925	138.877302952266	21.2996263151361	-78.3047724374686	-27.4572663210633	-147.529691342106	-4.17875778485163	84.6117673535901	
1605000000	-5.60729818604703	134.625474648659	21.246414123995	-80.8898091209727	-28.8448184283104	-153.238581075813	-4.31470705599188	83.8347930200078	
1618750000	-5.31954888889217	131.585652694469	21.204903757568	-84.621018613368	-28.6027100071362	-150.451014560752	-4.12740215020857	80.1699202052717	
1632500000	-5.62318361943153	129.944133721405	21.1908748463854	-87.6839760715552	-28.5009466866357	-150.137305681135	-4.24601756801413	75.5918510350598	
1646250000	-5.90145856707122	126.777544636755	21.2314863606787	-91.9774894372065	-28.0262554435192	-158.104679999671	-4.18221293380029	74.1263721548838	
1660000000	-5.78708733417005	122.356843913948	21.1495641802574	-95.3914430370865	-28.2040053571674	-159.252023922339	-4.39879464853386	70.1955852153855	
1673750000	-6.1337526815017	120.575195860417	21.2404517190315	-98.9869157146862	-28.0870687716381	-163.17701937053	-4.40819816697305	67.5351049299107	
1687500000	-6.1318093232797	115.569549586352	21.1693248972857	-101.98816764104	-28.5734571652065	-170.889502802801	-4.65020372032704	65.2406641498822	
1701250000	-6.21446590337771	112.846795307534	21.0995900850585	-106.201305441087	-27.1902217799318	-170.632660138003	-4.81491371236823	59.4892618014789	
1715000000	-6.47204010629439	108.920751939349	21.1143672853717	-109.381681948719	-28.4592224986061	177.339350850794	-4.58596794349804	58.7354093718633	
1728750000	-6.4244229917773	107.390222294695	21.0735503991932	-112.532349576659	-27.2886553611557	-177.182900749946	-4.85913329754131	56.7263797037847	
1742500000	-6.61376276181856	103.203582908832	21.0685052464817	-116.030840729375	-28.1354396671872	-178.031974684415	-4.91485307423135	50.7901255558822	
1756250000	-6.82338320755214	102.867045295793	21.002558444012	-119.518777683807	-27.7144409115777	-178.003121213014	-4.93053127868868	49.475418022261	
1770000000	-7.04315091484988	97.59520421237	20.9460471703792	-122.753814881034	-27.2159031261838	177.339479491181	-5.10204822944507	44.9007110555477	
1783750000	-7.05025685558896	94.9187682008488	20.9588832889494	-125.493013158682	-28.2413868258783	178.103964759486	-5.08748378799972	43.075195498342	
1797500000	-7.70245147206813	93.0406433347546	20.8316163439974	-129.501480944475	-28.0904435262945	172.400791583768	-5.30503623506413	39.0979932376644	
1811250000	-7.59067025909844	87.4732732346256	20.922744460866	-131.906223404026	-27.31744655544	173.093043193218	-5.44678463955237	35.1590899903877	
1825000000	-7.96362723298169	86.5736299939911	20.9584078200618	-135.663297063289	-28.8357076713429	160.624391380956	-5.56888415487359	32.2223292400951	
1838750000	-8.12609315226661	82.2268533994994	20.7449761092085	-139.231698990083	-27.7589494877755	159.231315610504	-5.79087598039867	29.6993419323742	
1852500000	-8.19772455459641	79.3717184008945	20.768276399256	-142.216476222185	-26.657315559837	157.488266976968	-5.49644149548574	27.9670177308481	
1866250000	-8.40202216707514	74.8207588624177	20.7723958843716	-145.6663006983	-26.2619449942728	156.655025235882	-5.61276904933461	23.1665616943645	
1880000000	-8.28587040233565	73.3442330911892	20.6559665666809	-148.217531027327	-27.36606326549	151.27886960153	-6.11146179372216	21.2961886364021	
1893750000	-8.36408775644321	69.4940004142289	20.537072581909	-151.383143981052	-27.3418684938105	150.882084260252	-6.28279693633421	19.3341544864665	
1907500000	-8.83643396964701	67.3799969186362	20.6577075258293	-154.751661777181	-26.1971727555489	150.05889561889	-6.64378820627369	16.4949708992213	
1921250000	-9.01417203429839	63.0740113300676	20.5051046964007	-158.306021754352	-27.9568275324328	145.8926554609	-6.58250121592851	13.4465697086172	
1935000000	-9.45090927975398	61.6172949949231	20.4642800440467	-161.893530731507	-26.697280922495	138.582810800138	-6.59049301378823	9.82284405986932	
1948750000	-9.46000716601416	55.0831795270069	20.389312367055	-164.364566502931	-26.9398283674688	134.755444664077	-6.87980242494444	6.0615458947365	
1962500000	-9.75835922468251	55.5090223734816	20.325055737254	-167.191906309208	-26.9192438454632	134.673659216311	-7.0692259931613	3.59030081550468	
1976250000	-9.63998704961386	52.3521262394138	20.2408098709617	-170.563970592477	-27.5827729433309	134.061332057795	-6.96223096913525	-1.07431408757822	
1990000000	-10.1741403037342	48.4664790515712	20.2399658362828	-174.026239217583	-28.0101916552666	131.752004952164	-7.20201365310613	-2.81947656932155	
2003750000	-10.1166657822837	46.4133887858959	20.2494389260903	-176.814787776522	-28.4508150406134	119.801552197401	-7.42402223944051	-5.26248685419303	
2017500000	-10.5881931627696	40.2403885207125	20.121238359626	179.554419903333	-26.8092791842514	122.542227576061	-7.66585224414146	-8.40198972350753	
2031250000	-11.0134222579405	37.6541063378018	20.0955975681913	176.106882481561	-29.0476245973708	118.375065527646	-8.03393268856287	-10.1209712361317	
2045000000	-10.8554983666105	34.0767917826297	20.1349236625069	174.218725137169	-26.9663533735267	118.313789526432	-7.93320426280002	-14.1001494090907	
2058750000	-11.0830645601874	31.5596838831279	20.1282076505747	171.024529981584	-27.8626436648362	113.434415613258	-7.90512640629879	-15.4773829368207	
2072500000	-12.1428438598683	31.779416557181	19.9636333532256	168.007511220161	-26.6109915679057	108.994565184214	-8.20510456642251	-18.5507285466907	
2086250000	-11.8868045400946	24.8584914693911	19.9208969395919	164.930714813189	-26.2201413692913	107.74322594475	-8.73040747452128	-20.4934784537987	
2100000000	-12.0695243981568	20.0084534246321	19.8488814221151	161.008864920616	-27.2462907105268	108.291918249714	-8.5849500103559	-25.3948939210411	
2113750000	-12.9271940068207	16.5556696695927	19.7899365456467	158.384567375738	-27.9639135263714	105.548171702101	-9.11657622687346	-28.0897327364919	
2127500000	-13.2556552507155	15.8830572842873	19.6669489467843	155.38469125576	-26.9396774970529	99.524875923635	-8.97688717101143	-32.3207310905519	
2141250000	-13.7564682437388	13.0325212700803	19.688544288133	151.839792908907	-27.3192982885812	91.8142482971222	-9.24575114055622	-34.1959956008089	
2155000000	-13.5247047927485	5.55665936901772	19.6290104102935	149.960510393257	-26.8414611568251	98.0485291403875	-9.75560225933196	-37.3834595476547	
2168750000	-14.1004778937405	1.13751561580871	19.6140985207377	146.309830897769	-27.3513956966655	92.5681402828089	-9.60496799563529	-39.7110837318273	
2182500000	-14.0982782881781	2.24754184335601	19.4946317221141	143.756729065071	-28.734053129294	86.6496903630563	-9.80575969440272	-42.9811877536935	
2196250000	-14.6693634387703	-4.04588970732188	19.4761116062973	140.349239748852	-27.4423726452229	88.201060975881	-10.0721957924806	-45.4985124583145	
2210000000	-15.2031278455422	-12.4094068182131	19.3459955108911	137.491276530421	-27.8810110880337	84.8784209532188	-10.4490817684765	-48.8668372338596	
2223750000	-14.7679273887924	-13.4082661381851	19.3765465983032	134.618271351256	-28.712577036044	71.4857575407317	-10.9403571138207	-50.3046250428083	
2237500000	-15.010000978603	-17.4728467362731	19.2355534518407	131.940453385226	-27.1699020484372	74.5360174573463	-10.9233365064217	-54.4519366836354	
2251250000	-15.6217049093761	-20.729756597121	19.177537540259	129.093985818887	-27.1776980536434	80.207270966364	-10.9813929530964	-58.9997794939583	
2265000000	-15.9457573986711	-26.5159565490394	19.1023948709557	125.739556526613	-28.4188232794659	76.3058330312395	-11.4005628006057	-61.7564891423174	
2278750000	-16.2042888986272	-35.8801588810328	18.985600801201	122.841043031168	-27.1782244015526	71.288754277549	-11.4857278973625	-64.0057781827347	
2292500000	-16.7613092895478	-35.6035620872691	18.8990742068017	120.330404250096	-26.1136902527118	71.6488424131071	-11.39317641503	-63.9582087142578	
2306250000	-16.6263708744949	-41.713365277653	18.8400116385293	116.81032528608	-28.5365442976727	56.3817348501172	-12.8430925045746	-72.6655751759943	
2320000000	-17.2396178304289	-44.1669087237499	18.8704566625137	114.260319225467	-27.4275767589708	67.3557304661787	-12.323799317463	-73.1827345964723	
2333750000	-17.680213890632	-50.5171168530719	18.8518321974691	111.405855527066	-27.8153057515056	59.9112021211515	-12.8177274358842	-78.004557050464	
2347500000	-17.8974868348649	-60.7000458864997	18.7228124667929	108.512471357993	-27.4229777918636	54.7377280949493	-12.9436202845565	-80.6818279403084	
2361250000	-17.3479546865274	-66.9140256523056	18.6367100963909	106.190003466689	-27.4403401551372	52.4256750369777	-12.5849049539282	-82.6726134888647	
2375000000	-17.8925715424672	-78.7335414414541	18.5846459924554	102.761195707591	-27.0364396884549	55.3870271974488	-13.6339040541561	-85.688645091937	
2388750000	-19.1909600902208	-72.3527631223299	18.445350887929	99.6340684215937	-27.895654319604	49.004142666204	-14.1020594189554	-87.8393280125353	
2402500000	-18.0755053507486	-81.311036951503	18.363571513898	97.067410140314	-27.4048603044117	39.4244083794332	-14.4594605611768	-90.6111371909985	
2416250000	-17.119588070567	-90.178412988323	18.4236901782052	94.8667724701088	-27.0316186211078	43.2760776224182	-14.0130773460445	-97.9590692893322	
2430000000	-18.0279809923508	-89.2613235748256	18.3190531337644	92.0362449524831	-27.6926929428004	35.1405606469643	-14.3817595599682	-99.0590302141039	
2443750000	-17.6919009510452	-97.2432421947221	18.2656073059477	88.6637146179131	-27.7468061365747	33.5118534730533	-14.6016457463473	-103.249204108263	
2457500000	-17.6692277534894	-106.076087163916	18.1566035714313	85.9673255539315	-27.8524772775011	36.0315553323098	-15.6164906595249	-105.635625952216	
2471250000	-18.68426056082	-108.625813183229	18.0689636279692	82.8381633262391	-27.1269666813262	43.5561764665696	-15.8598427772988	-102.850133993174	
2485000000	-17.7189923662306	-111.382498895788	17.9837630595223	80.3460724156797	-26.6879639897967	29.8373755226604	-15.8593833228356	-113.646630482522	
2498750000	-17.8843882341178	-121.177582024519	17.993853195854	77.416447582826	-28.9122541429608	19.8968956908125	-16.1057673916748	-117.708512246725	
2512500000	-17.0422370591541	-124.340406667746	17.8524646751121	74.5001307475531	-26.1621520609735	27.0632466504874	-17.1666132302762	-122.247820356622	
2526250000	-16.9311361037293	-127.225630359852	17.8336996642002	72.1193412107342	-27.6130575339574	17.972847608126	-17.0761147084275	-122.404867823341	
2540000000	-17.2351043455502	-135.620247183085	17.7780073178215	68.9781331588934	-27.596749996101	26.3483456875369	-17.5593228816199	-127.413456411294	
2553750000	-17.491509902834	-134.218283158682	17.6592418705306	66.4931800066845	-27.2706858247638	30.6232061977219	-18.1096947820136	-126.228153634933	
2567500000	-16.2172274951623	-143.644112502992	17.6176116181946	64.3585328909484	-27.1556137771909	8.91036482427397	-17.4899897701706	-137.053070459394	
2581250000	-16.4358826811699	-146.635612205608	17.5176169089872	61.513733748404	-27.5231475537686	18.0165207477984	-17.7043061710844	-135.742616920624	
2595000000	-16.4941412515264	-151.779652847822	17.4342733101103	58.6506748960919	-26.8997042061329	10.3801691490118	-18.4625435704372	-141.109634801892	
2608750000	-16.4741573896461	-154.846617519803	17.3550488617905	55.7525158098985	-27.5080664787984	9.77067793855204	-18.390946501613	-148.00850777715	
2622500000	-15.7453705720605	-153.850540788607	17.3494694952713	52.831791171002	-27.8517253004041	-1.39399868310307	-18.5640778304707	-146.8412866155	
2636250000	-15.3135250486802	-162.338447569461	17.332020097622	50.2345291858623	-27.8488797663472	-0.410807085996513	-18.1549631915463	-155.339533761486	
2650000000	-15.376018794871	-162.704756624979	17.2196580016258	47.1452288517721	-27.7540097535169	9.30744748818215	-19.7479120730352	-156.113246497711	
2663750000	-15.7514048714382	-167.681427571434	17.1018585028598	44.749748569115	-29.0657614377195	2.5836673697523	-20.38194496329	-158.577419049162	
2677500000	-15.7182160247621	-167.933684420345	16.9866049080746	42.1327203630241	-29.1424421439115	-7.42092257242009	-20.4745203257582	-161.245865075551	
2691250000	-14.5468750255712	-169.643810586495	16.9672204066049	39.6271327081237	-27.794592229313	-12.3403601074399	-20.3281416704895	-161.045565298039	
2705000000	-14.3826466447181	-174.960662041557	16.9504483688456	37.2111951444485	-27.6952827156864	-8.52807779010404	-19.6556966991685	-176.6064996258	
2718750000	-14.3921441854239	-177.403249385945	16.827938404915	34.2718833589051	-28.8568084773043	-12.8651149541191	-20.177560598937	-173.711355986095	
2732500000	-14.289416048451	178.567467332681	16.7855121562039	31.3446998767641	-27.713563346279	-10.2594963008405	-20.886304049855	-174.245248753064	
2746250000	-14.4834818673857	173.804752600505	16.6973221822839	29.1187227992961	-27.6704128606531	-26.4773604391745	-21.483617862229	177.489344565577	
