! Filename:  P:\Prog\Test\Noise\ATS_data\Testdata_Net\BFU730\BFU730_2W_B1_2V12mA_D.s2p
! Date/Time: Fri 29/Apr/2011 14:14:14
! BFU730_2W_B1_2V12mA
! bias mode 1: Vout= 2.0002 V, Iout=12.0450 mA, Vin= 0.8060 V, Iin= 0.0388 mA
! Date/time Thu Mar 17 10:05:47 2011
! Device data file deembeded for feedlines and parallel
! Original file: \BFU730\BFU730_2W_B1_2V12mA_R.s2p
! Feed-files: PR003V01_101208_Feed1.s2p, PR003V01_101208_Feed2.s2p
! Parallel-file: PR003V01_101208_Par.s2p
# MHz S MA R 50
!  Freq-MHz   S11-mag  S11-arg   S21-mag  S21-arg   S12-mag  S12-arg   S22-mag  S22-arg
         40   0.88374    -3.15    32.454   177.57 0.0013648    85.19   0.99486    -1.28
         50    0.8796    -4.47    32.525   176.54 0.0017041   100.10   0.99443    -1.90
         60   0.88116    -4.48    32.167   176.12 0.0021839    89.69   0.99622    -2.27
         70   0.88362    -5.45    32.233   175.90 0.0023833    87.06   0.99638    -2.80
         80   0.88278    -6.31     32.42   175.24 0.0027326    86.89   0.99618    -3.30
         90     0.882    -7.13    32.389   174.47 0.0031036    86.59   0.99562    -3.80
        100   0.88217    -7.83    32.237   173.99 0.0034049    86.58    0.9951    -4.26
        120   0.88092    -9.53    32.276   172.82 0.0041041    85.54   0.99417    -5.23
        140   0.87994   -11.09    32.196   171.67  0.004815    84.88     0.993    -6.19
        160   0.87836   -12.66    32.016   170.41 0.0054874    83.87   0.99097    -7.11
        180   0.87733   -14.27     31.98   169.35 0.0061791    83.19   0.98887    -8.05
        200   0.87513   -15.88    31.894   168.10 0.0068622    82.62   0.98661    -8.96
        220   0.87336   -17.48    31.857   166.96 0.0075323    81.70   0.98371    -9.90
        240   0.86998   -19.08    31.842   165.72 0.0082253    80.87   0.98092   -10.80
        260   0.86874   -20.61    31.595   164.58 0.0088895    80.12   0.97772   -11.71
        280   0.86604   -22.23    31.506   163.43  0.009564    79.42   0.97451   -12.60
        300   0.86335   -23.79    31.327   162.29  0.010218    78.52   0.97111   -13.53
        320   0.86019   -25.27    31.137   161.21  0.010862    77.79   0.96656   -14.42
        340    0.8568   -26.85    31.015   160.03  0.011499    76.97   0.96223   -15.29
        360   0.85465   -28.34    30.822   159.04  0.012137    76.16   0.95727   -16.15
        380   0.85067   -29.95    30.735   157.93  0.012753    75.40   0.95252   -17.00
        400   0.84627   -31.47    30.642   156.82  0.013362    74.50   0.94734   -17.82
        420   0.84208   -33.04    30.527   155.68  0.013994    73.82   0.94312   -18.63
        440   0.83891   -34.46    30.247   154.69  0.014602    72.92   0.93801   -19.49
        460   0.83506   -36.03    30.149   153.63  0.015193    72.28   0.93269   -20.28
        480   0.83131   -37.44    29.875   152.60  0.015792    71.44   0.92787   -21.14
        500   0.82651   -38.89    29.665   151.54  0.016304    70.62   0.92091   -21.96
        550   0.81596   -42.53    29.252   148.95  0.017655    68.86   0.90401   -23.82
        600    0.8041   -46.14    28.803   146.49  0.018998    67.13   0.88973   -25.64
        650   0.79352   -49.46    28.177   144.15  0.020237    65.47   0.87385   -27.47
        700   0.78242   -52.74    27.559   141.93  0.021391    63.81   0.85675   -29.21
        750   0.77112   -56.16    27.104   139.70  0.022523    62.37   0.84023   -30.75
        800   0.75912   -59.48    26.608   137.54  0.023636    60.93   0.82546   -32.24
        850   0.74821   -62.55    25.996   135.47  0.024662    59.47   0.80934   -33.81
        900   0.73672   -65.53    25.424   133.46  0.025533    58.22   0.79117   -35.20
        950   0.72601   -68.56    24.924   131.56  0.026442    57.11   0.77519   -36.46
       1000   0.71478   -71.39    24.387   129.69  0.027342    55.87   0.76027   -37.76
       1050   0.70323   -74.25    23.859   127.85  0.028125    54.74   0.74435   -38.99
       1100   0.69352   -76.93    23.335   126.15  0.028884    53.81   0.72895   -40.14
       1150   0.68285   -79.72    22.861   124.39  0.029612    52.88   0.71434   -41.16
       1200   0.67256   -82.26    22.367   122.78  0.030314    51.89   0.70048   -42.22
       1250   0.66335   -84.79    21.848   121.20  0.030975    50.96   0.68619   -43.30
       1300   0.65438   -87.24    21.382   119.66  0.031568    50.16   0.67188   -44.21
       1350   0.64584   -89.66    20.937   118.16  0.032155    49.45   0.65887   -45.10
       1400   0.63676   -92.07    20.494   116.70  0.032734    48.68   0.64599   -45.98
       1450   0.62848   -94.36    20.058   115.31  0.033256    47.95   0.63325   -46.81
       1500   0.62066   -96.51     19.63   113.96  0.033768    47.35   0.62133   -47.56
       1550   0.61381   -98.61    19.216   112.66  0.034278    46.76   0.61023   -48.25
       1600   0.60644  -100.64    18.807   111.41  0.034808    46.16   0.59943   -48.99
       1650   0.59953  -102.75    18.407   110.16   0.03524    45.61   0.58809   -49.68
       1700   0.59269  -104.70    18.044   108.92  0.035664    45.11   0.57757   -50.30
       1750   0.58612  -106.59    17.677   107.74   0.03611    44.63   0.56743   -50.97
       1800   0.58038  -108.59    17.316   106.58  0.036522    44.13    0.5576   -51.60
       1850   0.57421  -110.50    16.974   105.44  0.036918    43.67   0.54776   -52.19
       1900   0.56881  -112.28    16.646   104.32  0.037303    43.30   0.53912   -52.74
       1950   0.56298  -113.99     16.31   103.25  0.037654    42.90   0.53085   -53.33
       2000   0.55794  -115.68    15.976   102.22  0.038011    42.57   0.52132   -54.00
       2050   0.55367  -117.32    15.659   101.27  0.038381    42.22   0.51179   -54.47
       2100   0.54941  -118.96    15.366   100.29  0.038761    41.92   0.50413   -54.92
       2150   0.54569  -120.52    15.079    99.37  0.039091    41.67   0.49567   -55.42
       2200   0.54114  -122.12    14.807    98.46  0.039481    41.41   0.48807   -55.70
       2250   0.53615  -123.69    14.534    97.50  0.039845    41.08    0.4819   -56.25
       2300   0.53232  -125.16    14.262    96.62  0.040141    40.74   0.47457   -56.83
       2350   0.53006  -126.67    13.996    95.80  0.040397    40.55   0.46599   -57.37
       2400   0.52733  -128.14    13.755    94.99  0.040745    40.38   0.45788   -57.66
       2450   0.52312  -129.61    13.514    94.22    0.0411    40.26   0.45102   -57.96
       2500   0.51894  -131.16    13.295    93.42  0.041536    39.96   0.44414   -58.32
       2600   0.51335  -133.67    12.865    91.89  0.042161    39.51   0.43191   -58.86
       2700   0.50726  -136.34    12.456    90.35  0.042755    39.10   0.42056   -59.32
       2800   0.50259  -138.73    12.078    88.87  0.043328    38.73   0.40991   -59.76
       2900   0.49813  -141.19    11.708    87.48  0.043879    38.49   0.40014   -60.12
       3000   0.49353  -143.41    11.383    86.14  0.044499    38.28   0.39223   -60.63
       3100   0.49106  -145.65    11.075    84.71  0.045074    38.03   0.38474   -61.08
       3200   0.48709  -147.81    10.768    83.38   0.04567    37.79   0.37643   -61.62
       3300   0.48544  -149.91    10.487    82.09  0.046247    37.59   0.36879   -62.27
       3400   0.48163  -152.02    10.218    80.75  0.046868    37.42   0.36194   -62.93
       3500   0.47945  -154.00    9.9639    79.47  0.047499    37.25   0.35466   -63.44
       3600   0.47757  -156.13    9.7115    78.20  0.048088    37.09   0.34714   -63.85
       3700     0.475  -157.84     9.474    76.95  0.048671    36.96   0.34062   -64.18
       3800   0.47324  -159.97    9.2538    75.69   0.04932    36.81   0.33399   -64.76
       3900   0.47132  -161.58    9.0346    74.52   0.04998    36.71   0.32859   -65.28
       4000    0.4698  -163.62    8.8223    73.31  0.050609    36.51   0.32241   -65.83
       4100   0.46822  -165.13    8.6229    72.21  0.051218    36.45   0.31636   -66.05
       4200   0.46661  -166.97    8.4351    71.03  0.051889    36.27   0.31122   -66.56
       4300   0.46577  -168.51    8.2558    69.91  0.052606    36.15   0.30649   -67.12
       4400   0.46449  -170.30    8.0781    68.77  0.053293    35.91   0.30188   -67.60
       4500   0.46332  -171.71    7.9105    67.70  0.053983    35.79   0.29763   -68.00
       4600   0.46317  -173.38    7.7478    66.64  0.054607    35.59   0.29258   -68.46
       4700   0.46283  -174.83    7.5979    65.54   0.05526    35.45   0.28745   -69.06
       4800   0.46198  -176.53    7.4425    64.45  0.055907    35.22   0.28352   -69.69
       4900   0.46116  -178.05    7.3023    63.37  0.056547    35.09   0.27948   -70.11
       5000   0.46041  -179.52    7.1615    62.36  0.057256    34.99    0.2749   -70.41
       5200   0.45926   177.76    6.8931    60.27  0.058598    34.62   0.26712   -71.60
       5400   0.45889   174.93    6.6535    58.29  0.059982    34.22   0.25974   -72.30
       5600   0.45833   172.29    6.4204    56.27  0.061318    33.87   0.25207   -73.61
       5800   0.45767   169.68    6.2034    54.37  0.062637    33.54    0.2454   -74.23
       6000   0.45822   167.31    6.0076    52.43  0.064039    33.18   0.23902   -75.53
       6200   0.45923   165.05    5.8221    50.58  0.065484    32.85   0.23342   -76.36
       6400    0.4601   162.64    5.6459    48.70  0.066929    32.48   0.22681   -77.55
       6600   0.46087   160.18    5.4822    46.84   0.06845    32.05   0.22162   -78.55
       6800   0.46233   158.03    5.3353    45.05  0.070006    31.54   0.21632   -79.74
       7000   0.46278   155.93    5.1835    43.23  0.071487    31.29   0.21105   -80.99
       7200   0.46487   154.04    5.0591    41.48  0.073305    30.83   0.20712   -82.04
       7400   0.46686   151.77    4.9308    39.50  0.074874    30.12   0.20138   -83.87
       7600   0.46972   150.00    4.8193    37.71  0.076707    29.75   0.19789   -85.18
       7800   0.47067   147.22    4.6791    35.69  0.077952    28.84   0.18845   -87.37
       8000   0.46929   145.85    4.5748    34.47  0.079659    28.94   0.18703   -86.78
       8200   0.47558   143.50    4.4749    32.19  0.081704    27.91   0.18038   -90.19
       8400    0.4773   141.61    4.3709    30.60  0.083478    27.56   0.17808   -90.91
       8600   0.47718   139.38    4.2508    28.74  0.084639    26.37   0.16754   -93.47
       8800   0.47706   137.71    4.1591    27.04  0.086445    26.01   0.16407   -94.84
       9000    0.4806   136.63    4.0828    25.60  0.088315    25.71   0.16122   -96.31
       9200   0.48267   134.68    3.9948    23.85  0.089901    24.88   0.15358   -98.68
       9400   0.48663   132.98     3.914    22.08  0.091554    24.16   0.15025  -100.46
       9600   0.49193   131.33    3.8404    20.47  0.093418    23.68    0.1429  -102.66
       9800   0.49609   129.46      3.78    18.77  0.095162    23.17   0.13992  -104.01
      10000    0.5015   127.82    3.7152    16.97  0.098196    22.37   0.13951  -106.36
      10200   0.50616   125.69    3.6399    15.12  0.099881    21.17   0.13091  -110.87
      10400   0.50811   124.12    3.5657    13.40   0.10158    20.32   0.12852  -113.04
      10600   0.50941   122.29    3.4948    11.75   0.10329    19.42   0.11952  -116.59
      10800   0.51083   120.95    3.4447    10.14   0.10521    18.73   0.11857  -118.70
      11000   0.51621   119.14    3.3808     8.52   0.10724    17.96    0.1126  -120.96
      11200    0.5222   117.53    3.3511     6.81   0.10937    17.16   0.11359  -125.52
      11400   0.52585   115.80    3.2809     4.93   0.11135    16.00   0.10716  -129.30
      11600   0.52974   113.96    3.2226     3.42   0.11279    15.11   0.10249  -134.37
      11800   0.53496   112.65     3.178     1.66   0.11514    14.21  0.099728  -136.80
      12000   0.53551   111.16    3.1375     0.30    0.1163    13.37  0.093493  -141.89
      12200   0.54395   109.13    3.1035    -1.81   0.11911    12.58  0.094541  -144.59
      12400   0.54406   107.21    3.0463    -3.69   0.12134    11.34  0.089674  -151.76
      12600   0.54618   105.54    2.9855    -5.03   0.12218    10.56  0.083338  -156.14
      12800   0.55595   104.63    2.9655    -6.55   0.12546     9.85  0.081055  -157.05
      13000   0.55381   102.54    2.9204    -8.39   0.12638     8.48  0.081002  -164.00
      13200   0.55933   101.64    2.8605   -10.13   0.12834     7.46  0.079105  -170.82
      13400   0.56335   100.08    2.8374   -11.91   0.13117     6.31  0.085793  -175.89
      13600   0.57103    98.43    2.8065   -13.75   0.13256     5.36  0.087855   177.17
      13800   0.57106    96.84    2.7567   -15.45   0.13508     4.29  0.090253   169.71
      14000   0.57941    95.13    2.7291   -16.80   0.13625     3.17  0.094062   161.83
      14200    0.5855    93.98    2.6964   -18.64   0.13844     2.39  0.093925   155.77
      14400   0.58857    91.54    2.6575   -20.44   0.14023     1.19   0.10479   148.36
      14600   0.59459    90.18    2.6306   -22.06    0.1427     0.42   0.10069   142.67
      14800    0.5967    88.32    2.5987   -23.73   0.14489    -0.73   0.10946   137.77
      15000   0.60528    87.17    2.5652   -25.48     0.147    -1.91   0.10977   133.23
      15200   0.60765    85.84    2.5422   -27.12   0.14931    -3.17   0.11695   131.01
      15400   0.62027    84.35    2.5192   -28.85   0.15089    -4.26   0.12301   126.72
      15600   0.62248    83.38     2.491   -30.72   0.15342    -5.41   0.12886   124.20
      15800   0.63126    81.51    2.4715   -32.33   0.15458    -6.78    0.1368   120.76
      16000   0.64389    80.26    2.4504   -34.54   0.15697    -7.71   0.14346   117.44
      16200   0.65158    78.35    2.4287   -36.58   0.15897    -8.83   0.14916   114.35
      16400   0.66024    76.74    2.3834   -38.64   0.16104    -9.72   0.15254   111.30
      16600   0.66047    75.17    2.3472   -40.19   0.16411   -11.08     0.163   110.77
      16800   0.66548    73.38    2.3159   -41.66   0.16543   -12.10   0.16824   105.84
      17000   0.66626    71.69    2.3052   -43.33   0.16818   -13.45   0.18137   105.39
      17200    0.6686    69.85     2.285   -45.27   0.17045   -14.56   0.18697   100.49
      17400   0.67532    67.61    2.2713   -47.60   0.17201   -15.85   0.20038    99.51
      17600   0.67351    66.10    2.2282   -49.33   0.17521   -16.71   0.20426    94.73
      17800   0.67569    64.50    2.2129   -51.29   0.17824   -18.32   0.21174    93.10
      18000   0.68626    63.53    2.1715   -53.32   0.18018   -19.86   0.21521    92.16
      18200   0.69373    61.31    2.1566   -55.58   0.18238   -21.14   0.22747    90.03
      18400   0.70171    59.93    2.1072   -57.85   0.18427   -22.51   0.23215    89.00
      18600   0.69401    58.66    2.0492   -59.26   0.18535   -23.66   0.24765    87.37
      18800   0.70275    56.49    2.0202   -60.92   0.18783   -24.94   0.25808    85.61
      19000   0.69791    55.31    1.9955   -62.26   0.19172   -26.14   0.26609    83.49
      19200   0.70454    53.69    1.9685   -63.99   0.19445   -27.86   0.27268    81.60
      19400   0.71056    52.74    1.9417   -65.17   0.19657   -29.24   0.27745    80.48
      19600    0.7174    51.55    1.9139   -66.77   0.19768   -31.59    0.2914    81.24
      19800   0.74352    51.01    1.9195   -68.00   0.19697   -32.22   0.30995    77.71
      20000   0.75458    48.28    1.9141   -70.33   0.19908   -33.02   0.31304    76.54

!  
! Device Noise Parameters
!  Freq-MHz   Fmin-dB  Gopt-mag  Gopt-arg   rn_normalized
	400	0.6216	0.27932	3.10	0.1142
	420	0.6223	0.27795	3.54	0.1143
	440	0.6230	0.27661	3.99	0.1144
	460	0.6237	0.27527	4.43	0.1145
	480	0.6245	0.27396	4.88	0.1146
	500	0.6252	0.27265	5.32	0.1147
	550	0.6270	0.26946	6.45	0.1149
	600	0.6288	0.26636	7.58	0.1151
	650	0.6306	0.26335	8.72	0.1153
	700	0.6325	0.26043	9.86	0.1154
	750	0.6343	0.25759	11.01	0.1156
	800	0.6362	0.25484	12.17	0.1157
	850	0.6381	0.25218	13.33	0.1159
	900	0.6399	0.24960	14.49	0.1160
	950	0.6418	0.24710	15.66	0.1160
	1000	0.6437	0.24468	16.83	0.1161
	1050	0.6456	0.24233	18.01	0.1162
	1100	0.6475	0.24006	19.19	0.1162
	1150	0.6494	0.23786	20.37	0.1163
	1200	0.6513	0.23574	21.55	0.1163
	1250	0.6533	0.23368	22.73	0.1163
	1300	0.6552	0.23170	23.92	0.1163
	1350	0.6572	0.22977	25.11	0.1163
	1400	0.6591	0.22792	26.29	0.1163
	1450	0.6611	0.22612	27.48	0.1162
	1500	0.6631	0.22438	28.66	0.1162
	1550	0.6650	0.22271	29.85	0.1161
	1600	0.6670	0.22108	31.03	0.1160
	1650	0.6690	0.21952	32.22	0.1159
	1700	0.6710	0.21800	33.40	0.1158
	1750	0.6731	0.21653	34.57	0.1157
	1800	0.6751	0.21512	35.75	0.1156
	1850	0.6771	0.21375	36.92	0.1154
	1900	0.6792	0.21242	38.10	0.1153
	1950	0.6812	0.21113	39.26	0.1151
	2000	0.6833	0.20989	40.43	0.1150
	2050	0.6853	0.20869	41.59	0.1148
	2100	0.6874	0.20752	42.75	0.1146
	2150	0.6895	0.20639	43.90	0.1144
	2200	0.6916	0.20529	45.05	0.1142
	2250	0.6937	0.20422	46.19	0.1140
	2300	0.6958	0.20318	47.34	0.1137
	2350	0.6979	0.20218	48.47	0.1135
	2400	0.7000	0.20119	49.61	0.1132
	2450	0.7022	0.20024	50.74	0.1130
	2500	0.7043	0.19931	51.86	0.1127
	2600	0.7086	0.19751	54.10	0.1122
	2700	0.7129	0.19579	56.32	0.1116
	2800	0.7173	0.19415	58.53	0.1109
	2900	0.7217	0.19256	60.72	0.1103
	3000	0.7262	0.19102	62.90	0.1096
	3100	0.7306	0.18953	65.06	0.1089
	3200	0.7351	0.18808	67.22	0.1082
	3300	0.7397	0.18666	69.36	0.1074
	3400	0.7442	0.18527	71.50	0.1066
	3500	0.7489	0.18390	73.63	0.1058
	3600	0.7535	0.18255	75.76	0.1050
	3700	0.7582	0.18121	77.88	0.1042
	3800	0.7629	0.17989	80.01	0.1033
	3900	0.7676	0.17859	82.13	0.1025
	4000	0.7724	0.17730	84.27	0.1016
	4100	0.7772	0.17602	86.40	0.1007
	4200	0.7820	0.17476	88.55	0.0998
	4300	0.7869	0.17352	90.71	0.0989
	4400	0.7918	0.17229	92.88	0.0980
	4500	0.7968	0.17109	95.06	0.0970
	4600	0.8017	0.16992	97.27	0.0961
	4700	0.8067	0.16878	99.49	0.0952
	4800	0.8118	0.16767	101.73	0.0943
	4900	0.8168	0.16660	103.99	0.0933
	5000	0.8220	0.16559	106.27	0.0924
	5200	0.8323	0.16372	110.91	0.0905
	5400	0.8427	0.16212	115.65	0.0887
	5600	0.8533	0.16086	120.50	0.0869
	5800	0.8640	0.15999	125.43	0.0852
	6000	0.8749	0.15958	130.46	0.0835
	6200	0.8858	0.15969	135.54	0.0819
	6400	0.8969	0.16037	140.68	0.0804
	6600	0.9082	0.16168	145.82	0.0790
	6800	0.9196	0.16365	150.95	0.0776
	7000	0.9311	0.16631	156.03	0.0764
	7200	0.9427	0.16966	161.02	0.0754
	7400	0.9545	0.17372	165.91	0.0745
	7600	0.9664	0.17845	170.65	0.0737
	7800	0.9785	0.18386	175.24	0.0731
	8000	0.9907	0.18989	179.66	0.0727
	8200	1.0030	0.19650	183.89	0.0725
	8400	1.0154	0.20367	187.93	0.0725
	8600	1.0280	0.21132	191.79	0.0727
	8800	1.0407	0.21943	195.47	0.0731
	9000	1.0536	0.22793	198.97	0.0737
	9200	1.0666	0.23677	202.31	0.0747
	9400	1.0797	0.24592	205.49	0.0758
	9600	1.0929	0.25532	208.53	0.0773
	9800	1.1063	0.26492	211.43	0.0791
	10000	1.1198	0.27470	214.21	0.0811
	10400	1.1473	0.29459	219.44	0.0861
	11000	1.1894	0.32476	226.63	0.0963
	11400	1.2182	0.34475	231.09	0.1048
	12000	1.2623	0.37408	237.44	0.1207
	12400	1.2924	0.39297	241.53	0.1334
	13000	1.3386	0.42011	247.57	0.1559
	13400	1.3700	0.43734	251.60	0.1734
	14000	1.4182	0.46199	257.74	0.2035
	14400	1.4509	0.47779	261.94	0.2263
	15000	1.5011	0.50105	268.49	0.2648
	15800	1.5699	0.53301	277.81	0.3248
	16000	1.5874	0.54154	280.26	0.3414
	16800	1.6588	0.58011	290.49	0.4147
	17000	1.6770	0.59131	293.14	0.4348
	17800	1.7511	0.64529	304.06	0.5225
	18000	1.7699	0.66162	306.82	0.5464