! Filename:  P:\Prog\Test\Noise\ATS_data\Testdata_Net\Split files Spar\BFU730_2W_B1_1V_1mA_30mA_Bias6_D.s2p
! Date/Time: Fri 29/Apr/2011 14:16:15
! BFU730_2W_B1_1V_1mA_30mA_Bias6_R.s2p
! MDIF S-parameter v. bias file
! BFU730_2W_B1_1V_1mA_30mA
! Date/time Thu Mar 17 14:34:31 2011
! VAR V_out= 1.0000
! VAR I_out= 10.0400
! VAR V_in= 0.8094
! VAR I_in= 0.0310
! Device data file deembeded for feedlines and parallel
! Original file: \Split files Spar\BFU730_2W_B1_1V_1mA_30mA_Bias6_R.s2p
! Feed-files: PR003V01_101208_Feed1.s2p, PR003V01_101208_Feed2.s2p
! Parallel-file: PR003V01_101208_Par.s2p
# MHz S MA R 50
!  Freq-MHz   S11-mag  S11-arg   S21-mag  S21-arg   S12-mag  S12-arg   S22-mag  S22-arg
         40   0.90327    -3.10    28.279   177.99 0.0016333    87.40   0.99452    -1.47
         50    0.8985    -4.30     28.35   176.95 0.0016371    87.65   0.99429    -2.09
         60   0.90112    -4.36    28.023   176.51 0.0023334    92.41   0.99555    -2.46
         70   0.90297    -5.30    28.096   176.26 0.0027929    87.77   0.99569    -2.98
         80   0.90223    -6.10     28.28   175.61 0.0031822    87.36   0.99562    -3.47
         90   0.90148    -6.90    28.262   174.85 0.0036034    86.88   0.99519    -3.98
        100    0.9018    -7.59    28.128   174.37 0.0039645    86.37   0.99467    -4.46
        120   0.90081    -9.21    28.155   173.22 0.0048038    85.66   0.99365    -5.45
        140    0.8997   -10.71    28.111   172.09 0.0056451    85.24   0.99268    -6.44
        160   0.89843   -12.23    27.943   170.86 0.0064372    84.11   0.99072    -7.39
        180   0.89763   -13.78    27.939   169.84 0.0072594    83.44    0.9887    -8.34
        200    0.8955   -15.33    27.865   168.63 0.0080226    82.63   0.98648    -9.30
        220   0.89373   -16.87    27.848   167.52 0.0088431    81.92   0.98376   -10.26
        240   0.89064   -18.43    27.857   166.31 0.0096464    81.07   0.98125   -11.20
        260   0.88931   -19.88    27.633   165.21  0.010431    80.34   0.97832   -12.14
        280   0.88669   -21.44    27.566   164.10  0.011236    79.50   0.97527   -13.06
        300   0.88483   -22.97    27.403   163.00     0.012    78.65   0.97215   -14.02
        320   0.88142   -24.41    27.229   161.95  0.012766    77.77    0.9679   -14.95
        340   0.87844   -25.90    27.156   160.81  0.013533    76.94   0.96346   -15.84
        360   0.87622   -27.35    26.976   159.88  0.014272    76.16   0.95877   -16.75
        380   0.87281   -28.90    26.909   158.81  0.015029    75.42   0.95415   -17.65
        400   0.86864   -30.40    26.874   157.74   0.01576    74.63   0.94915   -18.47
        420   0.86459   -31.94    26.801   156.64  0.016482    73.79   0.94544   -19.31
        440   0.86222   -33.26    26.549   155.67  0.017201    73.02   0.94039   -20.23
        460   0.85787   -34.80    26.489   154.66  0.017904    72.28   0.93532   -21.06
        480    0.8546   -36.17    26.258   153.66  0.018614    71.31   0.93111   -21.98
        500   0.85028   -37.59    26.065   152.63  0.019248    70.55   0.92417   -22.86
        550    0.8407   -41.08    25.755   150.14  0.020823    68.79   0.90762   -24.81
        600   0.82968   -44.64    25.433   147.76  0.022433    66.96    0.8939   -26.73
        650   0.81979   -47.86    24.905   145.47  0.023917    65.21   0.87876   -28.69
        700    0.8096   -51.07     24.38   143.32  0.025298    63.53   0.86192   -30.59
        750   0.79905   -54.42    24.036   141.14  0.026657    62.00   0.84554   -32.28
        800   0.78761   -57.69    23.657   139.02  0.027988    60.54   0.83153   -33.87
        850   0.77707   -60.66    23.122   136.99  0.029222    59.00   0.81616   -35.60
        900    0.7663   -63.59    22.643   135.02  0.030271    57.68   0.79763   -37.15
        950   0.75636   -66.60    22.255   133.15  0.031379    56.44   0.78153   -38.55
       1000   0.74558   -69.40    21.814   131.28  0.032449    55.18   0.76698   -40.01
       1050   0.73449   -72.23    21.374   129.46  0.033392    53.96   0.75108   -41.40
       1100   0.72533   -74.88    20.939   127.78   0.03432    52.90   0.73542   -42.70
       1150   0.71461   -77.68    20.557   126.01  0.035176    51.87   0.72055   -43.88
       1200   0.70502   -80.24    20.146   124.40  0.036059    50.81   0.70667   -45.10
       1250   0.69596   -82.71    19.691   122.82   0.03684    49.78   0.69225   -46.37
       1300   0.68718   -85.18    19.303   121.27  0.037542    48.91   0.67745   -47.44
       1350   0.67844   -87.60    18.936   119.76  0.038257    48.11   0.66406   -48.48
       1400   0.66992   -90.02     18.56   118.28  0.038945    47.24   0.65097   -49.53
       1450   0.66151   -92.33    18.189   116.86  0.039556    46.45    0.6377   -50.52
       1500   0.65353   -94.51    17.823   115.50  0.040176    45.71   0.62534   -51.44
       1550   0.64687   -96.60    17.458   114.18  0.040774    45.02   0.61371   -52.29
       1600   0.63968   -98.63    17.108   112.91  0.041362    44.33   0.60232   -53.18
       1650   0.63253  -100.76    16.758   111.64  0.041912    43.71   0.59051   -54.05
       1700   0.62595  -102.75    16.445   110.39  0.042392    43.13   0.57933   -54.81
       1750    0.6194  -104.67    16.129   109.19  0.042884    42.56   0.56878   -55.63
       1800   0.61337  -106.65     15.81   108.00  0.043373    41.95   0.55846   -56.44
       1850   0.60722  -108.60    15.511   106.83  0.043833    41.40   0.54785   -57.17
       1900   0.60149  -110.41    15.226   105.68  0.044275    40.91   0.53867   -57.88
       1950   0.59567  -112.16    14.929   104.60  0.044699    40.44   0.52964   -58.60
       2000   0.59047  -113.89    14.634   103.54  0.045071    40.00   0.51983   -59.41
       2050   0.58597  -115.54    14.354   102.56  0.045453    39.61   0.50973   -60.06
       2100   0.58179  -117.14    14.094   101.57  0.045888    39.21   0.50144   -60.63
       2150   0.57772  -118.78    13.842   100.61  0.046271    38.88   0.49259   -61.30
       2200   0.57329  -120.37    13.601    99.68  0.046694    38.52   0.48414   -61.73
       2250   0.56853  -121.98    13.357    98.69  0.047091    38.11   0.47742   -62.39
       2300   0.56455  -123.46    13.113    97.78  0.047408    37.72   0.46968   -63.11
       2350    0.5617  -124.97    12.876    96.93  0.047739    37.42   0.46087   -63.79
       2400   0.55875  -126.50    12.662    96.08  0.048079    37.20   0.45225   -64.25
       2450   0.55442  -128.00    12.445    95.29  0.048446    36.97   0.44465   -64.70
       2500   0.55021  -129.55    12.247    94.46  0.048884    36.60   0.43741   -65.19
       2600   0.54425  -132.10    11.863    92.89  0.049544    36.01   0.42393   -66.02
       2700   0.53806  -134.80    11.493    91.29   0.05018    35.49   0.41108   -66.81
       2800   0.53327  -137.26    11.148    89.76  0.050756    34.99   0.39942   -67.52
       2900   0.52835  -139.72    10.812    88.34  0.051328    34.62   0.38849   -68.09
       3000   0.52391  -141.99    10.518    86.94   0.05196    34.31   0.37918   -68.81
       3100   0.52101  -144.28    10.238    85.48  0.052538    33.91   0.37053   -69.51
       3200   0.51731  -146.45    9.9563    84.11  0.053143    33.59   0.36109   -70.28
       3300   0.51455  -148.62    9.7018    82.77  0.053712    33.22   0.35272   -71.19
       3400   0.51135  -150.74    9.4568    81.41  0.054342    32.96   0.34484   -71.98
       3500   0.50881  -152.79    9.2231    80.09  0.054919    32.69   0.33657   -72.71
       3600   0.50679  -154.89    8.9923    78.79  0.055485    32.44    0.3282   -73.36
       3700   0.50387  -156.71    8.7748    77.50  0.056044    32.22   0.32069   -73.94
       3800   0.50182  -158.83    8.5721    76.21  0.056677    32.00   0.31302   -74.69
       3900   0.49946  -160.46    8.3723    75.02  0.057326    31.83   0.30702   -75.31
       4000   0.49832  -162.49    8.1788    73.78  0.057937    31.56   0.29985   -76.07
       4100   0.49644  -164.10    7.9947    72.63  0.058478    31.43   0.29283   -76.54
       4200   0.49484  -165.93    7.8217    71.43  0.059166    31.17   0.28689   -77.19
       4300   0.49343  -167.51    7.6571    70.28  0.059839    31.00   0.28182   -77.92
       4400   0.49255  -169.28    7.4952    69.11  0.060518    30.73   0.27634   -78.52
       4500   0.49104  -170.78      7.34    68.00  0.061137    30.56   0.27114   -79.11
       4600   0.49026  -172.45    7.1903    66.91  0.061723    30.33   0.26535   -79.78
       4700   0.48984  -173.93    7.0512    65.79  0.062338    30.12   0.25996   -80.53
       4800   0.48896  -175.66    6.9089    64.68  0.062977    29.88   0.25568   -81.29
       4900   0.48826  -177.20    6.7795    63.58  0.063596    29.70   0.25057   -81.88
       5000    0.4872  -178.66    6.6497    62.54  0.064297    29.54    0.2453   -82.36
       5200    0.4857   178.49    6.4008    60.40  0.065526    29.15   0.23669   -83.81
       5400    0.4852   175.65    6.1804    58.39  0.066891    28.72   0.22822   -84.83
       5600   0.48421   172.91    5.9633    56.32   0.06813    28.29   0.21998   -86.42
       5800   0.48366   170.32    5.7645    54.37  0.069418    27.92   0.21211   -87.38
       6000   0.48351   167.85    5.5817    52.37  0.070733    27.51   0.20501   -89.02
       6200   0.48465   165.50    5.4102    50.47  0.072107    27.16    0.1983   -90.16
       6400   0.48525   163.05    5.2475    48.56  0.073461    26.75   0.19121   -91.66
       6600   0.48593   160.56    5.0952    46.65  0.074916    26.30   0.18527   -92.97
       6800   0.48676   158.36    4.9596    44.81  0.076417    25.80   0.17961   -94.70
       7000    0.4877   156.18    4.8175    42.96  0.077819    25.52   0.17302   -96.10
       7200   0.48959   154.18     4.701    41.16  0.079575    25.07   0.16885   -97.64
       7400   0.49135   151.86    4.5813    39.16  0.081047    24.35   0.16275   -99.95
       7600    0.4944   149.99    4.4758    37.33  0.082816    23.95   0.15881  -101.53
       7800    0.4947   147.29     4.347    35.29  0.083975    23.07   0.15012  -104.77
       8000   0.49391   145.79    4.2485    33.99  0.085579    23.14   0.14654  -104.21
       8200   0.49949   143.49    4.1559    31.74  0.087563    22.15   0.14152  -108.40
       8400   0.50056   141.44    4.0588    30.08  0.089249    21.81   0.13849  -109.37
       8600   0.50069   139.23    3.9484    28.22  0.090398    20.68   0.12947  -113.58
       8800   0.50084   137.53    3.8627    26.47  0.092176    20.33   0.12506  -115.12
       9000   0.50433   136.30    3.7923    24.98  0.093904    19.97   0.12278  -117.40
       9200   0.50579   134.40    3.7099    23.19  0.095514    19.13   0.11714  -120.83
       9400   0.50967   132.52    3.6348    21.38  0.097066    18.42   0.11369  -123.68
       9600   0.51492   130.82    3.5652    19.76  0.098828    17.93   0.10725  -127.51
       9800   0.51816   128.97    3.5082    18.03    0.1005    17.41   0.10377  -129.37
      10000   0.52354   127.31    3.4467    16.20   0.10335    16.69   0.10415  -132.48
      10200   0.52729   125.10    3.3771    14.32   0.10495    15.54   0.09907  -138.94
      10400   0.52925   123.37    3.3073    12.56   0.10663    14.69  0.097901  -142.57
      10600    0.5304   121.57    3.2424    10.89    0.1083    13.82  0.092503  -148.34
      10800   0.53253   120.08    3.1928     9.27    0.1101    13.14  0.091231  -151.47
      11000   0.53845   118.23    3.1324     7.58   0.11209    12.35   0.08848  -156.01
      11200   0.54351   116.63    3.1027     5.87   0.11406    11.56  0.090608  -160.95
      11400   0.54678   114.81    3.0381     3.98   0.11602    10.42  0.088155  -166.96
      11600   0.54964   112.93     2.984     2.44    0.1173     9.56  0.088786  -173.57
      11800   0.55568   111.46    2.9408     0.66   0.11959     8.69  0.087203  -177.90
      12000   0.55685   110.01    2.9025    -0.75   0.12065     7.84  0.087188   175.74
      12200   0.56546   107.96     2.868    -2.83   0.12325     7.03  0.087901   171.96
      12400   0.56572   106.07    2.8154    -4.72   0.12541     5.89  0.090626   165.17
      12600   0.56585   104.44    2.7589    -6.09    0.1262     5.07  0.088802   158.63
      12800   0.57526   103.35    2.7389    -7.67   0.12927     4.42  0.088517   156.38
      13000   0.57321   101.27    2.6959    -9.49    0.1303     3.05  0.092945   150.48
      13200   0.57909   100.12    2.6424   -11.26   0.13223     2.04  0.095774   145.90
      13400   0.58361    98.69    2.6181   -13.02   0.13479     0.87   0.10414   143.39
      13600   0.59063    96.94    2.5879   -14.88   0.13605    -0.09   0.11045   139.05
      13800   0.59068    95.37    2.5417   -16.59   0.13833    -1.14   0.11712   134.79
      14000   0.59866    93.69    2.5146   -17.96   0.13946    -2.29   0.12571   129.74
      14200   0.60562    92.35    2.4836   -19.84    0.1412    -3.09   0.12969   125.72
      14400   0.60791    90.02    2.4467   -21.61   0.14284    -4.17   0.14254   121.67
      14600   0.61322    88.60    2.4213   -23.27   0.14514    -4.86   0.14251   117.65
      14800   0.61501    86.84    2.3908   -24.93   0.14728    -6.01   0.15277   114.62
      15000   0.62232    85.51    2.3588   -26.69   0.14941    -7.13   0.15596   111.32
      15200   0.62581    84.08    2.3366   -28.34   0.15151    -8.43   0.16288   110.17
      15400   0.63814    82.57    2.3126   -30.11   0.15292    -9.47   0.17117   107.02
      15600    0.6412    81.52    2.2864   -31.95   0.15531   -10.69   0.17751   105.28
      15800   0.64885    79.71    2.2658   -33.59   0.15631   -12.02   0.18628   102.85
      16000    0.6606    78.33    2.2455   -35.80    0.1582   -12.99   0.19496   100.62
      16200   0.66777    76.50    2.2218   -37.79   0.15999   -14.03   0.20003    97.89
      16400   0.67494    74.79    2.1796   -39.80   0.16163   -14.85   0.20493    95.77
      16600   0.67605    73.11    2.1463   -41.38   0.16453   -16.15   0.21316    95.20
      16800   0.68069    71.50    2.1174   -42.84   0.16558   -17.15   0.22062    92.09
      17000   0.68267    69.75    2.1041   -44.57   0.16818   -18.44   0.23356    91.47
      17200   0.68549    67.99    2.0853   -46.47   0.17004   -19.47   0.24095    87.97
      17400   0.69144    65.77    2.0682   -48.72   0.17135   -20.69   0.25252    86.80
      17600   0.69023    64.29    2.0304   -50.42    0.1745   -21.43   0.25916    83.17
      17800   0.69139    62.78    2.0141   -52.38   0.17735   -23.04   0.26512    81.65
      18000   0.70184    61.71    1.9769   -54.39   0.17932   -24.49   0.26854    80.64
      18200   0.70796    59.54     1.959   -56.62   0.18093   -25.74   0.27985    78.87
      18400   0.71366    58.07     1.915   -58.77   0.18295   -26.98   0.28187    77.96
      18600   0.70699    56.78    1.8621   -60.10   0.18375   -28.08   0.29692    77.20
      18800   0.71554    54.69    1.8371   -61.74   0.18639   -29.28   0.30594    75.48
      19000   0.71189    53.56    1.8118   -63.04   0.18985   -30.41   0.31494    73.91
      19200   0.71768    52.06      1.79   -64.82   0.19275   -32.14   0.32115    71.94
      19400   0.72265    51.04    1.7645   -66.00   0.19471   -33.51   0.32378    71.12
      19600   0.72814    49.88    1.7398   -67.60   0.19585   -35.93    0.3366    71.91
      19800   0.75276    49.10    1.7402   -68.89   0.19436   -36.57   0.35531    69.16
      20000   0.76521    46.46    1.7319   -71.08   0.19586   -37.19   0.36075    67.77