! Filename:  P:\Prog\Test\Noise\ATS_data\Testdata_Net\Split files Spar\BFU730_2W_B1_Bias3_2.5V_1mA_25mA_D.s2p
! Date/Time: Fri 29/Apr/2011 15:07:39
! BFU730_2W_B1_Bias3_2.5V_1mA_25mA_R.s2p
! MDIF S-parameter v. bias file
! BFU730_2W_B1_2.5V_1mA_25mA
! Date/time Thu Mar 17 13:38:09 2011
! VAR V_out= 2.5000
! VAR I_out= 3.4250
! VAR V_in= 0.7770
! VAR I_in= 0.0092
! Device data file deembeded for feedlines and parallel
! Original file: \Split files Spar\BFU730_2W_B1_Bias3_2.5V_1mA_25mA_R.s2p
! Feed-files: PR003V01_101208_Feed1.s2p, PR003V01_101208_Feed2.s2p
! Parallel-file: PR003V01_101208_Par.s2p
# MHz S MA R 50
!  Freq-MHz   S11-mag  S11-arg   S21-mag  S21-arg   S12-mag  S12-arg   S22-mag  S22-arg
         40   0.96673    -1.70     10.92   178.75 0.0013571    79.49   0.99734    -0.80
         50   0.96511    -2.61    10.951   177.98 0.0021605    86.98     0.997    -1.04
         60   0.96394    -2.34    10.806   177.74 0.0022123    80.29   0.99781    -1.20
         70   0.96697    -2.88    10.831   177.79 0.0024113    83.68   0.99782    -1.44
         80   0.96661    -3.32    10.919   177.43  0.002791    84.45   0.99788    -1.64
         90   0.96655    -3.75    10.925   176.93  0.003153    84.68   0.99767    -1.86
        100   0.96682    -4.10    10.869   176.73 0.0034935    84.95    0.9975    -2.07
        120   0.96633    -5.02    10.883   176.12 0.0042025    85.04   0.99739    -2.51
        140   0.96598    -5.83    10.888   175.52 0.0049023    85.23    0.9974    -2.96
        160   0.96582    -6.67    10.837   174.81 0.0055938    84.87   0.99691    -3.39
        180   0.96598    -7.52    10.861   174.27 0.0063143    84.71   0.99656    -3.82
        200   0.96517    -8.39    10.861   173.54 0.0070554    84.65   0.99613    -4.26
        220   0.96464    -9.23    10.877   172.93 0.0077554    84.38   0.99562    -4.70
        240   0.96371   -10.08    10.926   172.21 0.0084773    83.92   0.99534    -5.15
        260   0.96363   -10.91    10.863   171.55 0.0091888    83.66   0.99467    -5.58
        280   0.96289   -11.77    10.872   170.90 0.0099112    83.26   0.99428    -6.02
        300    0.9624   -12.62    10.842   170.27  0.010633    82.79    0.9938    -6.47
        320   0.96159   -13.42    10.789   169.65  0.011335    82.29   0.99299    -6.89
        340    0.9605   -14.26    10.805   168.97  0.012039    81.90   0.99189    -7.33
        360   0.96015   -15.07    10.758   168.42  0.012743    81.44   0.99074    -7.77
        380   0.95931   -15.93    10.763   167.78  0.013457    80.95   0.98976    -8.21
        400   0.95802   -16.78    10.802   167.15  0.014163    80.55   0.98831    -8.61
        420     0.957   -17.67    10.833   166.47  0.014899    79.94   0.98794    -9.00
        440    0.9561   -18.46    10.774   165.84  0.015613    79.50   0.98674    -9.47
        460    0.9552   -19.31    10.792   165.21  0.016289    79.03   0.98554    -9.87
        480   0.95383   -20.16    10.748   164.58  0.017025    78.52   0.98533   -10.34
        500   0.95307   -20.95    10.682   163.96  0.017681    78.02   0.98325   -10.81
        550   0.94998   -23.05    10.698   162.34  0.019362    76.69   0.97872   -11.85
        600   0.94576   -25.18    10.713   160.80  0.021106    75.49   0.97548   -12.86
        650   0.94282   -27.16      10.6   159.21  0.022794    74.17    0.9716   -13.93
        700   0.93952   -29.12    10.467   157.77   0.02444    72.89   0.96699   -15.03
        750   0.93612   -31.22    10.464   156.27  0.026044    71.70   0.96167   -16.02
        800   0.93146   -33.36    10.495   154.80  0.027703    70.52   0.95809   -16.94
        850   0.92704   -35.32    10.393   153.28  0.029299    69.27   0.95403   -17.96
        900   0.92317   -37.20    10.259   151.81  0.030783    68.00   0.94732   -19.01
        950    0.9191   -39.23    10.226   150.47  0.032273    66.89   0.94114   -19.93
       1000   0.91422   -41.22    10.205   148.98  0.033823    65.73   0.93658   -20.86
       1050   0.90898   -43.15    10.125   147.58  0.035248    64.53   0.93093   -21.83
       1100    0.9049   -45.00    10.023   146.24  0.036607    63.39    0.9241   -22.78
       1150   0.89937   -47.05    9.9997   144.78  0.037963    62.37   0.91758   -23.63
       1200   0.89415   -48.95    9.9378   143.45  0.039357    61.28   0.91257   -24.51
       1250   0.88926   -50.76    9.8185   142.06  0.040709    60.06   0.90692   -25.50
       1300   0.88446   -52.60    9.7276   140.74   0.04192    58.97   0.89944   -26.38
       1350   0.87907   -54.56    9.7003   139.37  0.043129    57.98   0.89238   -27.19
       1400   0.87354   -56.46    9.6407   138.04  0.044369    56.94   0.88637   -28.04
       1450    0.8683   -58.32    9.5602   136.73  0.045521    55.88   0.87968   -28.90
       1500   0.86338   -60.10    9.4791   135.49  0.046623    54.87   0.87296   -29.71
       1550   0.85807   -61.86    9.4025   134.18  0.047765    53.94   0.86691   -30.46
       1600   0.85225   -63.64    9.3313   132.90  0.048881    52.98    0.8611   -31.24
       1650   0.84677   -65.40    9.2251   131.68  0.049876    51.98   0.85381   -32.05
       1700   0.84198   -67.13    9.1508   130.46  0.050815    51.10    0.8462   -32.79
       1750   0.83629   -68.88    9.0858   129.20  0.051802    50.16   0.83987   -33.55
       1800   0.83126   -70.62     8.992   127.99  0.052804    49.21   0.83382   -34.33
       1850   0.82578   -72.35    8.9125   126.79   0.05368    48.30   0.82658   -35.06
       1900   0.82035   -74.08    8.8547   125.52   0.05453    47.50   0.82027   -35.77
       1950   0.81479   -75.69     8.755   124.40  0.055385    46.61   0.81405   -36.50
       2000   0.80938   -77.32    8.6578   123.21  0.056241    45.77   0.80736   -37.27
       2050   0.80358   -78.95    8.5734   122.09  0.057055    44.93   0.80009   -37.95
       2100   0.79856   -80.50    8.4898   120.98   0.05787    44.14   0.79378   -38.59
       2150   0.79424   -82.11    8.4163   119.91  0.058609    43.42   0.78666   -39.27
       2200   0.78888   -83.68    8.3339   118.85  0.059356    42.59   0.77989   -39.83
       2250   0.78299   -85.26    8.2563   117.72  0.060055    41.80    0.7745   -40.51
       2300   0.77813   -86.81    8.1695   116.63  0.060806    41.00   0.76836   -41.22
       2350   0.77366   -88.28    8.0712   115.68  0.061462    40.26   0.76058   -41.89
       2400   0.76908   -89.89    8.0052   114.64  0.062062    39.57   0.75284   -42.41
       2450   0.76297   -91.38    7.9303   113.62  0.062771    38.89   0.74623   -42.96
       2500    0.7574   -92.82    7.8429   112.64  0.063408    38.00   0.74028   -43.54
       2600   0.74881   -95.62    7.6904   110.74  0.064468    36.55   0.72816   -44.59
       2700   0.73971   -98.50    7.5401   108.80  0.065468    35.12    0.7164   -45.61
       2800   0.73176  -101.21    7.3963   106.91  0.066253    33.79   0.70498   -46.58
       2900   0.72268  -103.93    7.2393   105.11  0.067027    32.53   0.69439   -47.50
       3000   0.71466  -106.53    7.1169   103.33  0.067776    31.44   0.68456   -48.42
       3100   0.70883  -109.06    6.9767   101.61  0.068451    30.26   0.67547   -49.38
       3200   0.70174  -111.51    6.8403    99.92  0.069107    29.20   0.66525   -50.30
       3300   0.69512  -114.13    6.7231    98.22  0.069713    28.07   0.65674   -51.38
       3400   0.68773  -116.54    6.6057    96.52   0.07034    27.14   0.64785   -52.28
       3500   0.68234  -118.89    6.4812    94.92  0.070853    26.15   0.63856   -53.16
       3600   0.67605  -121.36    6.3629    93.31  0.071312    25.21   0.62907   -53.95
       3700    0.6708  -123.53    6.2442    91.72  0.071759    24.26   0.62107   -54.76
       3800   0.66475  -125.93    6.1391    90.14  0.072174    23.40     0.612   -55.64
       3900   0.65929  -128.03    6.0322    88.63  0.072626    22.68   0.60491   -56.37
       4000   0.65392  -130.39    5.9227    87.10   0.07301    21.76   0.59656   -57.25
       4100   0.64929  -132.41    5.8155    85.66  0.073227    20.97   0.58817   -57.95
       4200   0.64473  -134.58    5.7202    84.20  0.073564    20.18   0.58118   -58.72
       4300   0.64086  -136.55    5.6254    82.76  0.073874    19.47   0.57486   -59.55
       4400   0.63609  -138.74    5.5319    81.28  0.074159    18.71   0.56798   -60.30
       4500   0.63261  -140.65    5.4374    79.94  0.074352    18.05   0.56132   -60.98
       4600   0.62874  -142.68    5.3446    78.57  0.074487    17.34   0.55405   -61.71
       4700   0.62579  -144.61    5.2613    77.20  0.074644    16.69   0.54741   -62.49
       4800   0.62161  -146.66    5.1746    75.79  0.074868    15.99   0.54196   -63.32
       4900   0.61841  -148.55    5.0929    74.46  0.074981    15.37   0.53583   -63.95
       5000   0.61462  -150.39    5.0119    73.20  0.075129    14.82   0.52943   -64.55
       5200   0.60856  -154.07    4.8583    70.52  0.075225    13.70   0.51806   -66.09
       5400   0.60323  -157.61     4.712    68.11  0.075377    12.62   0.50793   -67.32
       5600   0.59789  -161.10    4.5711    65.55  0.075333    11.60   0.49719   -68.83
       5800   0.59272  -164.40    4.4386    63.18  0.075206    10.70     0.488   -70.08
       6000    0.5896  -167.62    4.3153    60.78  0.075112     9.93   0.47873   -71.51
       6200   0.58693  -170.71    4.1987    58.48  0.075029     9.26   0.47064   -72.79
       6400   0.58412  -173.82    4.0865    56.21  0.074868     8.62   0.46215   -74.21
       6600   0.58136  -176.93     3.982    53.90  0.074778     8.04   0.45433   -75.50
       6800   0.57921  -179.79    3.8829    51.76  0.074707     7.59   0.44703   -77.02
       7000   0.57732   177.39    3.7847    49.52  0.074432     7.27   0.43907   -78.31
       7200    0.5773   174.77    3.7017    47.44    0.0746     7.15   0.43358   -79.75
       7400   0.57634   171.89    3.6178    45.10    0.0746     6.61   0.42606   -81.49
       7600   0.57733   169.37    3.5436    43.01  0.074981     6.62    0.4218   -82.79
       7800    0.5745   166.25    3.4509    40.66  0.074846     5.79   0.41057   -84.87
       8000   0.57199   164.19    3.3778    39.02  0.074106     6.56   0.40643   -85.42
       8200   0.57564   161.30    3.3114    36.56  0.075267     6.09   0.39941   -87.75
       8400   0.57492   158.86    3.2399    34.61  0.075225     6.31   0.39515   -89.09
       8600   0.57303   156.17      3.16    32.47  0.075267     5.31   0.38396   -91.10
       8800   0.57212   153.95    3.0962    30.47  0.075366     5.78   0.37826   -92.40
       9000   0.57448   152.15    3.0423    28.73  0.075576     6.37    0.3758   -93.95
       9200    0.5743   149.76    2.9815    26.74  0.076021     6.18   0.36795   -95.71
       9400   0.57645   147.43    2.9268    24.62  0.076278     6.18   0.36413   -97.62
       9600   0.57999   145.25    2.8745    22.80  0.076919     6.66   0.35597   -99.30
       9800   0.58219   143.01    2.8318    20.83  0.077355     7.08   0.35255  -100.71
      10000   0.58639   140.93    2.7841    18.82  0.079463     7.36   0.35158  -102.84
      10200   0.58846   138.43    2.7328    16.69  0.080231     6.77   0.34244  -105.37
      10400   0.58914   136.38    2.6788    14.72  0.080955     6.59   0.33917  -107.50
      10600   0.58892   134.19    2.6317    12.86  0.081729     6.53   0.33042  -109.57
      10800   0.59061   132.43    2.5918    10.99  0.082491     6.73   0.32787  -111.44
      11000   0.59369   130.22    2.5521     9.15  0.083861     6.88    0.3228  -113.46
      11200   0.59866   128.31    2.5254     7.13   0.08517     7.11   0.32185  -116.05
      11400   0.60087   126.22    2.4759     5.10  0.086522     6.55   0.31518  -118.65
      11600   0.60353   124.08    2.4334     3.27  0.087172     6.52   0.30902  -121.31
      11800   0.60914   122.24    2.3974     1.35  0.089058     6.50   0.30472  -123.26
      12000   0.60923   120.49    2.3692    -0.22  0.089618     6.64   0.29878  -125.64
      12200   0.61572   118.26    2.3412    -2.46    0.0923     6.60   0.29765  -127.97
      12400   0.61515   116.12    2.3028    -4.52  0.094098     5.95   0.29172  -131.14
      12600   0.61529   114.20    2.2562    -6.18  0.094421     6.05   0.28447  -133.26
      12800   0.62461   112.84    2.2402    -7.89   0.09772     6.29   0.28254  -135.16
      13000   0.62209   110.62    2.2063    -9.86    0.0985     5.48   0.27819  -138.23
      13200   0.62755   109.14    2.1638   -11.83   0.10027     5.03   0.27431  -141.08
      13400   0.63189   107.42    2.1462   -13.71   0.10357     4.57   0.27526  -144.70
      13600   0.63797   105.47    2.1243   -15.80   0.10517     4.20   0.27362  -147.99
      13800   0.63759   103.73    2.0869   -17.63    0.1076     3.60   0.26937  -151.72
      14000   0.64398   101.82    2.0674   -19.32   0.10917     2.95   0.26623  -155.51
      14200   0.65066   100.27    2.0389   -21.34    0.1114     2.67   0.26306  -158.59
      14400   0.65166    97.91    2.0125   -23.36   0.11341     1.86   0.26138  -163.89
      14600   0.65734    96.30     1.988   -25.20   0.11605     1.61   0.25624  -166.09
      14800   0.65932    94.36    1.9616   -27.02   0.11857     0.91   0.25559  -170.57
      15000    0.6661    92.79     1.935   -28.94   0.12107     0.12    0.2528  -173.59
      15200      0.67    91.20    1.9159   -30.66   0.12389    -0.71   0.25612  -176.82
      15400   0.68075    89.42    1.8996   -32.62   0.12615    -1.52   0.25496   179.17
      15600   0.68478    88.16    1.8761   -34.61   0.12893    -2.38   0.25924   175.84
      15800   0.69159    86.15    1.8605   -36.42   0.13106    -3.38   0.25957   172.12
      16000   0.70273    84.61    1.8444   -38.72   0.13404    -4.30   0.26542   168.16
      16200   0.70891    82.67     1.826   -40.97   0.13655    -5.19   0.26737   164.67
      16400   0.71557    80.82    1.7904   -43.19   0.13894    -5.99   0.26869   160.80
      16600   0.71644    79.09    1.7637   -44.95   0.14251    -7.21   0.27639   157.40
      16800   0.72115    77.32    1.7365   -46.62   0.14445    -8.06   0.27401   153.63
      17000   0.72271    75.52    1.7259   -48.49   0.14778    -9.31   0.28624   149.76
      17200    0.7253    73.68    1.7078   -50.57   0.15034   -10.30    0.2857   145.94
      17400   0.73068    71.45    1.6918   -53.03   0.15258   -11.59   0.29683   142.10
      17600   0.73044    69.88    1.6579   -54.81   0.15583   -12.14   0.29549   137.68
      17800   0.73199    68.16     1.643   -56.87   0.15976   -13.69   0.30209   134.75
      18000   0.74212    66.90    1.6132   -58.93   0.16257   -15.10    0.3094   131.81
      18200   0.74743    64.61    1.5988   -61.35   0.16546   -16.50   0.31816   128.09
      18400   0.75336    63.05    1.5608   -63.66   0.16787   -17.89    0.3244   125.34
      18600   0.74722    61.66     1.517   -65.20   0.16934   -18.94   0.33584   121.62
      18800   0.75485    59.47    1.4935   -66.97   0.17251   -20.27   0.34307   118.67
      19000   0.75242    58.28    1.4724   -68.39   0.17636   -21.29   0.35101   115.39
      19200   0.75857    56.59    1.4528   -70.29   0.18036   -22.93   0.35684   112.45
      19400   0.76274    55.40     1.432   -71.66   0.18353   -24.31   0.36049   110.35
      19600   0.76892    54.06      1.41   -73.44   0.18556   -26.75   0.37878   108.53
      19800    0.7912    53.12    1.4091   -74.95   0.18617   -27.72   0.38987   104.66
      20000   0.80293    50.56    1.3958   -77.40   0.18826   -28.69   0.39833   102.31