! Filename:  P:\Prog\Test\Noise\ATS_data\Testdata_Net\BFU730\BFU730_2W_B1_2V6mA_D.s2p
! Date/Time: Fri 29/Apr/2011 14:14:03
! BFU730_2W_B1_2V6mA
! bias mode 1: Vout= 2.0000 V, Iout= 5.9600 mA, Vin= 0.7914 V, Iin= 0.0178 mA
! Date/time Thu Mar 17 08:51:44 2011
! Device data file deembeded for feedlines and parallel
! Original file: \BFU730\BFU730_2W_B1_2V6mA_R.s2p
! Feed-files: PR003V01_101208_Feed1.s2p, PR003V01_101208_Feed2.s2p
! Parallel-file: PR003V01_101208_Par.s2p
# MHz S MA R 50
!  Freq-MHz   S11-mag  S11-arg   S21-mag  S21-arg   S12-mag  S12-arg   S22-mag  S22-arg
         40   0.94138    -2.15    18.089   178.34 0.0013732    86.68   0.99754    -1.04
         50   0.93853    -2.73     18.14   177.47 0.0022422    84.32   0.99734    -1.38
         60   0.94203    -3.13    17.908   177.22 0.0021225    83.08    0.9983    -1.61
         70   0.94159    -3.70    17.949   177.18 0.0024818    87.33   0.99829    -1.94
         80   0.94102    -4.27    18.081   176.71 0.0028413    87.36   0.99826    -2.24
         90   0.94049    -4.84     18.08   176.11 0.0032028    86.97   0.99793    -2.56
        100   0.94035    -5.36    17.988   175.82 0.0035636    86.57   0.99769    -2.85
        120   0.94021    -6.49    18.019   175.01 0.0042727    86.32   0.99741    -3.47
        140   0.93982    -7.56    18.006   174.22 0.0049834    86.26   0.99707    -4.10
        160    0.9394    -8.64    17.924   173.31 0.0057147    85.66   0.99628    -4.70
        180   0.93916    -9.75    17.941   172.60 0.0064359    85.25   0.99544    -5.31
        200    0.9379   -10.85    17.922   171.68 0.0071878    84.67   0.99453    -5.91
        220    0.9372   -11.96    17.941   170.90 0.0078779    84.20   0.99351    -6.53
        240   0.93552   -13.08    17.991   169.99 0.0085999    83.67   0.99257    -7.13
        260   0.93515   -14.13    17.881   169.17 0.0093425    82.93   0.99127    -7.73
        280   0.93342   -15.26    17.878   168.34  0.010076    82.51   0.99015    -8.34
        300   0.93245   -16.35    17.816   167.52  0.010768    81.75   0.98879    -8.97
        320   0.93125   -17.38    17.729   166.73  0.011502    81.12   0.98703    -9.57
        340    0.9294   -18.48    17.728   165.86  0.012186    80.58   0.98509   -10.17
        360   0.92838   -19.53    17.641   165.15  0.012892    79.97   0.98286   -10.77
        380   0.92673   -20.65    17.636   164.36  0.013617    79.36   0.98077   -11.36
        400   0.92492   -21.75    17.666   163.55  0.014304    78.76   0.97835   -11.92
        420   0.92258   -22.88    17.676   162.69  0.015003    78.00   0.97685   -12.49
        440   0.92091   -23.90    17.555   161.91  0.015728    77.46   0.97458   -13.11
        460   0.91886   -24.99    17.558   161.13  0.016387    76.89   0.97222   -13.66
        480   0.91697   -26.04     17.46   160.36  0.017094    76.20   0.97082   -14.27
        500   0.91468   -27.06    17.364   159.56  0.017733    75.61   0.96716   -14.89
        550   0.90929   -29.74    17.306   157.57  0.019359    74.04   0.95861   -16.28
        600   0.90248   -32.45    17.233   155.67  0.021009    72.51   0.95199   -17.64
        650   0.89662   -34.91    16.995   153.76  0.022593    70.93   0.94411   -19.07
        700   0.89028   -37.35    16.741   152.00  0.024105    69.48   0.93525   -20.48
        750   0.88414   -40.00    16.655   150.20  0.025586    68.11   0.92594   -21.72
        800   0.87657   -42.64    16.583   148.40  0.027081    66.73   0.91856   -22.92
        850   0.86941   -45.01    16.341   146.63  0.028542    65.28    0.9104   -24.23
        900   0.86254   -47.37    16.099   144.90  0.029809    63.97   0.89871   -25.52
        950   0.85564   -49.85    15.959   143.30  0.031114    62.72   0.88852   -26.65
       1000    0.8477   -52.22    15.808   141.60  0.032446    61.44   0.87991   -27.80
       1050   0.83918   -54.56    15.618   139.95  0.033633    60.17   0.86973   -28.97
       1100   0.83255   -56.81    15.402   138.42  0.034783    59.01   0.85884   -30.08
       1150   0.82439   -59.22    15.266   136.77  0.035888    57.89   0.84855   -31.08
       1200   0.81633   -61.46    15.085   135.25  0.037029    56.76   0.83963   -32.12
       1250   0.80878   -63.60    14.843   133.72  0.038115    55.51   0.82974   -33.26
       1300   0.80157   -65.78     14.65   132.23  0.039039    54.46   0.81822   -34.25
       1350   0.79361   -68.02    14.499   130.73  0.039994    53.49   0.80815   -35.15
       1400   0.78571   -70.21    14.326   129.28  0.040962    52.44   0.79844   -36.11
       1450   0.77812   -72.35    14.136   127.84  0.041821    51.45   0.78815   -37.05
       1500   0.77085   -74.35    13.943   126.49  0.042649    50.52   0.77826   -37.91
       1550   0.76388   -76.30    13.753   125.14  0.043485    49.61    0.7693   -38.71
       1600   0.75664   -78.23    13.561   123.81  0.044315    48.73   0.76058   -39.56
       1650   0.74934   -80.24    13.355   122.51  0.045048    47.83   0.75028   -40.41
       1700   0.74283   -82.13    13.183   121.21  0.045708    47.05   0.74038   -41.18
       1750    0.7356   -84.02    13.011   119.91  0.046413    46.19   0.73127   -41.96
       1800   0.72888   -85.97    12.821   118.67  0.047113    45.35   0.72258   -42.75
       1850    0.7223   -87.89    12.648   117.42  0.047731    44.55   0.71313   -43.50
       1900    0.7155   -89.70     12.49   116.15  0.048335    43.86   0.70485   -44.19
       1950   0.70917   -91.39    12.302   115.01  0.048883    43.14   0.69704   -44.91
       2000   0.70281   -93.14    12.112   113.85  0.049471    42.41   0.68801   -45.71
       2050   0.69696   -94.83    11.935   112.75  0.050016    41.76   0.67854   -46.35
       2100   0.69155   -96.45    11.764   111.65  0.050557    41.10   0.67067   -46.99
       2150   0.68638   -98.13    11.604   110.59  0.051064    40.52   0.66167   -47.63
       2200   0.68035   -99.77    11.444   109.56   0.05158    39.89   0.65383   -48.10
       2250   0.67426  -101.42    11.286   108.46  0.052048    39.26   0.64724   -48.78
       2300   0.66856  -103.01    11.122   107.43  0.052511    38.59   0.63944   -49.47
       2350   0.66446  -104.54    10.956   106.50  0.052914    38.05   0.63059   -50.12
       2400   0.65986  -106.15    10.816   105.53  0.053323    37.59   0.62184   -50.57
       2450    0.6537  -107.67    10.666   104.60  0.053811    37.11    0.6144   -51.03
       2500   0.64793  -109.22    10.521   103.66  0.054283    36.43   0.60692   -51.60
       2600   0.63952  -111.98    10.246   101.87  0.054973    35.37   0.59317   -52.49
       2700   0.63073  -114.88    9.9799   100.07  0.055648    34.33   0.58039   -53.34
       2800   0.62308  -117.52    9.7303    98.33  0.056175    33.43    0.5679   -54.10
       2900    0.6154  -120.21    9.4738    96.69  0.056697    32.60   0.55614   -54.84
       3000   0.60823  -122.69    9.2554    95.07  0.057255    31.89   0.54629   -55.65
       3100   0.60292  -125.21    9.0382    93.45  0.057725    31.12   0.53678   -56.41
       3200   0.59675  -127.56    8.8226    91.90  0.058236    30.43   0.52664   -57.19
       3300   0.59194  -130.06    8.6275    90.38  0.058739    29.71   0.51745   -58.10
       3400   0.58571  -132.40    8.4372    88.81  0.059207    29.10   0.50872   -58.94
       3500   0.58119  -134.64    8.2492    87.34  0.059605    28.52   0.49939   -59.69
       3600   0.57643  -137.05    8.0664    85.87  0.060022    27.98   0.49002   -60.31
       3700   0.57253  -139.03    7.8909    84.44  0.060427    27.45   0.48214   -60.90
       3800    0.5676  -141.39    7.7307    82.99  0.060837    26.95   0.47341   -61.67
       3900   0.56372  -143.30    7.5648    81.64  0.061272    26.57    0.4663   -62.33
       4000   0.55946  -145.57    7.4045    80.24  0.061661    26.02   0.45832   -63.10
       4100   0.55667  -147.42     7.252    78.97  0.061948    25.64    0.4507   -63.56
       4200   0.55306  -149.49    7.1123    77.62  0.062406    25.18   0.44398   -64.25
       4300   0.55048  -151.33    6.9742    76.34  0.062767    24.82   0.43783   -64.94
       4400     0.547  -153.39    6.8372    75.01  0.063174    24.39   0.43143   -65.59
       4500   0.54471  -155.06    6.7061    73.80  0.063503    24.08   0.42557   -66.13
       4600   0.54229  -156.98    6.5798    72.57  0.063806    23.69   0.41897   -66.73
       4700    0.5406  -158.75    6.4629    71.33  0.064139    23.36   0.41259   -67.44
       4800   0.53788  -160.68    6.3406    70.07  0.064475    22.98   0.40746   -68.17
       4900   0.53575  -162.44    6.2283    68.86  0.064773    22.63   0.40224   -68.70
       5000   0.53374  -164.15    6.1172    67.71  0.065151    22.39   0.39611   -69.17
       5200   0.52985  -167.37    5.9036    65.34  0.065764    21.85   0.38612   -70.57
       5400   0.52689  -170.69    5.7091    63.13  0.066381    21.28   0.37646   -71.53
       5600   0.52401  -173.80    5.5205    60.86  0.066953    20.80   0.36671   -72.96
       5800   0.52101  -176.81    5.3442    58.71  0.067509    20.40   0.35846   -73.88
       6000   0.51989  -179.66    5.1838    56.54  0.068113    20.02   0.35005   -75.27
       6200   0.51891   177.65    5.0309    54.49  0.068722    19.75   0.34341   -76.30
       6400   0.51824   174.79    4.8847    52.39  0.069356    19.43   0.33496   -77.61
       6600   0.51744   172.02    4.7498    50.33  0.070056    19.15   0.32833   -78.78
       6800   0.51744   169.42    4.6262    48.37  0.070882    18.89   0.32176   -80.03
       7000    0.5166   166.97    4.5001    46.34  0.071485    18.80     0.315   -81.41
       7200   0.51756   164.75    4.3963    44.46  0.072581    18.69    0.3103   -82.55
       7400   0.51838   162.11    4.2892    42.28  0.073451    18.22    0.3032   -84.37
       7600   0.52001   159.97    4.1954    40.37  0.074646    18.21   0.29926   -85.60
       7800   0.51892   156.92    4.0789    38.18  0.075265    17.44   0.28903   -87.68
       8000    0.5176   155.24    3.9891    36.78  0.075931    18.08   0.28582   -87.75
       8200    0.5226   152.51    3.9059    34.40   0.07762    17.35   0.27906   -90.54
       8400    0.5235   150.41    3.8182    32.66  0.078616    17.41   0.27495   -91.51
       8600   0.52207   147.95    3.7166    30.67  0.079266    16.43   0.26475   -93.70
       8800   0.52176   145.97    3.6387    28.81  0.080402    16.53   0.26013   -95.12
       9000   0.52431   144.60    3.5727    27.23  0.081621    16.72   0.25712   -96.54
       9200   0.52594   142.36    3.4995    25.35  0.082759    16.23   0.24885   -98.49
       9400   0.52924   140.34    3.4308    23.42   0.08385    15.89   0.24516  -100.30
       9600   0.53354   138.39    3.3673    21.71  0.085276    15.86   0.23758  -102.12
       9800   0.53717   136.30    3.3145    19.87   0.08651    15.77   0.23427  -103.72
      10000   0.54153   134.47    3.2581    18.00  0.089158    15.48   0.23365  -105.62
      10200   0.54578   132.12    3.1943    16.00  0.090489    14.54   0.22411  -109.00
      10400   0.54669   130.44      3.13    14.18   0.09182    14.01   0.22208  -110.89
      10600   0.54762   128.41    3.0704    12.42  0.093157    13.46   0.21206  -113.56
      10800   0.54882   126.93    3.0259    10.68  0.094625    13.17   0.21157  -115.54
      11000   0.55264   124.87    2.9745     8.97  0.096437    12.79     0.205  -117.31
      11200   0.55838   123.13    2.9452     7.10  0.098248    12.38   0.20594  -120.83
      11400   0.56181   121.23     2.886     5.17  0.099978    11.49   0.19919  -123.42
      11600    0.5653   119.28    2.8355     3.51   0.10113    10.97   0.19324  -126.79
      11800   0.57085   117.78     2.794     1.70   0.10325    10.43   0.19058  -128.74
      12000   0.57092   116.15     2.761     0.22   0.10424     9.97   0.18309  -131.80
      12200   0.57826   113.99    2.7285    -1.94   0.10695     9.47   0.18434  -134.30
      12400   0.57816   111.91     2.682    -3.89   0.10906     8.48   0.17736  -138.27
      12600   0.57982   110.03    2.6267    -5.41   0.10963     8.02   0.17086  -141.03
      12800   0.58979   109.05    2.6101    -6.97   0.11292     7.74   0.16808  -142.14
      13000    0.5868   106.72    2.5695    -8.93   0.11379     6.55   0.16592  -146.39
      13200   0.59299   105.74    2.5179   -10.71   0.11565     5.83   0.16138  -150.38
      13400   0.59575   104.06    2.4985   -12.58   0.11871     4.90   0.16559  -154.51
      13600     0.603   102.19    2.4714   -14.54   0.12013     4.18   0.16436  -159.25
      13800    0.6013   100.60    2.4298   -16.29   0.12275     3.33   0.16263  -164.19
      14000   0.60979    98.63    2.4052   -17.84   0.12401     2.34   0.16173  -169.56
      14200   0.61529    97.47    2.3751   -19.72   0.12614     1.81   0.15833  -173.62
      14400   0.61745    94.91    2.3427   -21.66   0.12797     0.75   0.16297   179.40
      14600   0.62367    93.59    2.3143   -23.37   0.13047     0.19   0.15596   176.21
      14800   0.62576    91.55    2.2863   -25.13   0.13278    -0.74   0.16105   170.68
      15000   0.63532    90.26    2.2542   -26.94    0.1349    -1.74   0.15804   167.18
      15200   0.63781    88.85    2.2336   -28.64   0.13744    -2.83   0.16432   163.41
      15400   0.65044    87.21    2.2128   -30.46   0.13917    -3.79   0.16609   159.14
      15600   0.65268    86.27    2.1873   -32.35   0.14184    -4.76   0.17143   155.47
      15800   0.66055    84.12    2.1699   -34.11    0.1434    -6.01   0.17622   151.54
      16000   0.67291    82.96    2.1509   -36.29   0.14598    -6.84   0.18076   147.30
      16200   0.67865    80.94    2.1315   -38.46   0.14821    -7.89    0.1856   143.96
      16400   0.68768    79.36    2.0902   -40.55   0.15031    -8.68   0.18708   140.03
      16600   0.68732    77.75    2.0602   -42.21   0.15363    -9.96   0.19817   137.75
      16800   0.69158    75.87    2.0314   -43.78   0.15518   -10.88   0.19809   132.81
      17000   0.69113    74.18    2.0214   -45.54    0.1582   -12.17   0.21306   130.44
      17200   0.69338    72.33    2.0026   -47.54   0.16063   -13.20   0.21357   125.58
      17400   0.69982    69.94    1.9869   -49.97   0.16237   -14.51   0.22933   122.82
      17600   0.69784    68.50    1.9491   -51.71   0.16564   -15.20   0.22826   118.06
      17800   0.70066    66.64    1.9334   -53.76   0.16899   -16.79   0.23788   115.32
      18000   0.71176    65.65    1.8971   -55.79   0.17126   -18.23   0.24203   113.71
      18200    0.7185    63.32     1.882   -58.15   0.17369   -19.55   0.25491   110.33
      18400   0.72701    61.99    1.8358   -60.40    0.1756   -20.87   0.26072   108.35
      18600   0.71846    60.66     1.787   -61.89   0.17702   -21.98   0.27507   105.35
      18800   0.72712    58.44    1.7606   -63.61   0.17965   -23.27   0.28504   102.84
      19000   0.72225    57.23    1.7398   -64.98   0.18373   -24.35   0.29301   100.17
      19200    0.7291    55.48    1.7151   -66.79   0.18685   -26.01   0.29967    97.71
      19400   0.73461    54.46    1.6905   -68.04   0.18938   -27.35    0.3057    95.95
      19600   0.74184    53.14    1.6663   -69.77   0.19096   -29.75   0.32122    95.50
      19800   0.76666    52.62     1.667   -71.07   0.19058   -30.43   0.33714    91.36
      20000   0.77647    49.91    1.6594   -73.51   0.19284   -31.33   0.34178    90.15

!  
! Device Noise Parameters
!  Freq-MHz   Fmin-dB  Gopt-mag  Gopt-arg   rn_normalized
	400	0.4953	0.45723	3.48	0.1402
	420	0.4959	0.45556	3.93	0.1402
	440	0.4966	0.45392	4.38	0.1402
	460	0.4972	0.45230	4.84	0.1403
	480	0.4978	0.45070	5.29	0.1403
	500	0.4984	0.44913	5.74	0.1403
	550	0.5000	0.44527	6.87	0.1402
	600	0.5015	0.44155	8.00	0.1402
	650	0.5031	0.43795	9.14	0.1402
	700	0.5047	0.43446	10.27	0.1401
	750	0.5064	0.43110	11.40	0.1400
	800	0.5080	0.42784	12.53	0.1399
	850	0.5097	0.42470	13.65	0.1398
	900	0.5114	0.42166	14.78	0.1397
	950	0.5131	0.41872	15.90	0.1395
	1000	0.5148	0.41588	17.02	0.1393
	1050	0.5165	0.41313	18.14	0.1392
	1100	0.5183	0.41047	19.25	0.1390
	1150	0.5201	0.40790	20.36	0.1387
	1200	0.5219	0.40541	21.47	0.1385
	1250	0.5237	0.40300	22.57	0.1383
	1300	0.5255	0.40066	23.67	0.1380
	1350	0.5274	0.39840	24.76	0.1377
	1400	0.5292	0.39621	25.85	0.1374
	1450	0.5311	0.39408	26.93	0.1371
	1500	0.5330	0.39201	28.01	0.1368
	1550	0.5350	0.39000	29.08	0.1365
	1600	0.5369	0.38805	30.15	0.1361
	1650	0.5389	0.38615	31.21	0.1358
	1700	0.5408	0.38430	32.27	0.1354
	1750	0.5429	0.38249	33.32	0.1350
	1800	0.5449	0.38073	34.37	0.1346
	1850	0.5469	0.37901	35.41	0.1342
	1900	0.5490	0.37732	36.44	0.1338
	1950	0.5510	0.37568	37.47	0.1334
	2000	0.5531	0.37406	38.50	0.1329
	2050	0.5553	0.37247	39.52	0.1325
	2100	0.5574	0.37091	40.53	0.1320
	2150	0.5595	0.36938	41.54	0.1315
	2200	0.5617	0.36787	42.54	0.1310
	2250	0.5639	0.36638	43.54	0.1305
	2300	0.5661	0.36491	44.54	0.1300
	2350	0.5683	0.36346	45.52	0.1295
	2400	0.5706	0.36202	46.51	0.1290
	2450	0.5728	0.36060	47.49	0.1285
	2500	0.5751	0.35919	48.46	0.1279
	2600	0.5797	0.35639	50.40	0.1268
	2700	0.5844	0.35362	52.32	0.1257
	2800	0.5892	0.35087	54.23	0.1245
	2900	0.5940	0.34813	56.13	0.1233
	3000	0.5990	0.34540	58.01	0.1220
	3100	0.6039	0.34266	59.89	0.1208
	3200	0.6090	0.33990	61.76	0.1195
	3300	0.6142	0.33714	63.63	0.1182
	3400	0.6194	0.33436	65.49	0.1168
	3500	0.6247	0.33156	67.35	0.1155
	3600	0.6300	0.32874	69.22	0.1141
	3700	0.6355	0.32590	71.08	0.1127
	3800	0.6410	0.32304	72.95	0.1113
	3900	0.6466	0.32017	74.83	0.1099
	4000	0.6522	0.31729	76.72	0.1085
	4100	0.6580	0.31440	78.62	0.1071
	4200	0.6638	0.31150	80.54	0.1057
	4300	0.6697	0.30861	82.47	0.1043
	4400	0.6756	0.30572	84.41	0.1028
	4500	0.6817	0.30286	86.38	0.1014
	4600	0.6878	0.30001	88.37	0.1000
	4700	0.6940	0.29720	90.37	0.0986
	4800	0.7002	0.29443	92.41	0.0972
	4900	0.7065	0.29171	94.47	0.0958
	5000	0.7130	0.28905	96.55	0.0944
	5200	0.7260	0.28397	100.81	0.0916
	5400	0.7393	0.27927	105.18	0.0890
	5600	0.7530	0.27504	109.67	0.0864
	5800	0.7669	0.27139	114.27	0.0839
	6000	0.7811	0.26840	118.98	0.0815
	6200	0.7957	0.26616	123.78	0.0792
	6400	0.8105	0.26476	128.65	0.0771
	6600	0.8256	0.26424	133.58	0.0752
	6800	0.8410	0.26467	138.52	0.0734
	7000	0.8568	0.26606	143.45	0.0718
	7200	0.8728	0.26842	148.33	0.0704
	7400	0.8891	0.27174	153.15	0.0692
	7600	0.9057	0.27597	157.87	0.0683
	7800	0.9226	0.28106	162.47	0.0676
	8000	0.9399	0.28695	166.93	0.0672
	8200	0.9574	0.29354	171.23	0.0671
	8400	0.9752	0.30076	175.39	0.0672
	8600	0.9933	0.30850	179.38	0.0677
	8800	1.0117	0.31667	183.22	0.0685
	9000	1.0304	0.32518	186.90	0.0696
	9200	1.0494	0.33392	190.44	0.0711
	9400	1.0687	0.34281	193.85	0.0730
	9600	1.0883	0.35175	197.14	0.0752
	9800	1.1082	0.36067	200.32	0.0779
	10000	1.1284	0.36950	203.40	0.0810
	10200	1.1489	0.37815	206.40	0.0845
	10400	1.1697	0.38657	209.32	0.0885
	10600	1.1908	0.39470	212.19	0.0929
	10800	1.2122	0.40249	215.02	0.0978
	11000	1.2339	0.40990	217.81	0.1032
	11200	1.2559	0.41689	220.59	0.1092
	11400	1.2782	0.42345	223.37	0.1156
	11600	1.3007	0.42955	226.15	0.1226
	11800	1.3236	0.43520	228.95	0.1302
	12000	1.3468	0.44039	231.79	0.1383
	12200	1.3703	0.44516	234.68	0.1470
	12400	1.3940	0.44953	237.63	0.1563
	12600	1.4181	0.45356	240.65	0.1662
	12800	1.4425	0.45732	243.76	0.1768
	13000	1.4672	0.46089	246.98	0.1880
	13200	1.4921	0.46440	250.30	0.1999
	13400	1.5174	0.46797	253.74	0.2125
	13600	1.5430	0.47177	257.32	0.2257
	13800	1.5688	0.47599	261.03	0.2397
	14000	1.5950	0.48085	264.88	0.2544