! Filename:  P:\Prog\Test\Noise\ATS_data\Testdata_Net\BFU730\BFU730_2W_B1_2V9mA_D.s2p
! Date/Time: Fri 29/Apr/2011 14:14:07
! BFU730_2W_B1_2V9mA
! bias mode 1: Vout= 2.0001 V, Iout= 9.0050 mA, Vin= 0.8011 V, Iin= 0.0279 mA
! Date/time Wed Mar 16 17:04:01 2011
! Device data file deembeded for feedlines and parallel
! Original file: \BFU730\BFU730_2W_B1_2V9mA_R.s2p
! Feed-files: PR003V01_101208_Feed1.s2p, PR003V01_101208_Feed2.s2p
! Parallel-file: PR003V01_101208_Par.s2p
# MHz S MA R 50
!  Freq-MHz   S11-mag  S11-arg   S21-mag  S21-arg   S12-mag  S12-arg   S22-mag  S22-arg
         40   0.91139    -2.66    25.646   177.91 0.0013532    87.41   0.99606    -1.20
         50   0.90636    -3.65    25.718   176.94 0.0016615    71.69   0.99609    -1.71
         60   0.91088    -3.75    25.402   176.62  0.001883    88.51   0.99707    -1.99
         70   0.91181    -4.58     25.46   176.50 0.0024025    86.97   0.99709    -2.41
         80   0.91101    -5.30    25.635   175.93  0.002782    87.00   0.99712    -2.81
         90   0.91049    -6.00     25.62   175.23 0.0031233    86.39   0.99677    -3.22
        100   0.91071    -6.63    25.489   174.85 0.0034444    85.86   0.99631    -3.60
        120   0.90977    -8.05    25.532   173.85 0.0041634    85.98   0.99553    -4.41
        140   0.90937    -9.37    25.489   172.87 0.0049042    85.51   0.99504    -5.22
        160   0.90825   -10.71    25.363   171.77 0.0055961    84.51    0.9936    -5.99
        180   0.90783   -12.10    25.357   170.88 0.0063075    84.03   0.99219    -6.76
        200   0.90593   -13.46    25.313   169.78 0.0070101    83.46   0.99056    -7.54
        220   0.90457   -14.81    25.304   168.81 0.0077202    82.86   0.98864    -8.33
        240    0.9021   -16.21    25.333   167.72 0.0084028    82.15   0.98698    -9.09
        260    0.9012   -17.50    25.162   166.73 0.0090962    81.54   0.98473    -9.85
        280   0.89901   -18.87    25.124   165.72 0.0097902    80.81   0.98259   -10.62
        300   0.89743   -20.24    25.011   164.72  0.010503    80.00   0.98033   -11.42
        320   0.89491   -21.50    24.874   163.78  0.011157    79.39    0.9773   -12.18
        340   0.89255   -22.85    24.827   162.72  0.011843    78.48   0.97402   -12.93
        360   0.89094   -24.15    24.687   161.88   0.01249    77.95   0.97039   -13.67
        380   0.88816   -25.52    24.653   160.90  0.013186    77.15   0.96699   -14.42
        400   0.88478   -26.85    24.638   159.93  0.013864    76.46    0.9632   -15.12
        420   0.88117   -28.22    24.598   158.91  0.014484    75.70   0.96039   -15.82
        440   0.87926   -29.45    24.401   158.02  0.015151    74.90   0.95662   -16.58
        460   0.87612   -30.82     24.36   157.08  0.015771    74.25   0.95275   -17.27
        480   0.87306   -32.05    24.179   156.16  0.016429    73.58    0.9497   -18.03
        500   0.86946   -33.31    24.034   155.22  0.017021    72.76   0.94429   -18.76
        550    0.8613   -36.50    23.822   152.90   0.01849    71.13   0.93152   -20.43
        600   0.85221   -39.72    23.594   150.66  0.019972    69.48   0.92075   -22.06
        650    0.8432   -42.70    23.172   148.50   0.02136    67.81   0.90877   -23.75
        700   0.83432   -45.60    22.749   146.46  0.022694    66.19   0.89521   -25.39
        750   0.82517   -48.70    22.499   144.40  0.023977    64.74   0.88175   -26.82
        800   0.81493   -51.73    22.231   142.36  0.025292    63.29   0.87038   -28.23
        850   0.80538   -54.52    21.805   140.40  0.026481    61.80    0.8577   -29.71
        900   0.79554   -57.24    21.406   138.49  0.027527    60.46   0.84207   -31.10
        950   0.78636   -60.06    21.098   136.69    0.0286    59.26   0.82851   -32.33
       1000   0.77614   -62.72    20.753   134.86  0.029676    58.02   0.81624   -33.58
       1050    0.7657   -65.38    20.394   133.06  0.030626    56.76   0.80259   -34.84
       1100   0.75706   -67.90    20.027   131.42  0.031541    55.68   0.78873   -35.99
       1150   0.74652   -70.56    19.723   129.65  0.032438    54.64   0.77564   -37.05
       1200   0.73681   -73.03    19.379   128.05  0.033298    53.52   0.76336   -38.14
       1250     0.728   -75.39    18.987   126.47    0.0341    52.46   0.75049   -39.27
       1300   0.71906   -77.78    18.656   124.92  0.034822    51.50   0.73712   -40.26
       1350   0.71017   -80.14    18.353   123.39  0.035557    50.61   0.72507   -41.17
       1400   0.70152   -82.49    18.034   121.90  0.036268    49.72   0.71321   -42.11
       1450   0.69307   -84.76    17.711   120.46  0.036911    48.86    0.7011   -43.01
       1500    0.6848   -86.88    17.391   119.07  0.037533    48.09   0.68965   -43.84
       1550   0.67729   -88.96    17.075   117.71  0.038163    47.33   0.67882   -44.63
       1600   0.66981   -90.96    16.757   116.43  0.038774    46.57   0.66842   -45.41
       1650   0.66228   -93.04    16.446   115.13  0.039318    45.87   0.65733   -46.20
       1700   0.65515   -95.04    16.169   113.83  0.039822    45.21   0.64668   -46.92
       1750   0.64809   -96.95    15.885   112.59  0.040328    44.53   0.63681   -47.65
       1800    0.6414   -98.92    15.599   111.37  0.040829    43.88   0.62698   -48.40
       1850   0.63472  -100.88    15.328   110.16  0.041306    43.26   0.61699   -49.05
       1900   0.62834  -102.74    15.067   108.96  0.041731    42.69   0.60811   -49.70
       1950   0.62211  -104.45    14.792   107.84  0.042161    42.18   0.59931   -50.36
       2000   0.61606  -106.16    14.518   106.74  0.042568    41.66   0.58987   -51.09
       2050   0.61071  -107.88    14.257   105.72  0.042975    41.18   0.57978   -51.65
       2100   0.60621  -109.53    14.015   104.69  0.043406    40.74   0.57176   -52.15
       2150   0.60118  -111.17    13.781   103.70  0.043795    40.36   0.56326   -52.75
       2200   0.59592  -112.77    13.556   102.73  0.044193    39.87   0.55495   -53.16
       2250   0.59024  -114.41    13.327   101.69  0.044543    39.43   0.54837   -53.74
       2300   0.58606  -115.93    13.096   100.73  0.044919    38.95   0.54051   -54.41
       2350   0.58246  -117.50    12.872    99.84  0.045203    38.61   0.53154   -54.98
       2400   0.57843  -119.10    12.669    98.95  0.045567    38.33   0.52321   -55.37
       2450   0.57323  -120.62    12.461    98.11  0.045917    38.02   0.51537   -55.76
       2500    0.5688  -122.14    12.272    97.27  0.046331    37.60   0.50843   -56.14
       2600   0.56113  -124.80    11.904    95.60  0.046946    36.86     0.495   -56.89
       2700   0.55381  -127.58    11.548    93.93  0.047497    36.20   0.48239   -57.56
       2800   0.54804  -130.17    11.218    92.33  0.048033    35.61   0.47102   -58.19
       2900    0.5416  -132.70     10.89    90.83  0.048533    35.16   0.46047   -58.68
       3000    0.5364  -135.08    10.605    89.38   0.04909    34.75   0.45123   -59.28
       3100   0.53211  -137.46    10.333    87.86   0.04962    34.32   0.44259   -59.91
       3200    0.5279  -139.73    10.058    86.43  0.050123    33.91   0.43324   -60.60
       3300   0.52427  -142.02    9.8092    85.03  0.050617    33.51    0.4251   -61.38
       3400   0.51976  -144.24    9.5684    83.61  0.051187    33.16   0.41738   -62.06
       3500   0.51675  -146.38    9.3418    82.24  0.051675    32.87    0.4091   -62.67
       3600   0.51365  -148.57    9.1151    80.89   0.05219    32.59   0.40053   -63.20
       3700   0.51016  -150.56    8.9001    79.53  0.052658    32.30   0.39321   -63.74
       3800   0.50728  -152.68    8.6982    78.22  0.053183    32.07    0.3861   -64.34
       3900   0.50467  -154.50    8.5015    76.97  0.053742    31.85   0.38005   -64.90
       4000   0.50258  -156.53    8.3095    75.69  0.054246    31.57   0.37296   -65.49
       4100   0.49971  -158.39    8.1263    74.47  0.054717    31.38   0.36575   -65.91
       4200   0.49783  -160.22    7.9538    73.25  0.055285    31.16   0.36012   -66.50
       4300     0.496  -161.92    7.7889    72.07  0.055827    30.93   0.35521   -67.09
       4400   0.49376  -163.75    7.6268    70.86  0.056417    30.68   0.34977   -67.58
       4500   0.49224  -165.38    7.4722    69.70  0.056926    30.52   0.34434   -68.08
       4600   0.49103  -167.11    7.3223    68.58  0.057446    30.29   0.33879   -68.68
       4700   0.49005  -168.72    7.1827    67.43  0.057931    30.08   0.33345   -69.28
       4800   0.48865  -170.49     7.039    66.28  0.058462    29.85   0.32904   -69.89
       4900   0.48779  -172.10    6.9105    65.14  0.058995    29.65   0.32427   -70.38
       5000   0.48571  -173.69    6.7799    64.07  0.059547    29.50   0.31907   -70.82
       5200   0.48405  -176.73    6.5302    61.85   0.06061    29.14   0.31016   -72.03
       5400   0.48252  -179.69    6.3076    59.79  0.061709    28.75   0.30226   -72.94
       5600   0.48113   177.38    6.0906    57.65  0.062744    28.40    0.2934   -74.18
       5800   0.47975   174.66    5.8885    55.65    0.0638    28.07   0.28619   -75.06
       6000   0.47944   172.05     5.706    53.62  0.064871    27.76   0.27908   -76.29
       6200      0.48   169.59    5.5326    51.68  0.066079    27.50   0.27264   -77.26
       6400   0.47985   167.08    5.3694    49.72  0.067199    27.22   0.26594   -78.52
       6600   0.48034   164.47     5.215    47.76  0.068437    26.89    0.2595   -79.50
       6800   0.48035   162.14    5.0761    45.90  0.069758    26.49   0.25411   -80.93
       7000   0.48102   159.81    4.9329    44.00   0.07091    26.34   0.24772   -82.04
       7200   0.48267   157.65    4.8123    42.15  0.072478    26.02    0.2433   -83.45
       7400   0.48454   155.26    4.6935    40.12   0.07381    25.42   0.23713   -85.04
       7600   0.48767   153.26     4.587    38.22  0.075424    25.12    0.2334   -86.68
       7800   0.48744   150.59    4.4563    36.19  0.076444    24.35    0.2237   -88.52
       8000   0.48686   149.04    4.3582    34.86  0.077838    24.66   0.22188   -88.55
       8200   0.49187   146.67    4.2634    32.58  0.079762    23.75   0.21522   -91.40
       8400   0.49273   144.57    4.1658    30.88  0.081307    23.53   0.21242   -92.53
       8600   0.49218   142.31    4.0517    29.00  0.082231    22.43   0.20221   -94.73
       8800   0.49174   140.44     3.965    27.20  0.083889    22.25   0.19864   -96.20
       9000   0.49548   139.15    3.8933    25.70  0.085475    22.10   0.19559   -97.84
       9200   0.49698   137.18    3.8094    23.91  0.087012    21.39   0.18828   -99.74
       9400   0.50075   135.29    3.7354    22.05  0.088416    20.80   0.18421  -101.83
       9600   0.50589   133.57    3.6637    20.42   0.09021    20.44   0.17783  -103.61
       9800   0.50879   131.73    3.6092    18.66  0.091843    20.10   0.17446  -104.95
      10000   0.51496   129.94    3.5451    16.81  0.094683    19.45   0.17369  -107.44
      10200   0.51727   127.73    3.4779    14.90  0.096308    18.37   0.16599  -110.78
      10400   0.51963   125.85    3.4041    13.10  0.097829    17.56    0.1618  -113.53
      10600   0.52069   124.01    3.3397    11.42  0.099504    16.84   0.15514  -116.00
      10800   0.52381   122.45    3.2879     9.76   0.10116    16.23   0.15068  -118.43
      11000   0.52951   120.58    3.2271     8.08   0.10315    15.56   0.14735  -120.39
      11200   0.53475   119.06     3.199     6.30   0.10518    14.89   0.14581  -124.21
      11400   0.53736   117.16    3.1316     4.38    0.1071    13.79   0.14053  -127.92
      11600   0.53972   115.38     3.079     2.82   0.10843    13.03   0.13519  -131.55
      11800   0.54557   113.64    3.0335     0.98   0.11071    12.14   0.13172  -134.59
      12000   0.54722   112.27     2.996    -0.40   0.11174    11.49   0.12703  -138.17
      12200   0.55583   110.21    2.9613    -2.54   0.11451    10.73   0.12508  -141.20
      12400   0.55628   108.36    2.9076    -4.44   0.11667     9.63   0.12253  -146.48
      12600   0.55613   106.89    2.8508    -5.83   0.11752     8.93   0.11332  -149.83
      12800   0.56391   105.59    2.8313    -7.46   0.12071     8.35    0.1147  -151.18
      13000   0.56178   103.57    2.7882    -9.27   0.12166     7.00   0.11118  -156.62
      13200   0.56739   102.16    2.7323   -11.16   0.12367     6.03   0.11072  -161.54
      13400   0.57359   100.85    2.7096   -12.86   0.12641     5.02   0.11452  -166.64
      13600   0.58139    99.17     2.681   -14.77   0.12791     4.13   0.11599  -171.57
      13800   0.58317    97.53    2.6293   -16.51   0.13017     3.10   0.11573  -178.66
      14000   0.59024    95.96    2.6059   -17.88   0.13158     2.07   0.11626   175.53
      14200   0.59779    94.51    2.5727   -19.81   0.13357     1.30   0.11657   169.88
      14400   0.59909    92.33    2.5381   -21.59   0.13553     0.21   0.12142   162.76
      14600   0.60429    90.74    2.5116   -23.32   0.13794    -0.49   0.11898   158.41
      14800   0.60625    89.12     2.482   -24.96   0.14026    -1.60   0.12212   152.54
      15000   0.61231    87.67    2.4509   -26.79   0.14253    -2.71   0.12431   148.89
      15200   0.61648    86.28    2.4275   -28.41   0.14473    -3.92   0.12884   145.32
      15400   0.62704    84.74    2.4078   -30.25   0.14659    -4.93   0.13416   141.04
      15600   0.63162    83.57    2.3796   -32.14   0.14902    -6.13   0.14005   137.79
      15800   0.63898    81.93    2.3611   -33.77   0.15044    -7.37   0.14515   133.63
      16000   0.65076    80.43    2.3417   -36.04   0.15275    -8.40   0.15409   129.93
      16200   0.65839    78.56    2.3188   -38.09   0.15489    -9.43   0.15653   126.43
      16400   0.66418    76.72    2.2757   -40.26   0.15695   -10.32   0.16242   123.04
      16600    0.6665    75.04    2.2414   -41.84   0.16006   -11.70   0.17137   121.44
      16800   0.67149    73.30    2.2119   -43.34   0.16144   -12.73   0.17629   116.92
      17000   0.67466    71.47    2.1986   -45.11    0.1642   -14.07   0.18951   114.80
      17200    0.6782    69.69    2.1792   -47.08   0.16626   -15.14   0.19419   110.70
      17400   0.68491    67.50    2.1633   -49.40   0.16786   -16.36   0.20644   108.03
      17600   0.68436    66.03    2.1226   -51.17   0.17104   -17.19   0.21019   104.08
      17800   0.68531    64.72    2.1062   -53.08   0.17419   -18.76   0.21522   101.48
      18000    0.6945    63.56    2.0704   -55.16    0.1766   -20.20   0.22103   100.59
      18200   0.69998    61.33     2.054   -57.46   0.17869   -21.56   0.23304    98.15
      18400   0.70456    59.65    2.0108   -59.77   0.18105   -22.92   0.23759    96.62
      18600   0.70023    58.32    1.9533   -61.16   0.18197   -24.08   0.25358    94.69
      18800   0.70807    56.28    1.9279   -62.84   0.18499   -25.33   0.26188    92.15
      19000   0.70537    55.14    1.8991   -64.21   0.18819   -26.50    0.2713    89.99
      19200   0.71088    53.77    1.8771   -66.03   0.19147   -28.22   0.27736    87.65
      19400   0.71484    52.61    1.8515   -67.25   0.19369   -29.62   0.28188    86.58
      19600   0.72023    51.40    1.8264   -68.88   0.19521   -31.98   0.29842    86.49
      19800   0.74516    50.38    1.8314   -70.24   0.19486   -32.70   0.31248    83.14
      20000   0.75925    47.62    1.8214   -72.56   0.19674   -33.49   0.32083    81.30

!  
! Device Noise Parameters
!  Freq-MHz   Fmin-dB  Gopt-mag  Gopt-arg   rn_normalized
	400	0.5682	0.34627	4.23	0.1289
	420	0.5687	0.34511	4.67	0.1288
	440	0.5691	0.34397	5.10	0.1288
	460	0.5695	0.34283	5.54	0.1288
	480	0.5700	0.34172	5.98	0.1287
	500	0.5704	0.34061	6.42	0.1287
	550	0.5715	0.33791	7.52	0.1286
	600	0.5727	0.33528	8.62	0.1285
	650	0.5738	0.33273	9.72	0.1284
	700	0.5750	0.33026	10.81	0.1283
	750	0.5762	0.32786	11.90	0.1281
	800	0.5774	0.32553	12.99	0.1280
	850	0.5786	0.32327	14.08	0.1278
	900	0.5798	0.32107	15.17	0.1276
	950	0.5810	0.31893	16.25	0.1274
	1000	0.5823	0.31686	17.33	0.1272
	1050	0.5836	0.31483	18.40	0.1270
	1100	0.5849	0.31287	19.48	0.1268
	1150	0.5862	0.31095	20.54	0.1266
	1200	0.5875	0.30908	21.61	0.1264
	1250	0.5889	0.30726	22.67	0.1261
	1300	0.5903	0.30549	23.73	0.1258
	1350	0.5916	0.30375	24.78	0.1256
	1400	0.5930	0.30206	25.83	0.1253
	1450	0.5945	0.30040	26.87	0.1250
	1500	0.5959	0.29878	27.91	0.1247
	1550	0.5973	0.29719	28.95	0.1244
	1600	0.5988	0.29563	29.98	0.1241
	1650	0.6003	0.29410	31.01	0.1238
	1700	0.6018	0.29260	32.03	0.1234
	1750	0.6033	0.29112	33.05	0.1231
	1800	0.6049	0.28967	34.07	0.1227
	1850	0.6064	0.28823	35.08	0.1224
	1900	0.6080	0.28682	36.08	0.1220
	1950	0.6096	0.28543	37.09	0.1217
	2000	0.6112	0.28405	38.09	0.1213
	2050	0.6128	0.28269	39.08	0.1209
	2100	0.6144	0.28135	40.07	0.1205
	2150	0.6161	0.28001	41.06	0.1201
	2200	0.6177	0.27869	42.04	0.1197
	2250	0.6194	0.27738	43.03	0.1193
	2300	0.6211	0.27607	44.00	0.1189
	2350	0.6228	0.27478	44.98	0.1184
	2400	0.6246	0.27349	45.95	0.1180
	2450	0.6263	0.27220	46.92	0.1176
	2500	0.6281	0.27093	47.89	0.1171
	2600	0.6317	0.26838	49.82	0.1162
	2700	0.6354	0.26584	51.74	0.1153
	2800	0.6391	0.26331	53.66	0.1143
	2900	0.6429	0.26079	55.58	0.1134
	3000	0.6467	0.25825	57.49	0.1124
	3100	0.6507	0.25572	59.41	0.1114
	3200	0.6546	0.25318	61.33	0.1104
	3300	0.6587	0.25063	63.25	0.1094
	3400	0.6628	0.24808	65.18	0.1084
	3500	0.6670	0.24552	67.13	0.1074
	3600	0.6713	0.24296	69.08	0.1063
	3700	0.6756	0.24040	71.05	0.1053
	3800	0.6800	0.23784	73.03	0.1042
	3900	0.6845	0.23529	75.04	0.1032
	4000	0.6890	0.23275	77.06	0.1021
	4100	0.6936	0.23023	79.11	0.1010
	4200	0.6983	0.22774	81.18	0.1000
	4300	0.7030	0.22527	83.29	0.0989
	4400	0.7078	0.22285	85.42	0.0979
	4500	0.7127	0.22047	87.58	0.0969
	4600	0.7176	0.21815	89.77	0.0958
	4700	0.7226	0.21590	92.00	0.0948
	4800	0.7277	0.21372	94.27	0.0938
	4900	0.7328	0.21163	96.57	0.0928
	5000	0.7380	0.20963	98.91	0.0918
	5200	0.7486	0.20598	103.69	0.0898
	5400	0.7595	0.20284	108.63	0.0880
	5600	0.7707	0.20032	113.70	0.0862
	5800	0.7821	0.19849	118.89	0.0844
	6000	0.7938	0.19743	124.18	0.0828
	6200	0.8057	0.19721	129.53	0.0814
	6400	0.8179	0.19788	134.91	0.0800
	6600	0.8304	0.19947	140.27	0.0788
	6800	0.8432	0.20198	145.57	0.0777
	7000	0.8562	0.20540	150.78	0.0767
	7200	0.8695	0.20971	155.86	0.0760
	7400	0.8831	0.21485	160.79	0.0754
	7600	0.8969	0.22076	165.54	0.0750
	7800	0.9110	0.22738	170.10	0.0749
	8000	0.9254	0.23462	174.46	0.0749
	8200	0.9400	0.24239	178.63	0.0752
	8400	0.9549	0.25064	182.61	0.0757
	8600	0.9701	0.25926	186.41	0.0765
	8800	0.9855	0.26818	190.03	0.0775
	9000	1.0013	0.27734	193.51	0.0788
	9200	1.0172	0.28666	196.83	0.0803
	9400	1.0335	0.29608	200.03	0.0822
	9600	1.0500	0.30554	203.12	0.0844
	10200	1.1012	0.33368	211.82	0.0929
	10400	1.1188	0.34283	214.58	0.0964
	10600	1.1367	0.35183	217.30	0.1003
	10800	1.1548	0.36063	219.97	0.1046
	11000	1.1732	0.36923	222.62	0.1093
	11200	1.1919	0.37760	225.26	0.1143
	11400	1.2108	0.38575	227.89	0.1198
	11600	1.2300	0.39367	230.53	0.1257
	11800	1.2495	0.40139	233.18	0.1320
	12000	1.2693	0.40890	235.85	0.1388
	12200	1.2893	0.41625	238.56	0.1460
	12400	1.3096	0.42347	241.30	0.1537
	12600	1.3301	0.43059	244.09	0.1619
	12800	1.3509	0.43770	246.94	0.1705
	13200	1.3934	0.45210	252.81	0.1893
	13400	1.4150	0.45958	255.85	0.1995
	13600	1.4369	0.46737	258.95	0.2103
	13800	1.4591	0.47561	262.13	0.2216
	14000	1.4815	0.48442	265.38	0.2334
