! Filename:  P:\Prog\Test\Noise\ATS_data\Testdata_Net\Split files Spar\BFU730_2W_B1_Bias7_2.5V_1mA_25mA_D.s2p
! Date/Time: Fri 29/Apr/2011 15:08:39
! BFU730_2W_B1_Bias7_2.5V_1mA_25mA_R.s2p
! MDIF S-parameter v. bias file
! BFU730_2W_B1_2.5V_1mA_25mA
! Date/time Thu Mar 17 13:38:09 2011
! VAR V_out= 2.5000
! VAR I_out= 15.0750
! VAR V_in= 0.8056
! VAR I_in= 0.0504
! Device data file deembeded for feedlines and parallel
! Original file: \Split files Spar\BFU730_2W_B1_Bias7_2.5V_1mA_25mA_R.s2p
! Feed-files: PR003V01_101208_Feed1.s2p, PR003V01_101208_Feed2.s2p
! Parallel-file: PR003V01_101208_Par.s2p
# MHz S MA R 50
!  Freq-MHz   S11-mag  S11-arg   S21-mag  S21-arg   S12-mag  S12-arg   S22-mag  S22-arg
         40   0.84949    -3.48    38.277   177.08 0.0013507    75.98   0.98781    -1.22
         50   0.84915    -5.01    38.348   176.04 0.0019127    90.99   0.98767    -1.93
         60    0.8462    -5.13    37.991   175.61 0.0021258    80.08   0.98992    -2.38
         70   0.84919    -6.12    38.055   175.30 0.0022745    80.89   0.98991    -2.99
         80   0.84853    -7.08    38.223   174.60 0.0026137    81.41   0.98979    -3.53
         90   0.84778    -7.99    38.177   173.78  0.002955    81.39   0.98915    -4.10
        100   0.84725    -8.78    37.995   173.24 0.0032569    81.92   0.98832    -4.61
        120   0.84652   -10.69    38.023   171.95 0.0038956    81.47   0.98713    -5.69
        140   0.84506   -12.46    37.896   170.67 0.0045552    81.42   0.98559    -6.76
        160   0.84318   -14.22    37.678   169.32 0.0051691    80.55   0.98298    -7.76
        180   0.84203   -16.01     37.59   168.13 0.0058104    80.20   0.98033    -8.77
        200   0.83969   -17.84    37.458   166.76 0.0064735    79.65   0.97744    -9.80
        220   0.83698   -19.61    37.373   165.50 0.0071037    79.01   0.97384   -10.81
        240   0.83322   -21.41      37.3   164.14 0.0077373    78.36   0.97029   -11.81
        260   0.83139   -23.12    36.984   162.89 0.0083216    77.59   0.96612   -12.78
        280   0.82837   -24.90    36.839   161.63 0.0089561    76.95    0.9622   -13.76
        300   0.82564   -26.65    36.594   160.38 0.0095799    76.21   0.95767   -14.74
        320   0.82146   -28.31    36.374   159.19  0.010175    75.36    0.9523   -15.68
        340   0.81777   -30.05    36.164   157.93  0.010742    74.60   0.94685   -16.61
        360    0.8146   -31.71    35.912   156.84   0.01133    73.97   0.94092   -17.53
        380   0.81001   -33.51    35.764   155.61  0.011916    73.10    0.9354   -18.44
        400   0.80475   -35.18    35.556   154.42  0.012466    72.19   0.92909   -19.30
        420       0.8   -36.87    35.355   153.21  0.013048    71.53   0.92383   -20.16
        440   0.79675   -38.46    35.015   152.14  0.013586    70.79    0.9175   -21.07
        460   0.79169   -40.17    34.847   150.98  0.014107    70.06   0.91118   -21.92
        480   0.78731   -41.72    34.475   149.88  0.014646    69.24    0.9051   -22.82
        500   0.78211   -43.29    34.209   148.74  0.015099    68.50   0.89727   -23.67
        550   0.77022   -47.23    33.563   145.99  0.016308    66.82   0.87793   -25.56
        600   0.75705   -51.12    32.882   143.38   0.01746    65.17   0.86088   -27.44
        650   0.74523   -54.71     32.06   140.93  0.018567    63.49   0.84278   -29.28
        700   0.73296   -58.26    31.271   138.59  0.019599    61.96   0.82373   -30.99
        750   0.72072   -61.85    30.601   136.28  0.020559    60.67   0.80538   -32.55
        800    0.7085   -65.32    29.892   134.08  0.021527    59.29   0.78858   -34.02
        850   0.69646   -68.59    29.128   131.94  0.022377    57.94   0.77055   -35.54
        900   0.68442   -71.71     28.38   129.90  0.023144    56.87   0.75174   -36.83
        950   0.67384   -74.83    27.708   127.98  0.023897    55.78   0.73482   -38.03
       1000   0.66244   -77.76    27.015   126.10   0.02464    54.76   0.71875   -39.27
       1050   0.65082   -80.70    26.343   124.28  0.025338    53.78   0.70218   -40.40
       1100   0.64124   -83.45     25.69   122.57   0.02596    52.90   0.68646   -41.46
       1150   0.63097   -86.27    25.072   120.84  0.026571    52.14   0.67153   -42.40
       1200   0.62106   -88.86    24.459   119.26  0.027176    51.31   0.65717   -43.35
       1250   0.61231   -91.44    23.839   117.70  0.027719    50.53   0.64273   -44.32
       1300   0.60366   -93.93     23.27   116.20  0.028246    49.90   0.62862   -45.12
       1350   0.59556   -96.32    22.726   114.75  0.028757    49.32   0.61567   -45.91
       1400    0.5875   -98.74    22.191   113.33  0.029217    48.68   0.60299   -46.69
       1450    0.5796  -101.01     21.67   111.98  0.029672    48.16   0.59048   -47.39
       1500   0.57269  -103.17    21.166   110.68  0.030147    47.65    0.5789   -48.03
       1550   0.56606  -105.26    20.677   109.42   0.03059    47.23   0.56801   -48.62
       1600   0.55981  -107.26    20.203   108.22  0.031034    46.77   0.55745   -49.23
       1650   0.55331  -109.37    19.742   107.01   0.03146    46.32   0.54672   -49.81
       1700   0.54726  -111.30     19.32   105.82  0.031847    45.97   0.53674   -50.34
       1750   0.54153  -113.13    18.898   104.70  0.032228    45.66   0.52725   -50.90
       1800   0.53642  -115.09    18.486   103.59  0.032605    45.26     0.518   -51.43
       1850   0.53119  -116.96    18.093   102.50  0.032964    44.94   0.50853   -51.92
       1900   0.52644  -118.67    17.718   101.43  0.033335    44.66   0.50068   -52.38
       1950   0.52151  -120.32     17.34   100.41  0.033671    44.37   0.49282   -52.88
       2000   0.51725  -122.00    16.967    99.43  0.033993    44.12   0.48391   -53.45
       2050   0.51329  -123.59     16.61    98.53  0.034318    43.98   0.47481   -53.83
       2100   0.50986  -125.18    16.285    97.60  0.034695    43.78   0.46766   -54.16
       2150    0.5068  -126.69    15.963    96.73  0.035041    43.64   0.46004   -54.59
       2200   0.50303  -128.23    15.662    95.88  0.035428    43.46    0.4531   -54.78
       2250   0.49921  -129.78    15.361    94.96  0.035768    43.19   0.44758   -55.25
       2300   0.49599  -131.15    15.056    94.12   0.03604    43.01   0.44083   -55.77
       2350   0.49394  -132.57    14.765    93.34  0.036313    42.91   0.43272   -56.22
       2400   0.49199  -134.01      14.5    92.58  0.036668    42.88   0.42527   -56.42
       2450   0.48889  -135.46    14.233    91.86  0.037051    42.85   0.41874   -56.65
       2500   0.48506  -136.99    13.998    91.10  0.037452    42.61   0.41252   -56.87
       2600   0.48008  -139.39    13.529    89.66  0.038113    42.31   0.40143   -57.24
       2700   0.47541  -141.93    13.085    88.18  0.038745    42.03   0.39108   -57.59
       2800   0.47178  -144.24    12.673    86.78  0.039347    41.83    0.3819   -57.90
       2900   0.46821  -146.51    12.274    85.48   0.03994    41.75   0.37351   -58.05
       3000    0.4648  -148.66    11.925    84.21  0.040629    41.68   0.36638   -58.41
       3100    0.4625  -150.77    11.594    82.83  0.041262    41.50    0.3601   -58.80
       3200   0.45974  -152.85    11.266    81.56  0.041896    41.36   0.35278   -59.25
       3300   0.45856  -154.85    10.963    80.33  0.042541    41.28   0.34626   -59.78
       3400   0.45585  -156.82    10.677    79.06  0.043218    41.20   0.34015   -60.28
       3500   0.45425  -158.72    10.407    77.82  0.043886    41.09    0.3338   -60.71
       3600   0.45268  -160.72    10.138    76.61  0.044554    41.00   0.32729   -61.06
       3700   0.45096  -162.35    9.8853    75.40  0.045205    40.94   0.32145   -61.34
       3800   0.44968  -164.35    9.6497    74.21  0.045922    40.83   0.31578   -61.81
       3900   0.44781  -165.85    9.4179    73.09   0.04667    40.78   0.31122   -62.20
       4000   0.44732  -167.77    9.1936    71.93  0.047349    40.62   0.30571   -62.65
       4100   0.44598  -169.27    8.9825    70.85  0.048045    40.60    0.3002   -62.86
       4200   0.44521  -170.98    8.7834    69.73  0.048787    40.45   0.29574   -63.26
       4300    0.4441  -172.39    8.5938    68.67  0.049552    40.34   0.29198   -63.77
       4400   0.44341  -174.07    8.4067    67.56   0.05033    40.14   0.28821   -64.17
       4500   0.44259  -175.46      8.23    66.52  0.051059    40.00   0.28423   -64.53
       4600   0.44247  -176.99    8.0593    65.50  0.051763    39.83    0.2796   -64.97
       4700   0.44262  -178.36    7.9009    64.45  0.052488    39.70    0.2752   -65.48
       4800   0.44224  -179.98    7.7382    63.39  0.053247    39.49   0.27206   -66.09
       4900    0.4418   178.58    7.5907    62.35  0.053958    39.35    0.2681   -66.45
       5000   0.44084   177.20    7.4424    61.36  0.054717    39.23   0.26417   -66.71
       5200   0.44056   174.58    7.1608    59.34  0.056221    38.84   0.25714   -67.77
       5400   0.44047   171.93    6.9116    57.44  0.057761    38.45   0.25123   -68.44
       5600   0.44052   169.36    6.6676    55.47  0.059241    38.04   0.24422   -69.54
       5800   0.44009   166.94    6.4423    53.62  0.060727    37.68   0.23852   -70.20
       6000   0.44072   164.71    6.2378    51.74  0.062263    37.26   0.23267   -71.33
       6200   0.44228   162.54    6.0442    49.94  0.063851    36.88   0.22737   -72.13
       6400   0.44326   160.27    5.8607    48.12  0.065416    36.47   0.22162   -73.20
       6600   0.44468   157.90    5.6904    46.30  0.067075    35.97   0.21699   -74.05
       6800   0.44576   155.87    5.5369    44.54  0.068759    35.38   0.21228   -75.45
       7000    0.4469   153.81    5.3788    42.78  0.070376    35.07   0.20703   -76.30
       7200   0.44875   152.02    5.2488    41.04  0.072312    34.54   0.20366   -77.55
       7400   0.45114   149.83    5.1165    39.12  0.074012    33.72   0.19855   -79.26
       7600   0.45439   148.15    4.9997    37.36  0.075943    33.27   0.19531   -80.43
       7800   0.45554   145.48    4.8552    35.37  0.077325    32.33   0.18586   -82.68
       8000   0.45451   144.17    4.7462    34.20  0.079146    32.33   0.18541   -81.91
       8200   0.46041   141.92    4.6432    31.96  0.081251    31.22   0.17876   -85.11
       8400   0.46218   140.02    4.5348    30.39  0.083133    30.79   0.17742   -85.98
       8600   0.46239   137.92    4.4098    28.57  0.084374    29.54   0.16619   -88.30
       8800   0.46264   136.32    4.3136    26.89  0.086307    29.13   0.16271   -89.42
       9000   0.46574   135.33    4.2357    25.49  0.088232    28.75   0.16039   -90.93
       9200   0.46771   133.46    4.1439    23.76  0.089951    27.82   0.15364   -93.06
       9400   0.47215   131.76    4.0616    22.01  0.091659    27.07   0.14998   -94.97
       9600   0.47754   130.18    3.9851    20.45  0.093674    26.50   0.14249   -96.71
       9800   0.48131   128.45    3.9235    18.79  0.095545    25.93   0.13958   -97.66
      10000   0.48725   126.76    3.8559    17.00  0.098556    25.06   0.13962  -100.26
      10200   0.49169   124.70    3.7792    15.17   0.10034    23.80   0.13065  -104.06
      10400   0.49312   123.07    3.7012    13.44   0.10212    22.86   0.12782  -106.75
      10600    0.4952   121.32     3.629    11.83   0.10393    21.93   0.11941  -109.43
      10800   0.49721   119.94    3.5751    10.26   0.10583    21.18   0.11681  -111.33
      11000   0.50328   118.19     3.508     8.63   0.10799    20.32   0.11229  -113.76
      11200    0.5086   116.64    3.4787     6.96   0.11013    19.48   0.11116  -117.81
      11400   0.51232   114.89    3.4054     5.08   0.11222    18.25   0.10484  -121.63
      11600     0.516   113.10    3.3459     3.60   0.11373    17.32  0.099828  -126.47
      11800     0.522   111.67    3.2991     1.85   0.11613    16.31  0.095738  -128.80
      12000   0.52249   110.35    3.2573     0.53   0.11731    15.47  0.090399  -133.30
      12200   0.53152   108.33    3.2224    -1.56   0.12016    14.59  0.089209  -135.95
      12400   0.53248   106.53    3.1631    -3.43   0.12242    13.34  0.084803  -143.12
      12600   0.53355   104.92    3.0998    -4.74   0.12334    12.48   0.07739  -146.63
      12800   0.54262   103.92    3.0792    -6.28    0.1266    11.73  0.076054  -147.88
      13000   0.54069   101.90    3.0338    -8.06   0.12752    10.32  0.074502  -155.19
      13200    0.5469   100.82    2.9718    -9.84   0.12959     9.25  0.071948  -161.10
      13400   0.55173    99.52     2.947   -11.57   0.13228     8.10  0.077579  -168.48
      13600   0.55945    97.89    2.9169   -13.40    0.1338     7.12  0.078956  -175.13
      13800   0.56022    96.32    2.8629   -15.11   0.13625     5.99  0.080114   176.23
      14000    0.5683    94.69    2.8352   -16.40   0.13757     4.86  0.082937   167.35
      14200   0.57591    93.39    2.8013   -18.26   0.13972     4.04  0.082558   160.94
      14400   0.57859    91.04    2.7614   -20.00   0.14163     2.85  0.091746   151.37
      14600   0.58454    89.66     2.735   -21.64   0.14415     2.01  0.087779   146.62
      14800   0.58642    87.91    2.7022   -23.27   0.14639     0.79  0.095277   139.99
      15000   0.59429    86.68     2.668   -25.03   0.14851    -0.41  0.096594   135.41
      15200    0.5972    85.27    2.6433   -26.64   0.15076    -1.73   0.10241   133.34
      15400   0.61037    83.90    2.6207   -28.36   0.15233    -2.76   0.10942   127.83
      15600   0.61399    82.84    2.5917   -30.24   0.15488    -4.03   0.11482   125.47
      15800    0.6222    81.12    2.5705   -31.80   0.15608    -5.35   0.12212   121.22
      16000   0.63551    79.83    2.5499   -34.05   0.15846    -6.36   0.13075   118.26
      16200   0.64355    77.95    2.5273   -36.05   0.16063    -7.47   0.13448   114.83
      16400   0.65159    76.24    2.4805   -38.17   0.16262    -8.42   0.14027   111.89
      16600   0.65346    74.62    2.4422   -39.69   0.16573    -9.83   0.14973   111.02
      16800   0.65894    72.94    2.4097   -41.12   0.16705   -10.87   0.15496   106.21
      17000   0.66074    71.26     2.398   -42.79   0.16984   -12.25   0.16877   105.20
      17200   0.66422    69.48    2.3787   -44.74   0.17198   -13.35   0.17389   100.81
      17400   0.67052    67.25    2.3647   -47.03   0.17363   -14.66   0.18648    99.14
      17600   0.66935    65.76     2.319   -48.79   0.17675   -15.56   0.19211    94.51
      17800   0.67098    64.27     2.303   -50.71   0.17971   -17.20   0.19766    93.03
      18000   0.68184    63.27    2.2602   -52.75   0.18179   -18.70   0.20377    92.09
      18200   0.68917    61.06    2.2448   -55.01   0.18387   -20.05   0.21475    90.03
      18400   0.69633    59.61    2.1963   -57.29   0.18595   -21.41   0.21902    89.04
      18600   0.68998    58.35    2.1334   -58.70   0.18679   -22.63   0.23591    87.73
      18800   0.69892    56.20    2.1052   -60.34   0.18962   -23.89   0.24482    85.60
      19000   0.69556    55.06    2.0753   -61.67   0.19302   -25.11    0.2545    83.49
      19200   0.70121    53.62    2.0493   -63.43   0.19595   -26.85   0.26053    81.49
      19400   0.70676    52.65    2.0221   -64.57   0.19802   -28.25   0.26397    80.37
      19600   0.71295    51.51    1.9923   -66.17   0.19906   -30.61   0.28014    81.37
      19800   0.73927    50.82    1.9995   -67.37   0.19853   -31.24   0.29673    77.87
      20000    0.7537    48.07    1.9933   -69.66   0.20061   -32.02   0.30325    76.24