! Filename:  P:\Prog\Test\Noise\ATS_data\Testdata_Net\Split files Spar\BFU730_2W_B1_1V_1mA_30mA_Bias7_D.s2p
! Date/Time: Fri 29/Apr/2011 14:16:19
! BFU730_2W_B1_1V_1mA_30mA_Bias7_R.s2p
! MDIF S-parameter v. bias file
! BFU730_2W_B1_1V_1mA_30mA
! Date/time Thu Mar 17 14:34:31 2011
! VAR V_out= 1.0000
! VAR I_out= 15.0000
! VAR V_in= 0.8202
! VAR I_in= 0.0487
! Device data file deembeded for feedlines and parallel
! Original file: \Split files Spar\BFU730_2W_B1_1V_1mA_30mA_Bias7_R.s2p
! Feed-files: PR003V01_101208_Feed1.s2p, PR003V01_101208_Feed2.s2p
! Parallel-file: PR003V01_101208_Par.s2p
# MHz S MA R 50
!  Freq-MHz   S11-mag  S11-arg   S21-mag  S21-arg   S12-mag  S12-arg   S22-mag  S22-arg
         40   0.85676    -4.05     38.74   177.53 0.0015638    87.78   0.99021    -1.62
         50    0.8521    -5.57    38.824   176.30  0.001614    89.16   0.99034    -2.46
         60   0.85321    -5.83    38.275   175.68  0.002325    92.05   0.99206    -3.00
         70    0.8554    -6.98    38.402   175.27 0.0027342    87.06   0.99224    -3.70
         80   0.85474    -8.01    38.719   174.45 0.0031233    86.31   0.99203    -4.36
         90   0.85388    -9.05    38.687   173.54 0.0035342    85.75   0.99138    -5.03
        100   0.85342    -9.93    38.497   172.90 0.0038759    85.26    0.9906    -5.66
        120   0.85213   -12.02    38.516   171.43 0.0047051    84.51   0.98866    -6.96
        140   0.85052   -13.95    38.404   170.01 0.0055064    83.62   0.98675    -8.24
        160   0.84792   -15.91    38.106   168.47 0.0062697    82.46    0.9836    -9.48
        180   0.84671   -17.85    38.081   167.19 0.0070623    81.72   0.97998   -10.70
        200   0.84367   -19.86    37.909   165.71 0.0077965    80.64   0.97623   -11.93
        220   0.84084   -21.80    37.818   164.32 0.0085771    79.75   0.97161   -13.17
        240   0.83636   -23.80    37.721   162.86 0.0093212    78.82   0.96717   -14.34
        260   0.83437   -25.63    37.351   161.51  0.010067    77.95   0.96223   -15.54
        280   0.83034   -27.63    37.165   160.16  0.010783    76.94   0.95705   -16.70
        300   0.82701   -29.52    36.863   158.80  0.011518    75.94   0.95177   -17.91
        320   0.82186   -31.45    36.508   157.51  0.012235    75.00   0.94482   -19.05
        340   0.81816   -33.21    36.351   156.19  0.012884    74.04   0.93792   -20.17
        360   0.81467   -35.08    36.038   155.02  0.013584    73.11   0.93068   -21.28
        380   0.80962   -37.08    35.836   153.72  0.014252    72.25   0.92339   -22.36
        400   0.80374   -38.79    35.679   152.49  0.014944    71.29   0.91594   -23.37
        420   0.79847   -40.66    35.452   151.21  0.015539    70.52   0.90957   -24.39
        440   0.79456   -42.31    35.046   150.10  0.016199    69.54   0.90194   -25.50
        460    0.7889   -44.19    34.844   148.90  0.016783    68.78   0.89422   -26.48
        480   0.78471   -45.79    34.457   147.76  0.017404    67.87   0.88716   -27.57
        500   0.77836   -47.61    34.089   146.54   0.01796    66.97   0.87753   -28.59
        550    0.7655   -51.71     33.42   143.71  0.019296    65.14   0.85411   -30.81
        600   0.75121   -55.84    32.705   141.04  0.020605    63.33   0.83433   -33.01
        650   0.73881   -59.62    31.799   138.55  0.021819    61.48    0.8133   -35.20
        700   0.72616   -63.41    30.905   136.14  0.022947    59.93   0.79112   -37.25
        750   0.71352   -67.19    30.198   133.79  0.023992    58.44   0.77012   -39.06
        800   0.70116   -70.77    29.438   131.57  0.025046    57.07   0.75141   -40.78
        850   0.68931   -74.19    28.587   129.42  0.025971    55.69   0.73145   -42.59
        900   0.67699   -77.43    27.817   127.37  0.026791    54.58   0.70991   -44.13
        950   0.66627   -80.63    27.116   125.45   0.02762    53.49   0.69095   -45.56
       1000   0.65532   -83.62    26.382   123.59  0.028397    52.43   0.67342   -47.01
       1050   0.64359   -86.69    25.669   121.78  0.029117    51.42   0.65532   -48.36
       1100   0.63478   -89.51    24.998   120.09  0.029803    50.61   0.63799   -49.63
       1150   0.62464   -92.35    24.376   118.38  0.030446    49.79   0.62171   -50.77
       1200   0.61525   -95.02     23.74   116.83  0.031084    49.04   0.60625   -51.92
       1250   0.60679   -97.64    23.096   115.30  0.031657    48.27   0.59084   -53.10
       1300   0.59891  -100.14    22.522   113.82  0.032195    47.65   0.57556   -54.09
       1350   0.59138  -102.54    21.974   112.40  0.032738    47.07   0.56166   -55.05
       1400    0.5839  -104.97    21.429   111.02  0.033259    46.45   0.54814   -56.00
       1450   0.57686  -107.25    20.904   109.70  0.033735    45.92   0.53471   -56.89
       1500    0.5702  -109.40    20.397   108.43   0.03421    45.49   0.52236   -57.69
       1550   0.56458  -111.49    19.904   107.20  0.034704    45.04   0.51083   -58.44
       1600   0.55857  -113.50    19.437   106.04  0.035187    44.59    0.4996   -59.22
       1650   0.55302  -115.59    18.978   104.86  0.035602    44.21   0.48828   -59.96
       1700   0.54751  -117.51    18.557   103.70  0.036009    43.83   0.47768   -60.64
       1750   0.54237  -119.33    18.139   102.61   0.03645    43.52   0.46774   -61.36
       1800    0.5378  -121.25    17.728   101.53  0.036856    43.17   0.45797   -62.05
       1850   0.53337  -123.11    17.338   100.47  0.037253    42.86   0.44811   -62.69
       1900   0.52894  -124.80    16.971    99.44  0.037622    42.62    0.4397   -63.28
       1950   0.52451  -126.42      16.6    98.45  0.037976    42.37   0.43151   -63.91
       2000   0.52095  -128.06    16.235    97.50  0.038337    42.13   0.42249   -64.66
       2050   0.51751  -129.59    15.888    96.63   0.03869    41.96   0.41319   -65.21
       2100    0.5149  -131.14     15.57    95.72  0.039114    41.76   0.40569   -65.67
       2150   0.51229  -132.58    15.259    94.87  0.039467    41.64    0.3978   -66.25
       2200   0.50906  -134.08    14.965    94.04  0.039892    41.45   0.39028   -66.57
       2250   0.50533  -135.60    14.669    93.15   0.04026    41.26   0.38453   -67.16
       2300   0.50299  -136.95    14.375    92.33  0.040589    41.01   0.37769   -67.83
       2350   0.50168  -138.30    14.092    91.58  0.040901    40.90   0.36974   -68.47
       2400   0.49998  -139.72    13.834    90.84  0.041253    40.89   0.36195   -68.85
       2450   0.49742  -141.10    13.578    90.13  0.041675    40.84   0.35534   -69.24
       2500   0.49415  -142.64    13.347    89.39  0.042103    40.66   0.34881   -69.63
       2600   0.49012  -144.93    12.895    87.98  0.042852    40.39   0.33697   -70.28
       2700   0.48648  -147.39    12.464    86.55   0.04355    40.16   0.32583   -70.86
       2800   0.48342  -149.59    12.066    85.18  0.044244    39.97   0.31573   -71.39
       2900   0.48038  -151.83    11.682    83.90   0.04492    39.83   0.30649   -71.76
       3000    0.4778  -153.88    11.346    82.65  0.045685    39.73   0.29868   -72.35
       3100   0.47605  -155.91    11.026    81.30  0.046418    39.55   0.29151   -72.89
       3200   0.47377  -157.85    10.708    80.05  0.047136    39.39   0.28352   -73.56
       3300   0.47294  -159.78    10.419    78.85  0.047848    39.23   0.27653   -74.39
       3400    0.4707  -161.72    10.143    77.59  0.048638    39.10   0.26994   -75.11
       3500   0.46961  -163.57    9.8824    76.37  0.049355    38.99   0.26301   -75.74
       3600   0.46882  -165.45    9.6245    75.18  0.050096    38.85   0.25593   -76.31
       3700   0.46719  -167.04    9.3827    73.99  0.050859    38.79   0.24956   -76.79
       3800   0.46656  -168.93     9.155    72.81  0.051645    38.65   0.24328   -77.46
       3900   0.46519  -170.37    8.9345    71.70  0.052443    38.57    0.2382   -78.01
       4000   0.46522  -172.26    8.7198    70.56  0.053228    38.36   0.23224   -78.73
       4100   0.46366  -173.66    8.5179    69.50  0.054004    38.28   0.22625   -79.10
       4200    0.4633  -175.30    8.3256    68.40  0.054845    38.12   0.22132   -79.68
       4300   0.46267  -176.67    8.1456    67.33  0.055681    37.94   0.21707   -80.37
       4400   0.46234  -178.27     7.967    66.24  0.056545    37.73    0.2126   -80.91
       4500   0.46156  -179.59    7.7976    65.21   0.05736    37.55   0.20831   -81.42
       4600   0.46193   178.92    7.6336    64.20  0.058152    37.36   0.20334   -82.11
       4700     0.462   177.57    7.4825    63.15  0.058932    37.17   0.19891   -82.87
       4800   0.46193   176.03    7.3273    62.12  0.059747    36.93   0.19543   -83.64
       4900   0.46199   174.65    7.1861    61.07  0.060542    36.73   0.19087   -84.19
       5000   0.46126   173.35    7.0456    60.10  0.061406    36.57   0.18629   -84.65
       5200   0.46111   170.80    6.7759    58.10  0.063069    36.13   0.17927   -86.15
       5400   0.46153   168.24    6.5385    56.19  0.064766    35.63   0.17195   -87.09
       5600   0.46149   165.74    6.3048    54.25  0.066397    35.15   0.16508   -88.82
       5800   0.46192   163.43    6.0912    52.40  0.068058    34.66   0.15816   -89.65
       6000   0.46291   161.24    5.8948    50.52  0.069756    34.17   0.15222   -91.49
       6200   0.46437   159.14    5.7109    48.73  0.071483    33.66    0.1464   -92.60
       6400    0.4657   156.93    5.5353    46.91  0.073177    33.14   0.14003   -94.25
       6600    0.4674   154.67    5.3721    45.10  0.074975    32.57   0.13488   -95.59
       6800   0.46878   152.63    5.2269    43.33  0.076786    31.88   0.12992   -97.55
       7000   0.46975   150.61    5.0756    41.58  0.078531    31.43    0.1241   -99.13
       7200   0.47223   148.83    4.9507    39.83  0.080618    30.78   0.12058  -100.86
       7400   0.47457   146.72    4.8228    37.92  0.082412    29.90   0.11528  -103.66
       7600   0.47795   145.03    4.7111    36.15  0.084398    29.30   0.11196  -105.55
       7800   0.47909   142.46    4.5744    34.19  0.085874    28.32   0.10422  -109.76
       8000   0.47866   141.14    4.4702    32.98  0.087862    28.15   0.10101  -108.47
       8200   0.48455   138.97    4.3711    30.78  0.089976    27.00  0.096898  -114.08
       8400   0.48613   137.11    4.2678    29.20  0.091965    26.49  0.094356  -114.89
       8600   0.48664   135.07    4.1498    27.39  0.093328    25.24   0.08641  -121.15
       8800   0.48663   133.46    4.0584    25.71  0.095349    24.67  0.082667  -123.09
       9000   0.49014   132.43    3.9836    24.28  0.097323    24.12  0.080785  -126.23
       9200   0.49218   130.61    3.8963    22.54  0.099108    23.14  0.076483  -131.36
       9400   0.49631   128.84    3.8171    20.80   0.10088    22.29  0.073742  -135.27
       9600   0.50162   127.30    3.7433    19.23   0.10285    21.58  0.068811  -141.43
       9800   0.50547   125.56    3.6827    17.55   0.10472    20.91  0.065754  -144.19
      10000   0.51154   123.97    3.6185    15.78   0.10768    20.02  0.066962  -147.74
      10200   0.51532   121.89    3.5441    13.96   0.10942    18.75  0.064982  -157.81
      10400   0.51732   120.27    3.4707    12.25   0.11128    17.77   0.06513  -162.62
      10600   0.51897   118.54    3.4009    10.62   0.11308    16.76  0.063009  -171.69
      10800   0.52075   117.15    3.3493     9.04   0.11505    15.94    0.0628  -175.81
      11000   0.52716   115.42    3.2835     7.41   0.11713    15.00   0.06246   177.86
      11200   0.53282   113.84    3.2536     5.77   0.11921    14.07  0.066779   172.78
      11400    0.5362   112.14    3.1852     3.92   0.12131    12.82  0.067676   165.26
      11600   0.53941   110.35    3.1283     2.42   0.12275    11.85   0.07207   158.43
      11800   0.54531   108.94    3.0834     0.68   0.12511    10.79  0.072668   153.44
      12000   0.54621   107.59    3.0424    -0.68   0.12628     9.82  0.076252   146.92
      12200    0.5551   105.57    3.0067    -2.73   0.12891     8.93  0.078268   143.44
      12400   0.55551   103.79    2.9507    -4.56   0.13111     7.69  0.084339   137.74
      12600   0.55641   102.20    2.8918    -5.88   0.13203     6.73  0.086322   131.04
      12800   0.56581   101.14    2.8701    -7.44   0.13515     5.94  0.086393   128.80
      13000   0.56399    99.10    2.8252    -9.20   0.13622     4.48  0.093348   124.70
      13200   0.56947    98.05    2.7683   -10.94   0.13818     3.38  0.098025   121.23
      13400   0.57415    96.70    2.7431   -12.67   0.14064     2.11   0.10622   120.92
      13600   0.58147    95.00    2.7115   -14.49   0.14191     1.06   0.11392   118.08
      13800   0.58174    93.48    2.6621   -16.16   0.14421    -0.08   0.12183   115.28
      14000   0.59023    91.83    2.6338   -17.46   0.14523    -1.29   0.13256   111.87
      14200   0.59665    90.59    2.6024   -19.30   0.14708    -2.16   0.13787   108.48
      14400   0.59968    88.29    2.5626   -21.03   0.14871    -3.30   0.15161   106.19
      14600   0.60507    86.89    2.5368   -22.65   0.15101    -4.10   0.15308   102.30
      14800    0.6071    85.15    2.5054   -24.28   0.15319    -5.33   0.16382   100.42
      15000   0.61416    83.88    2.4721   -25.99   0.15528    -6.51    0.1678    97.48
      15200   0.61748    82.48    2.4485   -27.63   0.15739    -7.90   0.17392    96.89
      15400   0.62972    81.04    2.4244   -29.32   0.15866    -9.00   0.18302    94.48
      15600   0.63291    80.01    2.3969   -31.16   0.16103   -10.29   0.18897    93.08
      15800   0.64113    78.29    2.3753   -32.75   0.16191   -11.69   0.19815    91.30
      16000   0.65313    76.98    2.3535   -34.93   0.16367   -12.68    0.2067    89.51
      16200   0.66001    75.11    2.3289   -36.87   0.16545   -13.76    0.2119    87.02
      16400   0.66791    73.47    2.2852   -38.87   0.16706   -14.62    0.2164    85.23
      16600   0.66952    71.85    2.2498   -40.40   0.16996   -15.97    0.2235    85.04
      16800   0.67419    70.17    2.2198   -41.81   0.17095   -17.01   0.23194    82.37
      17000   0.67672    68.49    2.2066   -43.49   0.17347   -18.34   0.24371    82.20
      17200   0.67918    66.73    2.1873   -45.37   0.17534   -19.40   0.25215    79.00
      17400   0.68527    64.54    2.1704   -47.58   0.17658   -20.64    0.2628    78.18
      17600   0.68377    63.06    2.1311   -49.26   0.17977   -21.45    0.2702    74.84
      17800   0.68483    61.60    2.1146   -51.18   0.18248   -23.10   0.27554    73.47
      18000   0.69569    60.59    2.0752   -53.19   0.18434   -24.60   0.27764    72.58
      18200   0.70178    58.42    2.0568   -55.38   0.18583   -25.86   0.28855    71.16
      18400   0.70768    56.97    2.0111   -57.54   0.18782   -27.12   0.28914    70.33
      18600   0.70057    55.72    1.9553   -58.83   0.18854   -28.28   0.30341    70.10
      18800   0.70964    53.63    1.9295   -60.43   0.19112   -29.47   0.31231    68.61
      19000    0.7057    52.52    1.9035   -61.70    0.1946   -30.67   0.32067    67.25
      19200   0.71145    51.05    1.8804   -63.46   0.19735   -32.43   0.32656    65.44
      19400   0.71668    50.09    1.8534   -64.58   0.19907   -33.83   0.32841    64.76
      19600   0.72202    48.96    1.8276   -66.13   0.20005   -36.26   0.33938    65.87
      19800   0.74705    48.25    1.8292   -67.36   0.19828   -36.83   0.35926    63.42
      20000    0.7602    45.56    1.8214   -69.51   0.19976   -37.43   0.36399    62.06