! Filename:  P:\Prog\Test\Noise\ATS_data\Testdata_Net\Split files Spar\BFU730_2W_B1_Bias1_1.5V_1mA_30mA_D.s2p
! Date/Time: Fri 29/Apr/2011 14:16:34
! BFU730_2W_B1_Bias1_1.5V_1mA_30mA_R.s2p
! MDIF S-parameter v. bias file
! BFU730_2W_B1_1.5V_1mA_30mA
! Date/time Thu Mar 17 13:45:32 2011
! bias mode 1
! bias variable = I_out
! VAR bias_var= 1
! VAR V_out= 1.5001
! VAR I_out= 1.0350
! VAR V_in= 0.7495
! VAR I_in= 0.0029
! Device data file deembeded for feedlines and parallel
! Original file: \Split files Spar\BFU730_2W_B1_Bias1_1.5V_1mA_30mA_R.s2p
! Feed-files: PR003V01_101208_Feed1.s2p, PR003V01_101208_Feed2.s2p
! Parallel-file: PR003V01_101208_Par.s2p
# MHz S MA R 50
!  Freq-MHz   S11-mag  S11-arg   S21-mag  S21-arg   S12-mag  S12-arg   S22-mag  S22-arg
         40   0.98945    -1.22    3.6859   179.38 0.0015021    87.64   0.99956    -0.57
         50   0.98537    -1.86    3.7006   178.71 0.0019323    74.77   0.99956    -0.73
         60   0.98798    -1.62    3.6565   178.35 0.0020806    88.93   0.99963    -0.80
         70    0.9896    -2.05    3.6661   178.46 0.0026305    89.51   0.99972    -0.95
         80   0.98942    -2.36    3.6968   178.18 0.0030402    89.16   0.99981    -1.08
         90   0.98948    -2.68    3.6993   177.77  0.003452    88.74   0.99959    -1.23
        100   0.98991    -2.93    3.6797   177.66 0.0038222    88.20   0.99935    -1.36
        120   0.98917    -3.59    3.6799   177.26 0.0046014    88.47    0.9995    -1.64
        140   0.98917    -4.15    3.6839   176.81  0.005402    88.49   0.99956    -1.93
        160   0.98912    -4.75    3.6725   176.26 0.0061824    87.89   0.99937    -2.21
        180   0.98959    -5.36    3.6812   175.90 0.0069831    87.74   0.99937    -2.48
        200    0.9889    -5.97    3.6829   175.34  0.007754    87.28   0.99898    -2.77
        220   0.98863    -6.56    3.6889   174.91 0.0085738    87.22   0.99903    -3.05
        240   0.98833    -7.16    3.7075   174.36  0.009355    86.61   0.99896    -3.36
        260    0.9881    -7.73    3.6871   173.90  0.010116    86.45   0.99868    -3.63
        280   0.98778    -8.37    3.6932   173.42  0.010948    85.92   0.99867    -3.92
        300     0.988    -8.97    3.6874   172.95  0.011739    85.67   0.99852    -4.21
        320   0.98744    -9.54    3.6718   172.50  0.012551    85.21   0.99841    -4.47
        340   0.98704   -10.13    3.6789   172.01  0.013333    84.84   0.99802    -4.76
        360   0.98687   -10.72    3.6675   171.60  0.014137    84.49   0.99753    -5.04
        380   0.98682   -11.31    3.6707   171.14  0.014949    84.14   0.99732    -5.33
        400   0.98644   -11.90    3.6835   170.69  0.015755    83.73   0.99684    -5.59
        420   0.98593   -12.53     3.698   170.19   0.01655    83.26   0.99683    -5.85
        440   0.98542   -13.11    3.6852   169.74  0.017342    82.84   0.99632    -6.15
        460   0.98525   -13.71    3.6934   169.26  0.018137    82.48   0.99602    -6.42
        480   0.98483   -14.31    3.6853   168.82  0.018961    82.01   0.99613    -6.72
        500   0.98415   -14.90    3.6617   168.33  0.019735    81.60   0.99537    -7.02
        550   0.98339   -16.39    3.6729   167.22  0.021682    80.50   0.99415    -7.72
        600   0.98197   -17.89    3.6892   166.07  0.023661    79.49   0.99309    -8.40
        650    0.9812   -19.35    3.6626   164.87  0.025624    78.45   0.99185    -9.12
        700   0.97952   -20.78    3.6294   163.74  0.027584    77.41   0.99047    -9.83
        750   0.97853   -22.28    3.6392   162.60  0.029502    76.37   0.98882   -10.54
        800    0.9769   -23.81    3.6656   161.53  0.031475    75.39   0.98787   -11.18
        850   0.97533   -25.26    3.6506   160.34  0.033406    74.37   0.98666   -11.87
        900   0.97413   -26.68     3.612   159.20  0.035285    73.36    0.9846   -12.58
        950   0.97269   -28.18    3.6129   158.15  0.037129    72.37   0.98251   -13.24
       1000   0.97097   -29.62    3.6281   157.01  0.039045    71.39   0.98103   -13.93
       1050   0.96917   -31.05    3.6126   155.91  0.040876    70.39   0.97901   -14.61
       1100   0.96762   -32.46    3.5887   154.82  0.042682    69.39   0.97692   -15.31
       1150   0.96533   -33.94    3.5942   153.69  0.044456    68.44   0.97477   -15.95
       1200   0.96324   -35.38    3.5892   152.61  0.046299    67.49   0.97303   -16.59
       1250   0.96165   -36.81    3.5665   151.48  0.048126    66.47    0.9713   -17.30
       1300   0.96003   -38.21    3.5439   150.38   0.04982    65.48   0.96858   -17.97
       1350    0.9577   -39.69    3.5519   149.32   0.05151    64.58   0.96583   -18.63
       1400   0.95565   -41.13    3.5495   148.23   0.05325    63.61   0.96364   -19.29
       1450    0.9538   -42.56    3.5346   147.16  0.054934    62.64   0.96128   -19.95
       1500   0.95156   -43.96    3.5187   146.13  0.056581    61.68   0.95884   -20.60
       1550   0.94932   -45.38    3.5155   145.00  0.058226    60.81   0.95662   -21.22
       1600   0.94741   -46.78    3.5103   143.97  0.059891    59.91   0.95444   -21.85
       1650    0.9446   -48.22    3.4857   142.89  0.061462    58.93   0.95148   -22.52
       1700   0.94294   -49.56    3.4725   141.83  0.062946    58.01   0.94827   -23.15
       1750    0.9401   -50.97    3.4674   140.79  0.064509    57.13   0.94566   -23.79
       1800   0.93765   -52.39     3.451   139.71   0.06609    56.20   0.94341   -24.42
       1850   0.93519   -53.80    3.4358   138.64  0.067587    55.27   0.94031   -25.06
       1900   0.93315   -55.21    3.4316   137.60  0.069015    54.42   0.93755   -25.69
       1950   0.93023   -56.54    3.4082   136.59  0.070466    53.56   0.93505   -26.31
       2000   0.92767   -57.91    3.3892   135.53  0.071976    52.68   0.93227   -26.96
       2050   0.92462   -59.26    3.3775   134.52  0.073419    51.80   0.92893   -27.57
       2100   0.92223   -60.60    3.3681   133.48    0.0748    50.96   0.92592   -28.19
       2150      0.92   -61.95    3.3585   132.54  0.076196    50.13   0.92237   -28.81
       2200   0.91747   -63.29    3.3429   131.54  0.077512    49.21   0.91925   -29.36
       2250   0.91411   -64.64    3.3333   130.49  0.078844    48.36   0.91675   -29.99
       2300   0.91167   -65.98    3.3144   129.49  0.080222    47.53   0.91376   -30.61
       2350   0.90888   -67.23    3.2844   128.56  0.081566    46.67   0.90995   -31.22
       2400   0.90626   -68.59    3.2739   127.58  0.082775    45.84   0.90573   -31.76
       2450   0.90285   -69.89    3.2674   126.60  0.084125    45.02   0.90232   -32.32
       2500    0.9001   -71.17    3.2484   125.60   0.08544    43.98   0.89964   -32.94
       2600   0.89493   -73.71    3.2148   123.74  0.087642    42.25   0.89331   -34.03
       2700    0.8892   -76.32    3.1883   121.82  0.089837    40.52   0.88692   -35.13
       2800   0.88465   -78.83    3.1575   119.90  0.091705    38.87   0.88064   -36.21
       2900   0.87848   -81.35    3.1199   118.05  0.093515    37.22   0.87446   -37.29
       3000   0.87345   -83.81    3.1004   116.21  0.095288    35.70   0.86846   -38.35
       3100   0.86958   -86.21    3.0584   114.42  0.096942    34.15   0.86286   -39.44
       3200   0.86422   -88.60    3.0286   112.63   0.09858    32.70   0.85602   -40.48
       3300   0.85933   -91.07    3.0012   110.88   0.10023    31.12   0.85113   -41.67
       3400   0.85398   -93.42    2.9776   109.06   0.10175    29.75   0.84505   -42.69
       3500   0.84936   -95.71    2.9439   107.31    0.1031    28.29    0.8382   -43.75
       3600   0.84407   -98.15    2.9137   105.61   0.10443    26.92   0.83137   -44.70
       3700   0.84026  -100.32    2.8753   103.89   0.10574    25.48   0.82675   -45.68
       3800   0.83452  -102.71    2.8552   102.16   0.10693    24.11   0.81936   -46.73
       3900   0.82984  -104.89    2.8282   100.51   0.10801    22.86   0.81401   -47.64
       4000   0.82506  -107.20     2.798    98.79   0.10913    21.43   0.80725   -48.72
       4100   0.82059  -109.30    2.7621    97.18   0.10996    20.08   0.80121   -49.62
       4200   0.81662  -111.49    2.7356    95.56     0.111    18.79   0.79581   -50.56
       4300   0.81279  -113.60    2.7084    93.95   0.11181    17.51   0.79067   -51.58
       4400   0.80794  -115.86    2.6824    92.25   0.11258    16.19   0.78464   -52.56
       4500   0.80454  -117.88    2.6513    90.74   0.11316    14.98   0.77897   -53.45
       4600   0.79999  -120.01    2.6197    89.16   0.11376    13.72   0.77278   -54.35
       4700   0.79693  -122.05    2.5925    87.62   0.11428    12.50    0.7674   -55.31
       4800   0.79227  -124.22    2.5653    85.99   0.11484    11.22   0.76265   -56.32
       4900   0.78878  -126.23    2.5359    84.45   0.11534    10.02   0.75755   -57.15
       5000   0.78464  -128.24    2.5112    83.00   0.11571     8.87   0.75154   -58.01
       5200   0.77753  -132.21    2.4599    79.89   0.11623     6.54   0.74213   -59.91
       5400   0.77076  -136.08    2.4067    77.05   0.11648     4.24   0.73174   -61.63
       5600   0.76376  -139.90    2.3556    74.05   0.11661     1.99   0.72269   -63.51
       5800   0.75773  -143.62    2.3054    71.24   0.11629    -0.22   0.71345   -65.20
       6000   0.75271  -147.25    2.2572    68.43   0.11597    -2.28   0.70527   -67.01
       6200   0.74772  -150.76    2.2103    65.72   0.11534    -4.20   0.69749   -68.68
       6400   0.74289  -154.30     2.166    63.01   0.11459    -6.20   0.68917   -70.47
       6600   0.73805  -157.80    2.1238    60.27    0.1137    -8.06   0.68162   -72.19
       6800   0.73447  -161.12    2.0801    57.74   0.11252    -9.76   0.67228   -74.02
       7000    0.7305  -164.38    2.0392    55.08   0.11126   -11.50    0.6656   -75.72
       7200   0.72894  -167.53    2.0048    52.64   0.10995   -12.86   0.65806   -77.48
       7400   0.72595  -170.82     1.968    49.89   0.10867   -14.64   0.65093   -79.54
       7600   0.72503  -173.83    1.9351    47.48    0.1076   -15.68   0.64632   -81.10
       7800   0.71991  -177.18    1.8937    44.81   0.10631   -17.71     0.635   -83.38
       8000    0.7169  -179.78    1.8589    42.73   0.10258   -18.62   0.62846   -84.70
       8200   0.71702   176.92    1.8289    40.04   0.10253   -19.67   0.62168   -86.92
       8400   0.71578   174.11     1.795    37.70   0.10008   -20.74   0.61603   -88.66
       8600   0.71193   171.06    1.7582    35.21  0.098942   -22.72   0.60602   -90.77
       8800   0.70981   168.34    1.7282    32.89  0.096397   -23.30   0.59932   -92.40
       9000   0.71084   165.93    1.7006    30.80  0.093829   -23.70   0.59699   -94.25
       9200   0.70998   163.11    1.6718    28.54  0.092127   -24.62   0.58863   -96.18
       9400   0.70953   160.39    1.6449    26.05  0.089916   -25.50   0.58601   -98.33
       9600   0.71056   157.79    1.6181    23.96  0.087718   -25.64   0.57721  -100.32
       9800   0.71138   155.12    1.5962    21.69  0.085275   -25.84   0.57441  -102.08
      10000   0.71347   152.73    1.5718    19.47  0.084565   -25.31   0.57222  -104.39
      10200   0.71332   149.91    1.5469    17.03  0.083162   -26.08   0.56332  -106.83
      10400   0.71366   147.51     1.517    14.81   0.08136   -26.48   0.56014  -109.08
      10600   0.71214   144.98    1.4942    12.66  0.079463   -26.61   0.55174  -111.31
      10800   0.71303   142.87    1.4719    10.51  0.077277   -26.36   0.54968  -113.46
      11000   0.71361   140.26    1.4546     8.46    0.0758   -25.75   0.54499  -115.70
      11200   0.71758   138.02    1.4366     6.11  0.074153   -24.65   0.54348  -118.34
      11400   0.71821   135.62    1.4117     3.90  0.073241   -24.63   0.53715  -120.90
      11600   0.71992   133.20    1.3886     1.72  0.071004   -23.88   0.53045  -123.55
      11800   0.72414   130.94    1.3659    -0.34  0.070389   -22.45   0.52576  -125.66
      12000   0.72375   128.81    1.3519    -2.16  0.068552   -21.05   0.52001  -128.10
      12200    0.7284   126.29    1.3337    -4.50  0.069207   -19.25   0.51847  -130.54
      12400   0.72646   123.97    1.3156    -6.79  0.069257   -18.75   0.51364  -133.41
      12600    0.7251   121.78    1.2867    -8.71  0.067032   -16.88    0.5067  -135.86
      12800   0.73273   119.97    1.2773   -10.60  0.068717   -13.92   0.50383  -138.24
      13000   0.73048   117.56    1.2569   -12.72  0.068421   -13.21    0.4979  -140.97
      13200   0.73458   115.70     1.234   -14.82   0.06884   -12.08   0.49557  -143.67
      13400   0.73773   113.67    1.2247   -16.84  0.071806   -10.33   0.49375  -146.75
      13600   0.74156   111.42     1.211   -19.13  0.072696    -9.02   0.49224  -149.69
      13800   0.74111   109.52    1.1917   -21.11  0.074364    -8.21   0.48822  -152.91
      14000   0.74486   107.33    1.1791   -23.14  0.075664    -7.16   0.48533  -156.06
      14200   0.75003   105.54    1.1606   -25.24  0.077485    -6.00   0.48268  -159.04
      14400   0.74993   103.10    1.1458   -27.47  0.079207    -5.52   0.48007  -163.09
      14600   0.75436   101.26    1.1273   -29.44  0.081903    -4.13   0.47567  -165.63
      14800   0.75568    99.07    1.1101   -31.35  0.084704    -3.37   0.47321  -169.25
      15000   0.76133    97.21    1.0937   -33.35  0.087611    -3.11   0.47038  -172.12
      15200    0.7649    95.35    1.0819   -35.07  0.091095    -2.94   0.47185  -175.13
      15400   0.77309    93.30    1.0715   -37.21  0.094107    -3.12    0.4705  -178.39
      15600   0.77653    91.80     1.056   -39.16  0.097441    -3.12   0.47485   178.42
      15800   0.78123    89.51    1.0462   -41.19    0.1007    -3.57   0.47415   175.26
      16000    0.7887    87.79    1.0355   -43.47   0.10415    -4.28   0.48059   171.74
      16200   0.79265    85.77    1.0228   -45.87   0.10699    -4.70   0.48287   168.35
      16400   0.79826    83.84    1.0012   -48.06    0.1099    -5.02   0.48205   164.84
      16600   0.79879    81.97   0.98637   -49.95   0.11417    -5.80   0.48771   161.58
      16800   0.80136    80.08   0.96818   -51.71   0.11708    -6.30   0.48449   158.28
      17000   0.80276    78.23   0.95975   -53.66   0.12118    -7.29   0.49477   154.75
      17200   0.80433    76.25   0.94638   -55.71   0.12439    -8.08   0.49346   151.33
      17400   0.80736    73.96   0.93206   -58.19   0.12727    -9.26   0.50313   147.70
      17600   0.80773    72.30   0.91237   -59.80   0.13109    -9.31   0.49978   143.90
      17800   0.80812    70.37   0.90145   -61.80   0.13639   -10.81    0.5057   140.71
      18000   0.81693    68.84   0.88601   -63.77   0.14001   -12.20   0.50975   137.55
      18200   0.81933    66.54   0.87384   -66.16   0.14377   -13.65   0.51637   133.91
      18400   0.82388    64.90    0.8509   -68.27   0.14672   -15.03   0.51969   130.83
      18600   0.81743    63.40   0.82666   -69.75   0.14915   -15.84   0.52649   127.41
      18800   0.82302    61.19   0.81227   -71.46   0.15287   -17.23   0.53158   124.54
      19000    0.8217    59.88   0.79993   -72.74   0.15771   -18.01   0.53852   121.31
      19200   0.82657    57.98   0.78925   -74.53   0.16307   -19.69   0.54242   118.11
      19400   0.82935    56.53   0.77562   -75.89   0.16765   -21.21   0.54439   115.65
      19600   0.83388    55.03    0.7635   -77.70   0.17094   -23.91   0.55742   113.14
      19800   0.84973    53.97   0.75927   -79.36   0.17179   -25.42   0.56631   109.71
      20000   0.85909    51.59   0.74607   -81.66   0.17368   -26.53   0.57322   107.02