! Filename:  P:\Prog\Test\Noise\ATS_data\Testdata_Net\Split files Spar\BFU730_2W_B1_Bias6_1.5V_1mA_30mA_D.s2p
! Date/Time: Fri 29/Apr/2011 14:16:52
! BFU730_2W_B1_Bias6_1.5V_1mA_30mA_R.s2p
! MDIF S-parameter v. bias file
! BFU730_2W_B1_1.5V_1mA_30mA
! Date/time Thu Mar 17 13:45:32 2011
! VAR V_out= 1.5000
! VAR I_out= 9.9750
! VAR V_in= 0.8061
! VAR I_in= 0.0310
! Device data file deembeded for feedlines and parallel
! Original file: \Split files Spar\BFU730_2W_B1_Bias6_1.5V_1mA_30mA_R.s2p
! Feed-files: PR003V01_101208_Feed1.s2p, PR003V01_101208_Feed2.s2p
! Parallel-file: PR003V01_101208_Par.s2p
# MHz S MA R 50
!  Freq-MHz   S11-mag  S11-arg   S21-mag  S21-arg   S12-mag  S12-arg   S22-mag  S22-arg
         40   0.90413    -2.91    28.009   177.88 0.0014331    87.67   0.99587    -1.30
         50   0.90147    -4.20    28.067   176.91 0.0016369    97.83   0.99545    -1.87
         60   0.90078    -4.18     27.76   176.53 0.0022634    92.88   0.99687    -2.22
         70   0.90399    -5.04    27.829   176.30 0.0025328    87.89   0.99709    -2.70
         80   0.90305    -5.81    27.996   175.68 0.0028921    87.65   0.99695    -3.15
         90   0.90268    -6.57    27.983   174.97 0.0032833    87.36   0.99655    -3.61
        100   0.90256    -7.20    27.852   174.52 0.0036143    86.96   0.99609    -4.05
        120   0.90189    -8.77     27.88   173.44 0.0043736    86.18   0.99529    -4.95
        140   0.90076   -10.19    27.838   172.36 0.0051147    85.55   0.99447    -5.84
        160   0.89953   -11.63    27.679   171.20 0.0058566    84.77   0.99267    -6.70
        180   0.89876   -13.11    27.681   170.21 0.0065984    83.91   0.99093    -7.56
        200   0.89697   -14.60    27.616   169.06 0.0072913    83.28   0.98904    -8.43
        220   0.89528   -16.06    27.606   167.99 0.0080416    82.52   0.98669    -9.31
        240   0.89248   -17.54    27.616   166.83 0.0087744    81.65   0.98445   -10.17
        260   0.89132   -18.93    27.407   165.76 0.0094784    81.02    0.9818   -11.02
        280   0.88908   -20.42    27.354   164.70  0.010223    80.35   0.97924   -11.87
        300   0.88711   -21.87    27.206   163.64  0.010926    79.47   0.97641   -12.74
        320   0.88423   -23.23    27.052   162.64  0.011611    78.62   0.97273   -13.58
        340   0.88127   -24.66    26.982   161.53  0.012327    77.79   0.96885   -14.40
        360   0.87944   -26.06    26.822   160.63  0.012985    77.11   0.96469   -15.23
        380   0.87637   -27.53    26.767   159.60  0.013691    76.36   0.96067   -16.05
        400   0.87219   -28.97    26.734   158.55  0.014371    75.49   0.95624   -16.80
        420   0.86886   -30.41    26.672   157.49  0.015032    74.70   0.95278   -17.57
        440   0.86619   -31.73    26.438   156.55    0.0157    73.98   0.94836   -18.41
        460   0.86286   -33.19    26.386   155.56  0.016321    73.23   0.94387   -19.17
        480   0.85934   -34.50    26.166   154.58     0.017    72.46   0.94011   -20.02
        500   0.85571   -35.86    25.992   153.59  0.017562    71.66   0.93393   -20.83
        550   0.84618   -39.24    25.711   151.15  0.019074    69.99   0.91907   -22.62
        600    0.8355   -42.68    25.415   148.81  0.020599    68.26   0.90667   -24.41
        650   0.82612   -45.79    24.914   146.56  0.021979    66.49   0.89281   -26.21
        700   0.81637   -48.86    24.419   144.46  0.023286    64.93   0.87737   -27.96
        750   0.80629   -52.12    24.099   142.31  0.024571    63.43   0.86228   -29.52
        800   0.79536   -55.31    23.749   140.20  0.025828    61.98   0.84936   -31.00
        850     0.785   -58.21    23.247   138.20  0.027008    60.45   0.83498   -32.61
        900    0.7745   -61.03    22.785   136.24  0.028034    59.13   0.81776   -34.05
        950   0.76452   -64.01    22.414   134.39  0.029088    57.92   0.80274   -35.35
       1000   0.75398   -66.75    21.996   132.53  0.030115    56.69   0.78908   -36.70
       1050   0.74297   -69.49    21.577   130.72  0.031045    55.44    0.7741   -38.00
       1100   0.73387   -72.09    21.153   129.03  0.031919    54.39   0.75926   -39.21
       1150   0.72323   -74.85    20.786   127.26  0.032754    53.35   0.74519   -40.32
       1200    0.7133   -77.39    20.389   125.65  0.033605    52.31   0.73195   -41.45
       1250   0.70435   -79.80    19.946   124.06  0.034343    51.26   0.71822   -42.63
       1300   0.69532   -82.23    19.565   122.51  0.035044    50.39   0.70403   -43.63
       1350   0.68633   -84.66     19.21   120.98  0.035757    49.56   0.69114   -44.59
       1400   0.67756   -87.03    18.844   119.50  0.036425    48.70   0.67852   -45.56
       1450     0.669   -89.31    18.477   118.07  0.037035    47.91   0.66574   -46.49
       1500   0.66089   -91.48    18.117   116.70  0.037614    47.16    0.6538   -47.34
       1550   0.65382   -93.57    17.761   115.36  0.038221    46.48   0.64258   -48.12
       1600   0.64634   -95.61    17.412   114.08  0.038819    45.77   0.63157   -48.95
       1650   0.63882   -97.70    17.065   112.80  0.039329    45.08   0.62015   -49.75
       1700   0.63201   -99.67    16.757   111.54  0.039799    44.51   0.60924   -50.46
       1750   0.62531  -101.62    16.441   110.32  0.040313    43.93   0.59898   -51.21
       1800   0.61915  -103.57    16.124   109.12  0.040771    43.33   0.58901   -51.95
       1850   0.61234  -105.54    15.827   107.94  0.041212    42.76   0.57864   -52.62
       1900   0.60634  -107.33    15.542   106.77  0.041665    42.26   0.56967   -53.27
       1950   0.60018  -109.06    15.244   105.67  0.042061    41.85   0.56086   -53.94
       2000   0.59494  -110.80    14.948   104.60  0.042444    41.30    0.5511   -54.68
       2050   0.58964  -112.48    14.666   103.60  0.042837    40.94    0.5411   -55.26
       2100   0.58539  -114.12    14.405   102.60  0.043254    40.52   0.53298   -55.78
       2150     0.581  -115.70    14.151   101.64  0.043628    40.17   0.52423   -56.38
       2200    0.5762  -117.31    13.908   100.69  0.044033    39.78   0.51602   -56.76
       2250   0.57115  -118.94    13.663    99.69  0.044421    39.40   0.50944   -57.37
       2300   0.56675  -120.42    13.417    98.76  0.044752    38.96   0.50171   -58.03
       2350   0.56381  -121.97    13.177    97.91  0.045043    38.64   0.49286   -58.64
       2400   0.56032  -123.50    12.961    97.05  0.045384    38.43   0.48428   -59.03
       2450   0.55582  -125.01    12.741    96.24  0.045762    38.18   0.47673   -59.43
       2500   0.55138  -126.56    12.542    95.41  0.046172    37.81    0.4696   -59.84
       2600   0.54438  -129.15    12.152    93.81  0.046813    37.21   0.45635   -60.56
       2700   0.53812  -131.87    11.777    92.20   0.04741    36.63   0.44378   -61.23
       2800   0.53262  -134.37    11.429    90.65  0.047966    36.13   0.43249   -61.85
       2900    0.5273  -136.84    11.086    89.21  0.048497    35.76   0.42179   -62.32
       3000   0.52229  -139.17    10.789    87.80  0.049096    35.44   0.41268   -62.94
       3100   0.51906  -141.44    10.503    86.33  0.049635    35.05   0.40438   -63.57
       3200   0.51462  -143.65    10.219    84.94  0.050193    34.73   0.39513   -64.23
       3300   0.51194  -145.88    9.9583    83.59  0.050755    34.36   0.38691   -65.02
       3400   0.50798  -148.02    9.7097    82.20  0.051339    34.09   0.37913   -65.72
       3500    0.5056  -150.08    9.4732    80.88  0.051903    33.88   0.37118   -66.35
       3600   0.50278  -152.27     9.237    79.57  0.052464    33.60   0.36295   -66.89
       3700   0.49992  -154.09    9.0153    78.27  0.053008    33.37   0.35561   -67.38
       3800   0.49744  -156.22    8.8088    76.97  0.053567    33.16   0.34821   -68.04
       3900   0.49476  -157.92    8.6045    75.76   0.05419    33.00   0.34231   -68.57
       4000   0.49327  -159.99    8.4068    74.51  0.054759    32.73    0.3354   -69.21
       4100    0.4912  -161.64    8.2189    73.35  0.055287    32.62   0.32843   -69.61
       4200   0.48943  -163.47    8.0419    72.15  0.055941    32.39   0.32268   -70.18
       4300   0.48767  -165.13    7.8737    70.99  0.056568    32.22   0.31774   -70.82
       4400   0.48646  -166.91    7.7069    69.81  0.057204    31.94    0.3125   -71.33
       4500   0.48498  -168.41     7.549    68.71  0.057822    31.82   0.30748   -71.83
       4600   0.48376  -170.11    7.3952    67.61  0.058374    31.60   0.30169   -72.40
       4700   0.48332  -171.64    7.2538    66.48  0.058936    31.42   0.29631   -73.04
       4800   0.48208  -173.36    7.1073    65.36  0.059533    31.19   0.29216   -73.73
       4900   0.48132  -174.96    6.9754    64.25   0.06011    30.98   0.28726   -74.22
       5000   0.47993  -176.44    6.8423    63.21  0.060779    30.86   0.28223   -74.60
       5200   0.47838  -179.35    6.5875    61.05  0.061963    30.48   0.27346   -75.87
       5400   0.47728   177.78    6.3622    59.03  0.063235    30.09   0.26566   -76.73
       5600   0.47593   175.01    6.1399    56.96  0.064412    29.73   0.25728   -78.05
       5800   0.47491   172.35    5.9359    55.00  0.065639    29.37   0.24991   -78.92
       6000   0.47512   169.85    5.7488    53.01  0.066882    29.02   0.24283   -80.24
       6200   0.47587   167.43    5.5729    51.10  0.068207    28.72   0.23633   -81.23
       6400   0.47636   164.96    5.4061    49.18  0.069484    28.37   0.22944   -82.49
       6600   0.47686   162.42    5.2499    47.27  0.070863    27.96   0.22361   -83.54
       6800    0.4776   160.19    5.1097    45.43  0.072303    27.52   0.21801   -85.07
       7000   0.47841   157.97    4.9648    43.58  0.073634    27.29   0.21166   -86.14
       7200   0.47999   155.94    4.8452    41.77  0.075374    26.88   0.20745   -87.52
       7400   0.48155   153.64    4.7231    39.77  0.076826    26.21   0.20156   -89.41
       7600   0.48461   151.71    4.6163    37.94  0.078523    25.87   0.19766   -90.70
       7800   0.48475   149.00    4.4833    35.89  0.079664    25.02   0.18809   -93.30
       8000   0.48351   147.46    4.3829    34.61  0.081187    25.20   0.18578   -92.74
       8200   0.48923   145.11     4.288    32.34   0.08322    24.24   0.17954   -96.14
       8400   0.49056   143.06    4.1885    30.69  0.084804    23.94   0.17712   -97.08
       8600   0.49054   140.85    4.0745    28.81  0.085948    22.81   0.16655  -100.00
       8800   0.49055   139.09    3.9859    27.07  0.087646    22.53   0.16227  -101.26
       9000   0.49373   137.91    3.9139    25.58  0.089377    22.26   0.15977  -102.98
       9200   0.49557   135.94    3.8295    23.80  0.090936    21.47   0.15312  -105.50
       9400   0.49962   134.07    3.7535    21.98  0.092466    20.81   0.14936  -107.67
       9600   0.50453   132.35    3.6816    20.37  0.094259    20.37    0.1419  -110.06
       9800   0.50805   130.51    3.6246    18.64  0.095946    19.92   0.13846  -111.36
      10000   0.51376   128.79    3.5615    16.81  0.098849    19.22   0.13843  -114.03
      10200   0.51722   126.64    3.4904    14.92   0.10049    18.09   0.13073  -118.52
      10400   0.51933   124.85    3.4187    13.15   0.10212    17.24   0.12841  -121.44
      10600   0.52038   123.04    3.3518    11.48   0.10379    16.42   0.12069  -125.03
      10800   0.52256   121.58    3.3013     9.86   0.10559    15.76    0.1185  -127.37
      11000   0.52798   119.70    3.2403     8.18    0.1076    15.04   0.11417  -130.42
      11200   0.53322   118.05    3.2105     6.47   0.10961    14.28   0.11418  -134.64
      11400   0.53659   116.26    3.1439     4.56   0.11156    13.16   0.10903  -139.08
      11600   0.53974   114.37    3.0881     3.01   0.11289    12.32   0.10589  -144.44
      11800    0.5458   112.86    3.0437     1.23   0.11522    11.43   0.10229  -147.51
      12000    0.5468   111.40    3.0047    -0.16   0.11632    10.67  0.098701  -152.72
      12200   0.55476   109.40    2.9705    -2.26   0.11901     9.90  0.097939  -155.82
      12400    0.5556   107.46    2.9166    -4.17   0.12121     8.74  0.096163  -162.78
      12600   0.55608   105.88    2.8581    -5.53   0.12203     7.97  0.090361  -167.55
      12800   0.56539   104.72    2.8384    -7.11    0.1252     7.33   0.08917  -169.54
      13000   0.56346   102.70    2.7949    -8.93   0.12613     5.98  0.089775  -176.16
      13200   0.56896   101.54    2.7386   -10.72   0.12812     5.02  0.089222   178.49
      13400   0.57423   100.14    2.7153   -12.48   0.13079     3.88  0.096281   173.33
      13600   0.58111    98.37    2.6855   -14.35   0.13219     2.95  0.099451   167.76
      13800   0.58185    96.82    2.6363   -16.08   0.13454     1.91   0.10302   161.25
      14000   0.58937    95.10    2.6102   -17.44   0.13575     0.79   0.10797   154.37
      14200   0.59662    93.79     2.578   -19.33   0.13771     0.03   0.10928   149.23
      14400   0.59872    91.45    2.5405   -21.12    0.1395    -1.07   0.11983   142.38
      14600   0.60431    90.02    2.5147   -22.78   0.14188    -1.79   0.11726   138.18
      14800   0.60645    88.21     2.483   -24.45    0.1441    -2.93   0.12578   133.27
      15000   0.61364    86.89    2.4515   -26.22   0.14626    -4.06   0.12763   129.33
      15200   0.61729    85.48    2.4282   -27.86   0.14848    -5.33   0.13412   127.46
      15400   0.62963    83.99    2.4055   -29.63   0.15003    -6.36   0.14134   123.03
      15600   0.63275    82.87    2.3779   -31.50   0.15248    -7.55   0.14726   120.87
      15800   0.64098    81.12    2.3576   -33.14   0.15365    -8.86   0.15493   117.36
      16000   0.65328    79.72    2.3375   -35.37   0.15582    -9.83   0.16367   114.60
      16200   0.66058    77.83    2.3145   -37.39   0.15779   -10.89   0.16798   111.45
      16400   0.66858    76.13    2.2711   -39.47   0.15963   -11.75   0.17325   108.76
      16600   0.66988    74.49    2.2364   -41.04   0.16267   -13.09   0.18255   107.82
      16800   0.67489    72.79    2.2056   -42.51   0.16388   -14.07   0.18821   103.77
      17000   0.67672    71.12    2.1935   -44.23   0.16659   -15.40   0.20219   102.73
      17200   0.67925    69.30     2.174   -46.18   0.16866   -16.47   0.20781    98.70
      17400   0.68566    67.09    2.1582   -48.46   0.17015   -17.71   0.22019    97.07
      17600   0.68431    65.60    2.1175   -50.19   0.17326   -18.50   0.22597    92.90
      17800   0.68568    64.05    2.1015   -52.15   0.17628   -20.11   0.23189    91.26
      18000   0.69682    63.04    2.0627   -54.18   0.17828   -21.57   0.23739    90.15
      18200   0.70269    60.79    2.0462   -56.44   0.18026   -22.87   0.24846    88.06
      18400   0.70954    59.33    2.0002   -58.67   0.18232   -24.16   0.25231    86.99
      18600   0.70286    58.04    1.9439   -60.07   0.18319   -25.30    0.2682    85.70
      18800   0.71176    55.91    1.9178   -61.70    0.1859   -26.54   0.27722    83.70
      19000     0.708    54.79    1.8912   -63.04   0.18934   -27.69   0.28674    81.74
      19200   0.71383    53.26    1.8678   -64.82    0.1924   -29.40   0.29293    79.70
      19400   0.71848    52.25    1.8424   -66.01    0.1945   -30.78   0.29622    78.62
      19600   0.72464    51.10    1.8154   -67.61   0.19566   -33.17   0.31137    79.32
      19800   0.74992    50.28    1.8189   -68.90   0.19477   -33.82   0.32856    76.11
      20000   0.76305    47.64    1.8104   -71.15   0.19654   -34.53   0.33479    74.55