! Filename:  P:\Prog\Test\Noise\ATS_data\Testdata_Net\Split files Spar\BFU730_2W_B1_Bias8_2.5V_1mA_25mA_D.s2p
! Date/Time: Fri 29/Apr/2011 15:08:47
! BFU730_2W_B1_Bias8_2.5V_1mA_25mA_R.s2p
! MDIF S-parameter v. bias file
! BFU730_2W_B1_2.5V_1mA_25mA
! Date/time Thu Mar 17 13:38:09 2011
! VAR V_out= 2.5000
! VAR I_out= 19.9800
! VAR V_in= 0.8081
! VAR I_in= 0.0709
! Device data file deembeded for feedlines and parallel
! Original file: \Split files Spar\BFU730_2W_B1_Bias8_2.5V_1mA_25mA_R.s2p
! Feed-files: PR003V01_101208_Feed1.s2p, PR003V01_101208_Feed2.s2p
! Parallel-file: PR003V01_101208_Par.s2p
# MHz S MA R 50
!  Freq-MHz   S11-mag  S11-arg   S21-mag  S21-arg   S12-mag  S12-arg   S22-mag  S22-arg
         40   0.80585    -4.11    46.556   176.75 0.0013306    77.17   0.98588    -1.14
         50   0.80763    -5.47    46.651   175.59 0.0013343    88.00   0.98617    -2.05
         60   0.80321    -6.25    46.243   175.07 0.0019665    86.65   0.98841    -2.60
         70   0.80485    -7.25    46.319   174.64 0.0022156    81.70    0.9887    -3.32
         80   0.80434    -8.36    46.491   173.83 0.0025245    81.87   0.98843    -3.99
         90   0.80289    -9.44    46.415   172.90 0.0028754    81.81   0.98765    -4.66
        100   0.80195   -10.41    46.185   172.26 0.0031379    81.81   0.98664    -5.29
        120    0.8014   -12.63    46.205   170.75 0.0037864    81.70   0.98467    -6.55
        140   0.79965   -14.71    45.978   169.26 0.0044263    81.23   0.98243    -7.82
        160   0.79714   -16.80    45.687   167.71 0.0050108    80.23   0.97873    -8.99
        180   0.79567   -18.90    45.503   166.33 0.0056624    79.48   0.97497   -10.17
        200   0.79259   -21.01    45.289   164.77 0.0062563    78.94   0.97077   -11.35
        220   0.78941   -23.10    45.112   163.32 0.0068964    78.06   0.96586   -12.54
        240   0.78473   -25.19    44.914   161.77 0.0074804    77.35   0.96076   -13.68
        260   0.78223   -27.20    44.499   160.35 0.0080556    76.34   0.95514   -14.79
        280   0.77801   -29.25    44.231   158.92 0.0086505    75.78   0.94944   -15.91
        300    0.7744   -31.27    43.864   157.50 0.0092246    74.69   0.94317   -17.02
        320   0.76952   -33.22     43.52   156.17 0.0097505    73.87   0.93616   -18.07
        340   0.76515   -35.20    43.169   154.77  0.010308    73.13   0.92897   -19.12
        360   0.76134   -37.15     42.79   153.52  0.010837    72.25    0.9213   -20.14
        380   0.75554   -39.20    42.503   152.15  0.011364    71.53   0.91402   -21.15
        400   0.74973   -41.09    42.136   150.82  0.011884    70.49   0.90592   -22.11
        420   0.74394   -42.97    41.782   149.51  0.012377    69.83   0.89871   -23.05
        440   0.74025   -44.79    41.318   148.34  0.012875    68.94   0.89052   -24.04
        460   0.73395   -46.72    40.994   147.06  0.013347    68.14   0.88232   -24.97
        480   0.72935   -48.44    40.485   145.85  0.013806    67.34   0.87431   -25.93
        500    0.7227   -50.24    40.065   144.63   0.01424    66.54   0.86499   -26.83
        550   0.70911   -54.60    39.049   141.66  0.015269    64.90   0.84136   -28.82
        600   0.69475   -58.87    37.991   138.89   0.01631    63.31   0.82055   -30.78
        650   0.68182   -62.82    36.846   136.32  0.017266    61.71    0.7988   -32.66
        700   0.66867   -66.69    35.749   133.86  0.018126    60.25   0.77684   -34.37
        750   0.65589   -70.53    34.744   131.49  0.018932    59.01   0.75599   -35.92
        800    0.6437   -74.19    33.735   129.26  0.019736    57.77    0.7366   -37.37
        850   0.63146   -77.74    32.728   127.07  0.020441    56.60   0.71627   -38.84
        900   0.61944   -80.99    31.727   125.02  0.021093    55.67   0.69621   -40.04
        950   0.60906   -84.21     30.81   123.11  0.021742    54.79   0.67805   -41.18
       1000   0.59854   -87.24    29.905   121.26  0.022369    53.88   0.66063   -42.33
       1050   0.58731   -90.28    29.028   119.49  0.022919    53.11   0.64342   -43.35
       1100   0.57881   -93.09    28.203   117.81  0.023477    52.47   0.62733   -44.30
       1150   0.56955   -95.93    27.409   116.15  0.024001    51.80   0.61202   -45.15
       1200   0.56067   -98.56    26.638   114.64   0.02452    51.17   0.59724   -45.98
       1250   0.55271  -101.20    25.887   113.14  0.024995    50.63   0.58279   -46.82
       1300   0.54525  -103.69    25.188   111.69  0.025426    50.17   0.56896   -47.51
       1350   0.53865  -106.04    24.524   110.32  0.025902    49.74   0.55613   -48.18
       1400   0.53147  -108.45    23.879   108.98  0.026335    49.30   0.54374   -48.83
       1450    0.5253  -110.68     23.26   107.71  0.026724    48.95   0.53161   -49.41
       1500   0.51932  -112.79    22.663   106.48  0.027143    48.68   0.52044   -49.92
       1550     0.514  -114.84    22.092   105.29  0.027561    48.36   0.51017   -50.40
       1600   0.50843  -116.81    21.544   104.16  0.027968    48.08   0.49998   -50.89
       1650    0.5032  -118.88    21.014   103.01  0.028348    47.85      0.49   -51.36
       1700   0.49849  -120.73    20.526   101.90  0.028721    47.62    0.4807   -51.78
       1750    0.4939  -122.50    20.039   100.86  0.029107    47.38   0.47183   -52.24
       1800   0.48977  -124.40    19.571    99.81  0.029459    47.18   0.46322   -52.66
       1850   0.48598  -126.19    19.124    98.79  0.029804    46.96   0.45451   -53.05
       1900   0.48207  -127.84    18.701    97.80   0.03017    46.82   0.44734   -53.41
       1950   0.47816  -129.42    18.277    96.85  0.030502    46.69   0.44019   -53.83
       2000   0.47485  -130.98    17.862    95.93   0.03083    46.61   0.43186   -54.33
       2050   0.47232  -132.45    17.465    95.10  0.031162    46.52   0.42359   -54.60
       2100   0.46986  -134.00    17.106    94.23  0.031575    46.47   0.41723   -54.83
       2150   0.46741  -135.40    16.749    93.42  0.031928    46.46   0.41034   -55.18
       2200   0.46488  -136.88    16.419    92.63  0.032322    46.37   0.40409   -55.27
       2250   0.46152  -138.33    16.085    91.77  0.032679    46.19   0.39928   -55.68
       2300   0.45945  -139.62    15.753    90.99  0.032978    46.08   0.39312   -56.15
       2350   0.45856  -140.95    15.435    90.27  0.033258    46.07   0.38559   -56.54
       2400   0.45742  -142.30    15.145    89.57   0.03366    46.18   0.37885   -56.65
       2450   0.45535  -143.66    14.855    88.91   0.03405    46.22   0.37302   -56.81
       2500   0.45257  -145.19    14.602    88.20  0.034478    46.09   0.36742   -56.94
       2600   0.44858  -147.36    14.094    86.86  0.035206    45.94   0.35758   -57.15
       2700   0.44585  -149.74    13.617    85.48  0.035896    45.75   0.34846   -57.34
       2800   0.44283  -151.86    13.173    84.17  0.036588    45.70   0.34045   -57.50
       2900    0.4407  -154.05    12.748    82.95  0.037283    45.70   0.33328   -57.51
       3000   0.43841  -156.02    12.376    81.76  0.038045    45.64   0.32717   -57.77
       3100   0.43712  -157.99    12.024    80.46  0.038745    45.57   0.32196   -58.05
       3200   0.43514  -159.87    11.674    79.26  0.039475    45.51   0.31556   -58.42
       3300   0.43489  -161.69    11.354    78.11  0.040228    45.44   0.30993   -58.88
       3400   0.43291  -163.52     11.05    76.90  0.040981    45.40    0.3046   -59.30
       3500   0.43211  -165.28    10.765    75.72  0.041713    45.34   0.29911   -59.65
       3600   0.43143  -167.18     10.48    74.57  0.042478    45.30   0.29338   -59.92
       3700   0.43015  -168.69    10.214    73.42  0.043246    45.27    0.2883   -60.13
       3800   0.42983  -170.50    9.9654    72.28   0.04404    45.15    0.2834   -60.54
       3900   0.42833  -171.89    9.7216    71.21  0.044833    45.06   0.27945   -60.87
       4000    0.4287  -173.70     9.486    70.11  0.045649    44.93   0.27463   -61.26
       4100    0.4277  -175.06    9.2652    69.08  0.046433    44.92   0.26985   -61.41
       4200   0.42733  -176.64    9.0555    68.01  0.047292    44.74   0.26596   -61.75
       4300   0.42685  -177.91    8.8579    66.99  0.048144    44.62   0.26274   -62.23
       4400   0.42669  -179.50    8.6622    65.93     0.049    44.36   0.25955   -62.59
       4500   0.42617   179.20    8.4781    64.93  0.049826    44.21   0.25611   -62.92
       4600   0.42661   177.78    8.2996    63.95  0.050618    44.01   0.25201   -63.33
       4700   0.42667   176.50    8.1332    62.94   0.05141    43.87   0.24806   -63.81
       4800   0.42712   174.99    7.9644    61.93  0.052247    43.63   0.24534   -64.40
       4900   0.42711   173.67    7.8118    60.92  0.053067    43.43   0.24185   -64.73
       5000   0.42647   172.37    7.6573    59.98  0.053923    43.26   0.23835   -64.93
       5200   0.42684   169.95    7.3634    58.03  0.055584    42.81   0.23214   -65.96
       5400   0.42692   167.48     7.105    56.19   0.05727    42.31   0.22697   -66.55
       5600   0.42796   165.12    6.8518    54.29  0.058927    41.86   0.22059   -67.64
       5800    0.4281   162.85    6.6195    52.50    0.0606    41.36   0.21544   -68.21
       6000   0.42902   160.73    6.4067    50.67  0.062262    40.86   0.21017   -69.33
       6200    0.4308   158.72    6.2071    48.92  0.064039    40.35   0.20535   -70.09
       6400   0.43223   156.60    6.0169    47.15  0.065761    39.85   0.20008   -71.12
       6600   0.43406   154.40    5.8407    45.39   0.06754    39.24   0.19596   -71.92
       6800   0.43555   152.46    5.6822    43.67   0.06936    38.55   0.19159   -73.33
       7000   0.43668   150.51    5.5192    41.95  0.071137    38.12   0.18676   -74.13
       7200   0.43907   148.84    5.3847    40.27  0.073179    37.46   0.18366   -75.36
       7400   0.44155   146.80    5.2478    38.39  0.074996    36.57    0.1788   -77.08
       7600    0.4449   145.22    5.1285    36.66  0.077023    36.02   0.17575   -78.27
       7800    0.4466   142.66    4.9786    34.70  0.078507    34.98   0.16648   -80.50
       8000    0.4456   141.36    4.8669    33.58  0.080523    34.82    0.1666   -79.57
       8200   0.45173   139.34    4.7609    31.37  0.082704    33.67   0.15986   -82.94
       8400   0.45379   137.44    4.6493    29.83  0.084716    33.08   0.15893   -83.77
       8600   0.45444   135.43    4.5202    28.04  0.086002    31.81   0.14769   -86.10
       8800   0.45455   133.92    4.4211    26.40  0.088043    31.26   0.14451   -87.17
       9000    0.4578   133.03    4.3417    25.03  0.090071    30.76   0.14217   -88.73
       9200   0.45989   131.21    4.2466    23.32  0.091854    29.80   0.13549   -90.92
       9400   0.46422   129.58     4.162    21.61  0.093636    28.94    0.1319   -92.82
       9600   0.47026   128.12    4.0824    20.09  0.095757    28.30   0.12451   -94.50
       9800   0.47394   126.45    4.0197    18.46  0.097686    27.63    0.1217   -95.37
      10000   0.48012   124.88    3.9504    16.70   0.10079    26.67   0.12174   -98.18
      10200   0.48465   122.86    3.8715    14.88   0.10258    25.35   0.11271  -102.19
      10400   0.48634   121.27    3.7911    13.19   0.10442    24.34   0.10992  -105.07
      10600   0.48826   119.56    3.7164    11.60   0.10628    23.34   0.10152  -107.84
      10800   0.49056   118.23    3.6619    10.05   0.10827    22.50    0.0989  -109.79
      11000   0.49652   116.60    3.5922     8.45   0.11042    21.60  0.094483  -112.33
      11200   0.50225   115.08    3.5629     6.81   0.11267    20.69  0.093124  -116.87
      11400   0.50642   113.38    3.4872     4.96   0.11481    19.42  0.086852  -121.10
      11600   0.50981   111.60    3.4258     3.50   0.11633    18.41  0.081904  -126.67
      11800   0.51544   110.26    3.3783     1.78   0.11873    17.35  0.077896  -129.17
      12000   0.51636   108.95    3.3353     0.47   0.11995    16.44  0.072637  -134.51
      12200   0.52567   107.01       3.3    -1.60   0.12284    15.50  0.071484  -137.32
      12400    0.5268   105.17    3.2383    -3.46   0.12514    14.20  0.067528  -146.05
      12600   0.52817   103.63    3.1739    -4.74    0.1261    13.29  0.060224  -150.48
      12800   0.53754   102.67    3.1529    -6.25   0.12939    12.47   0.05893  -151.60
      13000   0.53515   100.68    3.1064    -8.01    0.1303    11.01  0.058087  -160.61
      13200     0.541    99.71    3.0429    -9.78   0.13235     9.92  0.056114  -168.02
      13400   0.54658    98.39    3.0171   -11.49   0.13503     8.71  0.062847  -176.03
      13600   0.55386    96.77    2.9863   -13.30   0.13654     7.69  0.065148   176.41
      13800   0.55529    95.23    2.9303   -14.98     0.139     6.54  0.067921   166.74
      14000   0.56346    93.66    2.9022   -16.24   0.14024     5.36  0.072641   157.09
      14200   0.57078    92.39    2.8679   -18.09   0.14243     4.51  0.073381   150.08
      14400   0.57398    90.05    2.8262   -19.80   0.14438     3.30  0.084649   141.12
      14600   0.57976    88.72    2.8005   -21.42   0.14691     2.40  0.081529   135.59
      14800   0.58192    86.97    2.7671   -23.03   0.14909     1.15  0.090311   129.70
      15000   0.58974    85.76    2.7323   -24.78   0.15123    -0.09  0.092337   125.16
      15200   0.59255    84.41    2.7071   -26.37   0.15343    -1.43  0.098185   123.77
      15400   0.60592    83.03    2.6847   -28.07   0.15504    -2.49   0.10636   118.76
      15600   0.60904    82.05    2.6541   -29.94   0.15753    -3.80   0.11174   116.83
      15800   0.61762    80.40    2.6327   -31.49   0.15861    -5.13    0.1198   113.12
      16000   0.63117    79.06    2.6122   -33.70     0.161    -6.16   0.12858   110.63
      16200   0.63921    77.24    2.5887   -35.70   0.16313    -7.29   0.13252   107.38
      16400   0.64765    75.54     2.541   -37.80   0.16514    -8.25   0.13846   104.81
      16600   0.64963    73.94    2.5014   -39.30   0.16823    -9.68   0.14754   104.44
      16800   0.65499    72.25    2.4682   -40.70   0.16955   -10.74   0.15371    99.83
      17000   0.65698    70.59    2.4568   -42.35   0.17224   -12.14   0.16717    99.37
      17200   0.66042    68.82     2.437   -44.28   0.17441   -13.27     0.173    95.10
      17400   0.66723    66.60    2.4233   -46.56   0.17601   -14.57   0.18539    93.82
      17600   0.66614    65.10    2.3768   -48.31   0.17912   -15.50   0.19163    89.36
      17800   0.66711    63.67    2.3612   -50.24    0.1821   -17.17   0.19687    88.01
      18000   0.67864    62.69    2.3162   -52.26   0.18406   -18.69   0.20239    87.29
      18200   0.68568    60.51    2.3015   -54.50   0.18616   -20.05   0.21325    85.52
      18400     0.693    59.04    2.2521   -56.77   0.18818   -21.42     0.217    84.67
      18600   0.68664    57.80    2.1871   -58.16   0.18901   -22.63   0.23381    83.78
      18800   0.69584    55.64     2.159   -59.79   0.19181   -23.91   0.24279    81.78
      19000   0.69185    54.55    2.1282   -61.11    0.1952   -25.15   0.25244    79.85
      19200   0.69774    53.07    2.1011   -62.84   0.19807   -26.90    0.2584    77.96
      19400   0.70343    52.15    2.0729   -63.96   0.20001   -28.31   0.26165    76.91
      19600   0.70964    51.03     2.043   -65.53   0.20093   -30.66   0.27709    78.23
      19800   0.73673    50.39    2.0508   -66.72    0.2003   -31.28   0.29424    74.86
      20000   0.75089    47.63    2.0458   -68.98   0.20246   -32.07   0.30054    73.27