! Filename:  P:\Prog\Test\Noise\ATS_data\Testdata_Net\Split files Spar\BFU730_2W_B1_1V_1mA_30mA_Bias8_D.s2p
! Date/Time: Fri 29/Apr/2011 14:16:22
! BFU730_2W_B1_1V_1mA_30mA_Bias8_R.s2p
! MDIF S-parameter v. bias file
! BFU730_2W_B1_1V_1mA_30mA
! Date/time Thu Mar 17 14:34:31 2011
! VAR V_out= 1.0000
! VAR I_out= 19.9500
! VAR V_in= 0.8277
! VAR I_in= 0.0675
! Device data file deembeded for feedlines and parallel
! Original file: \Split files Spar\BFU730_2W_B1_1V_1mA_30mA_Bias8_R.s2p
! Feed-files: PR003V01_101208_Feed1.s2p, PR003V01_101208_Feed2.s2p
! Parallel-file: PR003V01_101208_Par.s2p
# MHz S MA R 50
!  Freq-MHz   S11-mag  S11-arg   S21-mag  S21-arg   S12-mag  S12-arg   S22-mag  S22-arg
         40   0.79764    -5.21    44.584   177.19 0.0015955    86.33   0.98354    -1.63
         50   0.79596    -7.15    44.575   175.64 0.0024688    81.87   0.98456    -2.65
         60    0.7892    -7.76    43.216   174.91 0.0023573    81.50   0.98683    -3.41
         70   0.79142    -9.03    43.527   174.45  0.002726    84.91   0.98617    -4.28
         80   0.79333   -10.33    44.411   173.43 0.0031147    84.79   0.98581    -5.07
         90   0.79201   -11.64    44.409   172.36 0.0035253    84.15   0.98506    -5.88
        100    0.7908   -12.72    44.182   171.64 0.0039078    83.77   0.98414    -6.66
        120   0.79016   -15.42    44.295   169.77 0.0046468    82.69   0.98096    -8.26
        140   0.78811   -17.85     44.29   168.09  0.005408    82.10   0.97803    -9.78
        160   0.78476   -20.31    43.818   166.29 0.0061526    80.66   0.97366   -11.30
        180   0.78546   -22.66    44.224   164.72 0.0069255    79.87   0.96775   -12.73
        200   0.78211   -25.20    43.929   162.91 0.0076708    78.84    0.9628   -14.18
        220   0.77877   -27.57    43.888   161.28 0.0083812    77.75   0.95567   -15.63
        240   0.77295   -30.03    43.704   159.56 0.0090661    76.70   0.94985   -16.98
        260   0.77127   -32.28    43.207   157.95 0.0097733    75.66     0.943   -18.40
        280   0.76592   -34.73    42.903   156.47   0.01045    74.68   0.93572   -19.73
        300   0.76262   -37.14    42.361   154.77  0.011156    73.59   0.92888   -21.15
        320   0.75317   -39.60    41.601   153.40  0.011784    72.52   0.91898   -22.52
        340   0.75182   -41.47    41.791   151.89  0.012413    71.51   0.90967   -23.76
        360   0.74783   -43.84    41.239   150.50  0.013065    70.57   0.89962   -25.03
        380   0.74109   -46.26    40.852   149.02  0.013664    69.63   0.88947   -26.24
        400   0.73571   -48.04    40.896   147.70  0.014236    68.67   0.87949   -27.32
        420   0.72988   -50.10     40.56   146.33  0.014792    67.75   0.87166   -28.41
        440   0.72704   -52.06    40.041   145.06  0.015393    66.86   0.86198   -29.68
        460   0.71974   -54.19    39.725   143.81  0.015898    65.98   0.85206   -30.73
        480    0.7168   -55.88    39.324   142.54  0.016408    65.12   0.84356   -31.96
        500   0.70749   -58.22    38.577   141.21  0.016927    64.40    0.8311   -33.12
        550   0.69653   -62.54     37.86   138.18   0.01805    62.40   0.80202   -35.42
        600   0.68313   -66.75    36.963   135.45  0.019166    60.63   0.77823   -37.68
        650   0.66956   -70.86    35.746   132.90  0.020198    59.02   0.75363   -39.97
        700   0.65691   -75.16    34.469   130.34  0.021152    57.60   0.72833   -42.11
        750   0.64497   -78.91    33.558   128.04  0.022003    56.23   0.70436   -43.88
        800   0.63335   -82.62    32.531   125.85  0.022819    55.01   0.68365   -45.54
        850   0.62258   -86.38     31.41   123.63  0.023567    53.85   0.66209   -47.33
        900    0.6109   -89.57     30.47   121.68  0.024261    52.98   0.63891   -48.86
        950   0.60184   -92.71    29.587   119.84  0.024942    52.10   0.61865   -50.20
       1000   0.59211   -95.80    28.649   118.03  0.025581    51.23   0.60056   -51.54
       1050   0.58189   -98.91    27.738   116.32  0.026152    50.50   0.58231   -52.80
       1100   0.57434  -101.66    26.931   114.70  0.026741    49.82   0.56457   -54.00
       1150   0.56591  -104.38    26.182   113.13  0.027305    49.25   0.54799   -55.03
       1200   0.55784  -106.99    25.413   111.69  0.027804    48.69   0.53272   -56.07
       1250    0.5512  -109.65    24.644   110.22  0.028309    48.20   0.51787   -57.17
       1300   0.54483  -112.04    23.971   108.85   0.02879    47.75   0.50295   -58.06
       1350   0.53879  -114.30     23.33   107.55  0.029276    47.39   0.48929   -58.88
       1400   0.53297  -116.65    22.693   106.26  0.029719    46.96   0.47637   -59.72
       1450   0.52734  -118.82    22.088   105.05  0.030157    46.68   0.46373   -60.50
       1500   0.52234  -120.88    21.503   103.88  0.030596    46.41   0.45212   -61.19
       1550   0.51815  -122.90    20.933   102.72  0.031043    46.16   0.44124   -61.82
       1600   0.51355  -124.79     20.41   101.65  0.031459    45.94   0.43084   -62.49
       1650   0.50931  -126.77      19.9   100.55  0.031878    45.66   0.42041   -63.15
       1700   0.50534  -128.56    19.423    99.48    0.0323    45.50   0.41062   -63.73
       1750   0.50122  -130.26    18.957    98.48  0.032705    45.28   0.40156   -64.37
       1800    0.4982  -132.11    18.494    97.48  0.033096    45.12   0.39279   -64.97
       1850   0.49493  -133.81    18.062    96.50  0.033509    44.97   0.38381   -65.51
       1900   0.49183  -135.36    17.661    95.56  0.033882    44.89   0.37628   -66.01
       1950   0.48829  -136.88     17.25    94.64  0.034242    44.75   0.36892   -66.57
       2000   0.48568  -138.36    16.854    93.77  0.034598    44.65   0.36075   -67.28
       2050   0.48377  -139.77    16.478    92.98  0.034999    44.60   0.35237   -67.74
       2100   0.48168  -141.22    16.131    92.13  0.035417    44.55   0.34567   -68.10
       2150   0.48027  -142.55    15.794    91.36  0.035777    44.53   0.33867   -68.62
       2200   0.47786  -143.93    15.479    90.59  0.036239    44.47   0.33206   -68.86
       2250   0.47549  -145.30    15.158    89.76  0.036634    44.33   0.32713   -69.38
       2300   0.47379  -146.51    14.842    89.02  0.036979    44.25   0.32113   -70.03
       2350   0.47345  -147.74    14.538    88.32  0.037308    44.25   0.31399   -70.67
       2400   0.47294  -149.02    14.263    87.65  0.037697    44.32   0.30692   -70.96
       2450   0.47119  -150.30     13.99    87.00  0.038157    44.37   0.30117   -71.29
       2500   0.46909  -151.76    13.745    86.31  0.038612    44.26    0.2953   -71.63
       2600   0.46586  -153.82    13.265    85.02  0.039427    44.09   0.28483   -72.13
       2700   0.46397  -156.08    12.807    83.67  0.040233    43.98   0.27497   -72.56
       2800   0.46197  -158.06    12.388    82.40  0.041017    43.89   0.26621   -72.97
       2900    0.4605  -160.10    11.984    81.22  0.041816    43.89   0.25825   -73.18
       3000   0.45856  -161.97    11.631    80.05  0.042662    43.85   0.25153   -73.68
       3100   0.45782  -163.83    11.295    78.78  0.043472    43.73   0.24542   -74.08
       3200   0.45648  -165.60    10.962    77.61  0.044307    43.64   0.23858   -74.69
       3300   0.45635  -167.32    10.661    76.47  0.045145    43.53   0.23255   -75.46
       3400   0.45504  -169.04    10.372    75.29  0.045991    43.47   0.22682   -76.14
       3500   0.45483  -170.76      10.1    74.13  0.046843    43.37   0.22073   -76.68
       3600   0.45451  -172.48    9.8313    73.00   0.04768    43.27   0.21464   -77.22
       3700   0.45338  -173.89    9.5799    71.87  0.048509    43.21   0.20895   -77.62
       3800   0.45356  -175.63    9.3437    70.75  0.049411    43.07   0.20356   -78.24
       3900   0.45266  -176.93    9.1149    69.70  0.050334    42.96   0.19926   -78.76
       4000   0.45304  -178.65    8.8913    68.61  0.051195    42.78   0.19407   -79.43
       4100   0.45245  -179.93    8.6833    67.60  0.052086    42.72   0.18881   -79.75
       4200   0.45239   178.56    8.4842    66.54  0.053044    42.49   0.18449   -80.29
       4300   0.45203   177.34    8.2984    65.53  0.053986    42.34   0.18092   -80.95
       4400   0.45231   175.84    8.1133    64.48  0.054947    42.05   0.17711   -81.44
       4500   0.45225   174.64    7.9395    63.49   0.05589    41.86   0.17337   -81.94
       4600   0.45294   173.28     7.771    62.52  0.056747    41.61   0.16896   -82.62
       4700   0.45327   172.05     7.615    61.52  0.057655    41.41   0.16511   -83.40
       4800   0.45369   170.63    7.4559    60.52  0.058576    41.14   0.16214   -84.19
       4900   0.45403   169.36    7.3106    59.52  0.059437    40.92   0.15799   -84.70
       5000   0.45338   168.12    7.1657    58.58  0.060428    40.70   0.15396   -85.15
       5200   0.45398   165.81    6.8895    56.66  0.062275    40.17   0.14785   -86.67
       5400   0.45475   163.43    6.6455    54.81  0.064135    39.59   0.14125   -87.57
       5600   0.45574   161.16    6.4061    52.93  0.065961    39.02   0.13518   -89.41
       5800    0.4559   159.02    6.1871    51.15  0.067815    38.44   0.12891   -90.24
       6000   0.45731   156.97    5.9863    49.32  0.069655    37.85   0.12367   -92.23
       6200   0.45927   155.03    5.7986    47.57  0.071586    37.26   0.11843   -93.39
       6400   0.46107   152.98    5.6194    45.80  0.073453    36.63   0.11266   -95.19
       6600   0.46313   150.82    5.4528    44.04  0.075395    35.91   0.10803   -96.56
       6800   0.46482   148.92    5.3038    42.32  0.077369    35.14    0.1035   -98.77
       7000     0.466   147.04    5.1502    40.62  0.079269    34.60  0.098255  -100.50
       7200   0.46868   145.38    5.0223    38.91  0.081507    33.81   0.09512  -102.41
       7400   0.47118   143.36     4.892    37.04  0.083403    32.84  0.090266  -105.68
       7600   0.47485   141.78    4.7774    35.29  0.085519    32.15  0.087325  -107.96
       7800   0.47619   139.36    4.6379    33.37  0.087112    31.10  0.080116  -113.13
       8000   0.47566   138.07    4.5323    32.20  0.089259    30.77  0.077153  -111.29
       8200   0.48169   136.06    4.4311    30.02  0.091473    29.56  0.073741  -118.38
       8400   0.48354   134.25    4.3261    28.48  0.093587    28.91  0.071578  -119.12
       8600   0.48415   132.28    4.2056    26.71  0.095064    27.61  0.064648  -127.59
       8800   0.48461   130.78    4.1124    25.06  0.097224    26.95  0.061379  -130.07
       9000   0.48779   129.78    4.0366    23.65  0.099273    26.30  0.059953  -134.09
       9200    0.4898   128.06    3.9477    21.94   0.10114    25.23  0.056773  -141.04
       9400   0.49456   126.41     3.867    20.24   0.10298    24.31  0.054728  -146.22
       9600   0.49995   124.93    3.7917    18.69   0.10502    23.52  0.051356  -155.03
       9800   0.50404   123.24    3.7302    17.05   0.10703    22.75   0.04893  -159.04
      10000   0.50982   121.75    3.6645    15.29   0.11006    21.76  0.050788  -162.80
      10200   0.51354   119.76    3.5891    13.49   0.11185    20.45  0.051962  -175.27
      10400   0.51593   118.12    3.5146    11.80   0.11378    19.40  0.053262   179.46
      10600   0.51773   116.47    3.4432    10.19   0.11565    18.33  0.054199   168.87
      10800   0.51984   115.15    3.3917     8.66   0.11767    17.42  0.054938   164.43
      11000   0.52641   113.46    3.3235     7.04   0.11981    16.41   0.05655   157.86
      11200   0.53198   111.95    3.2939     5.43     0.122    15.42  0.062006   154.02
      11400   0.53582   110.28    3.2239     3.60   0.12407    14.14  0.065021   146.84
      11600   0.53887   108.53    3.1665     2.13   0.12559    13.08   0.07132   141.36
      11800   0.54474   107.21    3.1211     0.40   0.12799    11.97  0.073187   136.72
      12000   0.54549   105.78    3.0792    -0.94   0.12924    10.93  0.078644   131.33
      12200   0.55486   103.90    3.0435    -2.97   0.13186     9.96  0.081097   128.33
      12400   0.55475   102.09    2.9856    -4.79   0.13413     8.69  0.088487   124.06
      12600   0.55637   100.57    2.9261    -6.08    0.1351     7.68  0.092136   118.08
      12800   0.56562    99.59    2.9047    -7.62   0.13823     6.83  0.092471   115.99
      13000   0.56357    97.58    2.8593    -9.36   0.13928     5.32   0.10009   113.05
      13200   0.56946    96.54    2.8011   -11.08   0.14134     4.20   0.10521   110.32
      13400   0.57389    95.21    2.7749   -12.79   0.14373     2.85    0.1129   110.71
      13600    0.5816    93.59    2.7423   -14.58   0.14497     1.75   0.12084   108.63
      13800    0.5822    92.11    2.6929   -16.26   0.14732     0.57   0.12915   106.56
      14000   0.59044    90.46    2.6638   -17.52   0.14827    -0.66   0.14038   104.00
      14200    0.5972    89.21    2.6323   -19.35   0.15012    -1.57   0.14625   100.94
      14400   0.60016    86.95    2.5914   -21.05   0.15176    -2.74   0.15983    99.38
      14600   0.60501    85.61     2.566   -22.65   0.15418    -3.58   0.16213    95.70
      14800   0.60771    83.87    2.5342   -24.27   0.15628    -4.85   0.17272    94.23
      15000   0.61475    82.63    2.5004   -25.95   0.15842    -6.09   0.17711    91.53
      15200    0.6177    81.27    2.4769   -27.58   0.16048    -7.51   0.18286    91.06
      15400   0.63019    79.86    2.4519   -29.27   0.16171    -8.64   0.19222    89.02
      15600   0.63321    78.83    2.4242   -31.08   0.16415    -9.96   0.19791    87.72
      15800   0.64138    77.18     2.402   -32.67   0.16493   -11.39   0.20718    86.21
      16000   0.65351    75.86    2.3799   -34.83    0.1667   -12.39   0.21562    84.60
      16200   0.66072    74.05    2.3546   -36.76   0.16844   -13.51    0.2208    82.21
      16400    0.6683    72.39    2.3107   -38.73   0.17008   -14.38   0.22509    80.56
      16600   0.67017    70.78    2.2752   -40.23   0.17295   -15.77   0.23156    80.46
      16800   0.67497    69.17     2.245   -41.63   0.17386   -16.84   0.24053    78.04
      17000   0.67699    67.45    2.2316   -43.29    0.1764   -18.18   0.25161    77.97
      17200   0.67994    65.70     2.212   -45.15   0.17828   -19.26   0.26063    74.97
      17400   0.68619    63.55     2.195   -47.35   0.17945   -20.51   0.27077    74.23
      17600   0.68463    62.06    2.1556   -49.01   0.18269   -21.37   0.27854    71.08
      17800   0.68555    60.59    2.1384   -50.92   0.18539   -23.04   0.28349    69.75
      18000   0.69606    59.65    2.0988   -52.93   0.18717   -24.56   0.28494    68.90
      18200   0.70229    57.45    2.0802   -55.10   0.18862   -25.82    0.2956    67.62
      18400   0.70792    56.04    2.0343   -57.23   0.19065   -27.09   0.29548    66.78
      18600   0.70105    54.82    1.9778   -58.51   0.19127   -28.28   0.30928    66.78
      18800   0.71016    52.74    1.9521   -60.08   0.19387   -29.47   0.31808    65.35
      19000   0.70644    51.61    1.9255   -61.35   0.19737   -30.68   0.32628    64.11
      19200   0.71224    50.20    1.9019   -63.09   0.19996   -32.48   0.33199    62.35
      19400   0.71659    49.23    1.8751   -64.20   0.20166   -33.91   0.33347    61.74
      19600    0.7223    48.14    1.8491   -65.72    0.2025   -36.34   0.34354    62.93
      19800   0.74791    47.42    1.8505   -66.94   0.20059   -36.89   0.36368    60.68
      20000   0.76098    44.75    1.8438   -69.05   0.20212   -37.47   0.36824    59.31