! Filename:  P:\Prog\Test\Noise\ATS_data\Testdata_Net\BFU730\BFU730_2W_B1_2V15mA_D.s2p
! Date/Time: Fri 29/Apr/2011 14:14:18
! BFU730_2W_B1_2V15mA
! bias mode 1: Vout= 2.0000 V, Iout=15.0000 mA, Vin= 0.8104 V, Iin= 0.0500 mA
! Date/time Thu Mar 17 11:16:37 2011
! Device data file deembeded for feedlines and parallel
! Original file: \BFU730\BFU730_2W_B1_2V15mA_R.s2p
! Feed-files: PR003V01_101208_Feed1.s2p, PR003V01_101208_Feed2.s2p
! Parallel-file: PR003V01_101208_Par.s2p
# MHz S MA R 50
!  Freq-MHz   S11-mag  S11-arg   S21-mag  S21-arg   S12-mag  S12-arg   S22-mag  S22-arg
         40   0.85687    -3.56     38.42   177.31 0.0013344    86.79   0.99353    -1.30
         50   0.85887    -4.82    38.513   176.17 0.0019461    97.80   0.99328    -2.03
         60   0.85441    -5.32    38.096   175.73 0.0021948    87.29    0.9955    -2.46
         70   0.85636    -6.21    38.175   175.42  0.002374    86.66   0.99558    -3.09
         80   0.85559    -7.16    38.383   174.69 0.0027132    86.79   0.99538    -3.66
         90   0.85465    -8.08    38.336   173.83  0.003064    86.32   0.99474    -4.25
        100   0.85396    -8.89    38.144   173.28 0.0033757    86.00   0.99394    -4.78
        120   0.85302   -10.81    38.182   171.95 0.0040648    84.90   0.99259    -5.89
        140   0.85185   -12.60    38.051   170.65 0.0047256    84.34   0.99097    -7.00
        160   0.84982   -14.39    37.831   169.25 0.0053985    83.35   0.98823    -8.05
        180   0.84868   -16.21    37.746   168.05 0.0060705    82.43   0.98538    -9.11
        200   0.84623   -18.02    37.611   166.66  0.006714    81.79   0.98243   -10.16
        220   0.84335   -19.84    37.524   165.39 0.0073842    80.83    0.9786   -11.22
        240   0.83967   -21.65    37.447   164.01 0.0080275    79.89   0.97483   -12.23
        260   0.83767   -23.38    37.128   162.74 0.0086624    79.05   0.97064   -13.25
        280   0.83402   -25.19    36.972   161.47 0.0093173    78.31   0.96635   -14.26
        300   0.83118   -26.95    36.723   160.20 0.0099712    77.23   0.96175   -15.29
        320     0.827   -28.63    36.471   159.01  0.010567    76.29   0.95605   -16.29
        340   0.82337   -30.38    36.272   157.72  0.011174    75.61   0.95046   -17.25
        360   0.82018   -32.07    36.009   156.62  0.011762    74.74    0.9443   -18.19
        380   0.81547   -33.88    35.854   155.39  0.012389    73.87   0.93825   -19.14
        400   0.81013   -35.59    35.663   154.17  0.012979    73.08   0.93178   -20.04
        420   0.80496   -37.29    35.457   152.95  0.013561    72.24   0.92624   -20.94
        440   0.80157   -38.87    35.104   151.88   0.01411    71.43   0.91975   -21.88
        460   0.79654   -40.63    34.922   150.71  0.014651    70.62   0.91298   -22.74
        480   0.79228   -42.19     34.56   149.60  0.015211    69.76   0.90673   -23.67
        500   0.78654   -43.76    34.264   148.46  0.015684    68.98   0.89835   -24.55
        550   0.77413   -47.75    33.629   145.67  0.016915    67.19   0.87822   -26.53
        600   0.76068   -51.69     32.94   143.05  0.018149    65.46   0.86074   -28.47
        650   0.74847   -55.32    32.108   140.59  0.019237    63.75   0.84176   -30.38
        700   0.73643   -58.88    31.289   138.25   0.02028    62.15   0.82203   -32.16
        750   0.72381   -62.49    30.614   135.93  0.021271    60.73   0.80311   -33.74
        800   0.71141   -66.01    29.905   133.71  0.022241    59.36   0.78593   -35.28
        850   0.69926   -69.28    29.119   131.57  0.023132    57.98   0.76733   -36.86
        900   0.68707   -72.44    28.368   129.52    0.0239    56.84   0.74765   -38.21
        950   0.67598   -75.60    27.685   127.59  0.024695    55.79   0.73039   -39.46
       1000   0.66455   -78.52    26.986   125.72  0.025459    54.70   0.71379   -40.74
       1050    0.6528   -81.48    26.305   123.89  0.026127    53.69   0.69681   -41.93
       1100   0.64336   -84.25    25.648   122.19  0.026781    52.84   0.68066   -43.01
       1150   0.63293   -87.08     25.03   120.46  0.027413    52.02   0.66521   -43.99
       1200   0.62261   -89.69    24.408   118.88  0.028029    51.24   0.65061   -44.99
       1250   0.61374   -92.26    23.782   117.33  0.028592    50.42   0.63564   -45.99
       1300   0.60553   -94.74    23.208   115.82  0.029099    49.77   0.62119   -46.83
       1350   0.59722   -97.14    22.659   114.38  0.029641    49.16   0.60807   -47.66
       1400   0.58874   -99.57    22.122   112.96  0.030121    48.53   0.59494   -48.46
       1450   0.58126  -101.88      21.6   111.62  0.030577    47.98   0.58219   -49.21
       1500   0.57383  -104.01    21.094   110.32  0.031052    47.47   0.57028   -49.88
       1550   0.56773  -106.09    20.606   109.07  0.031516    47.04   0.55925   -50.49
       1600   0.56118  -108.11    20.128   107.88   0.03196    46.59   0.54853   -51.15
       1650   0.55489  -110.22    19.667   106.67  0.032345    46.17   0.53739   -51.75
       1700   0.54912  -112.13    19.243   105.49  0.032722    45.80   0.52725   -52.30
       1750   0.54326  -113.98    18.818   104.37  0.033123    45.46   0.51737   -52.89
       1800   0.53801  -115.93    18.405   103.26   0.03353    45.05   0.50789   -53.45
       1850   0.53289  -117.79    18.011   102.17   0.03388    44.72   0.49844   -53.96
       1900   0.52814  -119.52    17.639   101.11   0.03427    44.46   0.49027   -54.45
       1950   0.52298  -121.18     17.26   100.10  0.034586    44.19   0.48243   -54.97
       2000   0.51866  -122.85    16.886    99.12  0.034938    43.94   0.47329   -55.59
       2050   0.51523  -124.43    16.531    98.23  0.035283    43.80   0.46408   -55.98
       2100   0.51182  -125.99    16.206    97.30   0.03568    43.54     0.457   -56.34
       2150   0.50864  -127.51    15.883    96.43  0.036005    43.41   0.44905   -56.79
       2200   0.50505  -129.05    15.582    95.59  0.036423    43.25   0.44204   -56.99
       2250   0.50099  -130.57     15.28    94.68  0.036762    42.99   0.43631   -57.48
       2300    0.4977  -131.95    14.979    93.84  0.037074    42.80   0.42943   -58.02
       2350   0.49617  -133.36    14.687    93.07  0.037337    42.68    0.4213   -58.53
       2400   0.49428  -134.80    14.422    92.31  0.037691    42.68   0.41368   -58.73
       2450   0.49102  -136.24    14.158    91.60  0.038074    42.60   0.40739   -58.98
       2500    0.4873  -137.79    13.923    90.84  0.038485    42.40   0.40079   -59.26
       2600   0.48256  -140.12    13.454    89.40  0.039146    42.11   0.38953   -59.68
       2700   0.47803  -142.70    13.011    87.95  0.039787    41.81   0.37912   -60.01
       2800   0.47409  -144.94      12.6    86.55  0.040429    41.63   0.36941   -60.33
       2900   0.47068  -147.28    12.203    85.24  0.041042    41.50   0.36059   -60.56
       3000   0.46701  -149.38    11.855    83.98  0.041754    41.40   0.35355   -60.97
       3100   0.46533  -151.47    11.525    82.62  0.042407    41.23   0.34688   -61.32
       3200   0.46229  -153.50    11.198    81.35  0.043039    41.11   0.33946   -61.78
       3300   0.46134  -155.50    10.897    80.12  0.043725    40.96   0.33256   -62.36
       3400   0.45838  -157.48    10.611    78.85  0.044411    40.87    0.3264   -62.95
       3500   0.45715  -159.33    10.342    77.63  0.045108    40.78   0.31985   -63.37
       3600   0.45559  -161.37    10.073    76.42  0.045773    40.70   0.31293   -63.72
       3700   0.45375  -162.94    9.8219    75.22  0.046454    40.63   0.30712   -63.98
       3800   0.45269  -164.97    9.5884    74.02  0.047169    40.51   0.30125   -64.48
       3900   0.45096  -166.46    9.3577    72.90  0.047915    40.48   0.29637   -64.94
       4000    0.4504  -168.41    9.1336    71.75  0.048642    40.26    0.2907   -65.44
       4100    0.4493  -169.80    8.9241    70.69  0.049347    40.26   0.28521   -65.60
       4200   0.44804  -171.55    8.7256    69.56  0.050138    40.08    0.2807   -66.05
       4300   0.44735  -172.96    8.5379    68.49  0.050911    39.94   0.27655   -66.55
       4400   0.44672  -174.67    8.3516    67.39  0.051696    39.73   0.27244   -66.99
       4500   0.44587  -175.98    8.1762    66.36  0.052422    39.61   0.26854   -67.35
       4600   0.44578  -177.55    8.0055    65.34  0.053165    39.42   0.26401   -67.80
       4700   0.44556  -178.91     7.848    64.28  0.053897    39.27   0.25939   -68.36
       4800   0.44562   179.50    7.6864    63.23  0.054653    39.06   0.25595   -68.94
       4900   0.44508   178.01    7.5402    62.19  0.055392    38.91   0.25223   -69.31
       5000    0.4444   176.68    7.3931    61.21  0.056199    38.77   0.24792   -69.56
       5200   0.44378   174.07    7.1122    59.20  0.057739    38.40   0.24111   -70.75
       5400   0.44413   171.45    6.8637    57.29  0.059291    37.95   0.23438   -71.31
       5600   0.44391   168.88    6.6206    55.33  0.060794    37.53   0.22732   -72.63
       5800   0.44375   166.49    6.3969    53.49  0.062334    37.15    0.2214   -73.11
       6000   0.44457   164.21    6.1925    51.60  0.063892    36.72   0.21531   -74.39
       6200   0.44579   162.06         6    49.81  0.065506    36.31   0.21034   -75.18
       6400   0.44711   159.78    5.8169    47.98   0.06712    35.84   0.20414   -76.29
       6600   0.44845   157.46    5.6479    46.17  0.068811    35.33    0.1993   -77.31
       6800   0.44993   155.41    5.4963    44.43  0.070527    34.76   0.19466   -78.43
       7000    0.4505   153.38    5.3387    42.66  0.072176    34.40   0.18936   -79.64
       7200   0.45289   151.67    5.2105    40.95  0.074167    33.84   0.18616   -80.69
       7400   0.45508   149.46    5.0776    39.02   0.07581    33.04   0.18045   -82.46
       7600   0.45789   147.75     4.962    37.26  0.077781    32.53   0.17721   -83.88
       7800   0.45882   145.11    4.8172    35.28  0.079194    31.61   0.16815   -86.01
       8000   0.45817   143.73    4.7087    34.09  0.081049    31.54   0.16688   -85.27
       8200   0.46437   141.55     4.607    31.85  0.083165    30.43    0.1607   -88.85
       8400   0.46614   139.64    4.4991    30.29  0.085097    29.97   0.15853   -89.41
       8600   0.46629   137.55    4.3747    28.48  0.086348    28.73   0.14819   -92.15
       8800   0.46646   135.91    4.2799    26.81  0.088312    28.27   0.14507   -93.41
       9000   0.46973   134.92    4.2021    25.40  0.090223    27.86   0.14203   -94.96
       9200   0.47187   133.09     4.111    23.68  0.091953    26.94   0.13475   -97.38
       9400   0.47583   131.36    4.0279    21.93  0.093672    26.18   0.13132   -99.20
       9600   0.48153   129.80    3.9513    20.36  0.095667    25.58   0.12407  -101.49
       9800   0.48556   128.01    3.8898    18.70  0.097522    24.96   0.12121  -102.70
      10000   0.49095   126.41    3.8226    16.92   0.10053    24.10   0.12074  -105.24
      10200   0.49613   124.31    3.7454    15.09   0.10231    22.83   0.11245  -110.11
      10400   0.49788   122.70    3.6688    13.38   0.10413    21.90   0.10987  -112.52
      10600   0.49941   120.97    3.5959    11.77   0.10589    20.94   0.10119  -116.32
      10800   0.50079   119.57    3.5438    10.17   0.10788    20.17  0.099941  -118.59
      11000    0.5069   117.91     3.477     8.57   0.10998    19.33  0.094224  -120.96
      11200   0.51253   116.25    3.4474     6.90   0.11216    18.43  0.095021  -126.14
      11400   0.51638   114.57    3.3749     5.04   0.11419    17.24  0.088785  -130.46
      11600   0.52051   112.75    3.3142     3.56   0.11567    16.28  0.084279  -136.39
      11800   0.52588   111.42    3.2685     1.81   0.11806    15.30  0.081669  -139.25
      12000   0.52653   110.00    3.2269     0.48   0.11932    14.39  0.075724  -145.15
      12200   0.53527   108.01    3.1918    -1.61    0.1221    13.54   0.07672  -148.41
      12400   0.53609   106.12    3.1329    -3.48    0.1244    12.25  0.072807  -156.68
      12600   0.53769   104.47    3.0702    -4.78   0.12522    11.39  0.066657  -162.71
      12800   0.54739   103.61    3.0497    -6.29   0.12851    10.65  0.064738  -163.32
      13000   0.54506   101.54    3.0035    -8.10   0.12944     9.22  0.065134  -171.64
      13200   0.55074   100.52    2.9414    -9.85   0.13151     8.15  0.064981  -179.89
      13400   0.55538    99.15    2.9174   -11.58    0.1342     6.98  0.071948   175.48
      13600   0.56342    97.44    2.8856   -13.40   0.13555     5.98  0.075502   167.68
      13800   0.56361    95.90    2.8336   -15.11   0.13812     4.86  0.079408   159.98
      14000   0.57217    94.23    2.8052   -16.40   0.13925     3.72  0.084852   151.58
      14200   0.57924    93.06    2.7718   -18.26   0.14144     2.87  0.086411   145.32
      14400   0.58174    90.66    2.7316   -20.01   0.14323     1.68  0.098281   138.54
      14600   0.58791    89.28    2.7047   -21.63   0.14575     0.84  0.095747   132.31
      14800   0.59002    87.47    2.6718   -23.27   0.14792    -0.35   0.10544   128.05
      15000   0.59834    86.27     2.638   -25.00   0.14999    -1.58   0.10647   123.49
      15200   0.60119    84.98    2.6128   -26.63   0.15221    -2.87   0.11416   121.87
      15400   0.61439    83.53    2.5899   -28.35   0.15372    -3.98   0.12064   118.06
      15600   0.61665    82.53    2.5603   -30.20   0.15624    -5.20   0.12721   115.81
      15800   0.62521    80.72    2.5403   -31.78   0.15736    -6.55   0.13552   112.78
      16000   0.63868    79.50    2.5187   -33.98   0.15967    -7.51   0.14277   109.78
      16200   0.64652    77.58    2.4954   -36.00   0.16168    -8.65   0.14873   106.90
      16400   0.65523    75.94    2.4494   -38.07   0.16368    -9.57   0.15248   104.17
      16600   0.65601    74.34    2.4113   -39.59   0.16671   -10.95    0.1625   103.99
      16800   0.66118    72.62     2.379   -41.01   0.16792   -11.96   0.16906    99.34
      17000   0.66219    70.94    2.3677   -42.67   0.17068   -13.35   0.18163    99.27
      17200   0.66533    69.10     2.347   -44.60   0.17281   -14.46   0.18848    94.58
      17400   0.67274    66.88     2.333   -46.89   0.17428   -15.75   0.20139    93.91
      17600   0.67043    65.39    2.2889   -48.62   0.17753   -16.63   0.20609    89.27
      17800   0.67295    63.87    2.2729   -50.56    0.1804   -18.26   0.21345    87.80
      18000   0.68351    62.94    2.2302   -52.58   0.18239   -19.80   0.21616    86.99
      18200   0.69108    60.67    2.2144   -54.82   0.18439   -21.10   0.22877    85.16
      18400   0.69892    59.30    2.1643   -57.08   0.18633   -22.47   0.23255    84.31
      18600   0.69186    58.03    2.1043   -58.47   0.18733   -23.62   0.24832    83.00
      18800   0.70105    55.90    2.0745   -60.11   0.18979   -24.90    0.2589    81.42
      19000   0.69651    54.76     2.048   -61.44   0.19347   -26.12    0.2669    79.42
      19200   0.70256    53.20    2.0206   -63.16   0.19624   -27.84   0.27352    77.65
      19400   0.70862    52.26    1.9925   -64.31    0.1982   -29.24   0.27803    76.65
      19600   0.71548    51.13     1.964   -65.88   0.19916   -31.60   0.29104    77.64
      19800   0.74209    50.55    1.9698   -67.07   0.19833   -32.21   0.31061    74.27
      20000   0.75439    47.84    1.9646   -69.36   0.20033   -32.96   0.31368    73.16

!  
! Device Noise Parameters
!  Freq-MHz   Fmin-dB  Gopt-mag  Gopt-arg   rn_normalized
	400	0.6991	0.21001	359.26	0.1121
	420	0.6997	0.20873	359.76	0.1122
	440	0.7002	0.20747	0.27	0.1122
	460	0.7008	0.20622	0.78	0.1123
	480	0.7014	0.20499	1.29	0.1123
	500	0.7019	0.20377	1.81	0.1123
	550	0.7034	0.20081	3.10	0.1124
	600	0.7048	0.19793	4.41	0.1125
	650	0.7063	0.19516	5.73	0.1125
	700	0.7078	0.19248	7.06	0.1126
	750	0.7092	0.18990	8.41	0.1126
	800	0.7107	0.18741	9.76	0.1127
	850	0.7122	0.18501	11.13	0.1127
	900	0.7137	0.18270	12.51	0.1127
	950	0.7152	0.18048	13.90	0.1127
	1000	0.7167	0.17835	15.29	0.1127
	1050	0.7183	0.17630	16.69	0.1126
	1100	0.7198	0.17434	18.10	0.1126
	1150	0.7214	0.17246	19.52	0.1125
	1200	0.7229	0.17066	20.94	0.1125
	1250	0.7245	0.16894	22.37	0.1124
	1300	0.7260	0.16730	23.79	0.1123
	1350	0.7276	0.16573	25.23	0.1123
	1400	0.7292	0.16423	26.66	0.1122
	1450	0.7308	0.16280	28.10	0.1121
	1500	0.7324	0.16145	29.53	0.1119
	1550	0.7340	0.16015	30.96	0.1118
	1600	0.7357	0.15892	32.40	0.1117
	1650	0.7373	0.15776	33.83	0.1116
	1700	0.7389	0.15665	35.26	0.1114
	1750	0.7406	0.15560	36.68	0.1113
	1800	0.7422	0.15460	38.11	0.1111
	1850	0.7439	0.15365	39.52	0.1109
	1900	0.7456	0.15276	40.93	0.1107
	1950	0.7473	0.15191	42.34	0.1106
	2000	0.7490	0.15111	43.74	0.1104
	2050	0.7507	0.15035	45.13	0.1102
	2100	0.7524	0.14964	46.52	0.1100
	2150	0.7541	0.14896	47.90	0.1097
	2200	0.7558	0.14832	49.27	0.1095
	2250	0.7576	0.14771	50.64	0.1093
	2300	0.7593	0.14714	51.99	0.1091
	2350	0.7611	0.14660	53.34	0.1088
	2400	0.7628	0.14609	54.68	0.1086
	2450	0.7646	0.14560	56.01	0.1083
	2500	0.7664	0.14514	57.34	0.1081
	2600	0.7700	0.14429	59.96	0.1075
	2700	0.7736	0.14352	62.54	0.1070
	2800	0.7773	0.14281	65.10	0.1064
	2900	0.7810	0.14217	67.62	0.1058
	3000	0.7847	0.14157	70.12	0.1052
	3100	0.7885	0.14101	72.59	0.1046
	3200	0.7923	0.14049	75.03	0.1040
	3300	0.7961	0.13999	77.45	0.1033
	3400	0.8000	0.13950	79.85	0.1027
	3500	0.8039	0.13904	82.23	0.1020
	3600	0.8078	0.13858	84.60	0.1013
	3700	0.8118	0.13814	86.96	0.1006
	3800	0.8158	0.13770	89.31	0.0999
	3900	0.8199	0.13727	91.65	0.0992
	4000	0.8240	0.13684	93.99	0.0985
	4100	0.8281	0.13642	96.33	0.0978
	4200	0.8322	0.13601	98.68	0.0971
	4300	0.8364	0.13562	101.03	0.0964
	4400	0.8407	0.13524	103.38	0.0957
	4500	0.8449	0.13488	105.75	0.0950
	4600	0.8492	0.13454	108.13	0.0943
	4700	0.8535	0.13423	110.53	0.0936
	4800	0.8579	0.13395	112.94	0.0929
	4900	0.8623	0.13372	115.36	0.0922
	5000	0.8667	0.13353	117.81	0.0916
	5200	0.8757	0.13331	122.75	0.0903
	5400	0.8848	0.13337	127.76	0.0890
	5600	0.8941	0.13376	132.84	0.0878
	5800	0.9035	0.13453	137.97	0.0867
	6000	0.9130	0.13575	143.13	0.0856
	6200	0.9227	0.13747	148.30	0.0847
	6400	0.9325	0.13972	153.45	0.0839
	6600	0.9425	0.14255	158.55	0.0831
	6800	0.9526	0.14596	163.56	0.0825
	7000	0.9628	0.14999	168.45	0.0821
	7200	0.9732	0.15461	173.21	0.0817
	7400	0.9837	0.15983	177.81	0.0816
	7600	0.9944	0.16561	182.23	0.0816
	7800	1.0052	0.17194	186.47	0.0817
	8000	1.0161	0.17879	190.52	0.0821
	8200	1.0272	0.18610	194.38	0.0826
	8400	1.0384	0.19385	198.06	0.0834
	8600	1.0498	0.20199	201.55	0.0844
	8800	1.0613	0.21048	204.87	0.0856
	9000	1.0730	0.21928	208.04	0.0870
	9200	1.0848	0.22836	211.05	0.0887
	9400	1.0967	0.23766	213.92	0.0907
	9600	1.1087	0.24716	216.66	0.0929
	9800	1.1210	0.25682	219.29	0.0954
	10000	1.1333	0.26661	221.80	0.0982
	10400	1.1584	0.28642	226.56	0.1047
	11000	1.1972	0.31635	233.13	0.1169
	11400	1.2237	0.33614	237.24	0.1267
	12000	1.2645	0.36518	243.11	0.1443
	12400	1.2925	0.38394	246.90	0.1581
	13000	1.3354	0.41096	252.53	0.1819
	13400	1.3648	0.42818	256.29	0.2000
	14000	1.4098	0.45289	262.03	0.2308
	14400	1.4406	0.46876	265.96	0.2539
	15000	1.4877	0.49206	272.10	0.2925
	15400	1.5199	0.50764	276.38	0.3210
	15800	1.5526	0.52367	280.82	0.3518
	16000	1.5692	0.53199	283.11	0.3681
	16800	1.6368	0.56885	292.70	0.4395
	17000	1.6541	0.57935	295.20	0.4590
	17800	1.7246	0.62904	305.50	0.5435
	18000	1.7426	0.64387	308.13	0.5664