! Filename:  P:\Prog\Test\Noise\ATS_data\Testdata_Net\BFU730\BFU730_2W_B1_2V25mA_D.s2p
! Date/Time: Fri 29/Apr/2011 14:14:29
! BFU730_2W_B1_2V25mA
! bias mode 1: Vout= 2.0002 V, Iout=24.9900 mA, Vin= 0.8177 V, Iin= 0.0917 mA
! Date/time Thu Mar 17 13:19:04 2011
! Device data file deembeded for feedlines and parallel
! Original file: \BFU730\BFU730_2W_B1_2V25mA_R.s2p
! Feed-files: PR003V01_101208_Feed1.s2p, PR003V01_101208_Feed2.s2p
! Parallel-file: PR003V01_101208_Par.s2p
# MHz S MA R 50
!  Freq-MHz   S11-mag  S11-arg   S21-mag  S21-arg   S12-mag  S12-arg   S22-mag  S22-arg
         40   0.77192    -5.00    54.189   176.79 0.0013954    87.77   0.98806    -1.07
         50   0.76646    -6.84    54.329   175.40 0.0013393    80.92   0.98908    -2.19
         60   0.76809    -7.23    53.767   174.70 0.0018876    91.99   0.99151    -2.86
         70   0.76994    -8.65     53.87   174.16 0.0022763    86.76   0.99184    -3.73
         80   0.76896    -9.95    54.157   173.19  0.002605    85.69   0.99149    -4.55
         90   0.76769   -11.24    54.033   172.10 0.0029053    85.26   0.99037    -5.36
        100   0.76729   -12.36     53.74   171.34  0.003198    84.40   0.98909    -6.10
        120   0.76536   -14.96    53.746   169.56 0.0038368    83.75   0.98614    -7.62
        140   0.76336   -17.36    53.416   167.85 0.0045076    82.57   0.98286    -9.12
        160   0.75968   -19.81    53.013   166.05 0.0051122    81.30   0.97792   -10.52
        180    0.7581   -22.21    52.746   164.47 0.0057346    80.48   0.97262   -11.91
        200   0.75391   -24.69    52.395   162.69 0.0063295    79.31   0.96677   -13.29
        220   0.75035   -27.08    52.111   161.05 0.0069294    78.25   0.96015   -14.66
        240   0.74464   -29.48    51.755   159.32 0.0075338    77.18   0.95312   -15.97
        260    0.7417   -31.78    51.211   157.71 0.0080702    76.14   0.94562   -17.25
        280   0.73673   -34.16    50.776   156.12 0.0086758    75.10   0.93795   -18.53
        300   0.73227   -36.52    50.241   154.52 0.0092204    74.23   0.92968   -19.82
        320   0.72638   -38.76    49.694   153.05 0.0097371    73.02    0.9204   -21.01
        340   0.72114   -40.97    49.225   151.51  0.010256    72.17   0.91111   -22.19
        360   0.71673   -43.20    48.667   150.12  0.010766    71.17   0.90125   -23.32
        380   0.71004   -45.50    48.202   148.61  0.011273    70.31   0.89176   -24.45
        400    0.7036   -47.55    47.685   147.20  0.011763    69.34   0.88173   -25.52
        420   0.69693   -49.70    47.147   145.78  0.012228    68.50   0.87249   -26.57
        440   0.69251   -51.73    46.522   144.51  0.012667    67.64   0.86232   -27.64
        460   0.68593   -53.85     46.02   143.14  0.013109    66.88   0.85222   -28.64
        480    0.6803   -55.78    45.361   141.85  0.013548    65.99   0.84197   -29.66
        500   0.67364   -57.78    44.752   140.56  0.013954    65.09   0.83078   -30.61
        550   0.65865   -62.49    43.354   137.43  0.014883    63.52   0.80284   -32.72
        600   0.64363   -67.07    41.904   134.58  0.015823    61.91   0.77823   -34.76
        650   0.63008   -71.36     40.42   131.93  0.016628    60.38   0.75313   -36.71
        700   0.61692   -75.47    38.985   129.42  0.017407    59.11   0.72855   -38.43
        750   0.60476   -79.47    37.678   127.05  0.018142    57.91   0.70544   -39.96
        800   0.59311   -83.29    36.397   124.84  0.018853    56.84   0.68408   -41.42
        850   0.58141   -87.03    35.154   122.65  0.019454    55.78   0.66203   -42.84
        900      0.57   -90.39    33.931   120.64  0.020032    55.04    0.6407   -44.00
        950   0.56068   -93.65    32.805   118.78  0.020618    54.29   0.62195   -45.07
       1000   0.55112   -96.74    31.724   117.00  0.021181    53.59   0.60375   -46.15
       1050    0.5415   -99.81    30.685   115.29  0.021667    53.00   0.58615   -47.10
       1100   0.53418  -102.61    29.713   113.69  0.022181    52.45   0.56988   -47.98
       1150   0.52621  -105.46    28.793   112.10  0.022651    52.02   0.55435   -48.75
       1200   0.51845  -108.07    27.903   110.67  0.023116    51.53   0.53975   -49.50
       1250   0.51197  -110.71     27.05   109.24  0.023566    51.14    0.5253   -50.26
       1300   0.50589  -113.12    26.258   107.87  0.023993    50.81   0.51164   -50.86
       1350   0.50043  -115.40    25.504   106.59  0.024416    50.54   0.49914   -51.45
       1400   0.49482  -117.78    24.785   105.32  0.024835    50.26   0.48698   -52.03
       1450   0.48999  -119.96    24.096   104.13   0.02522    50.04   0.47537   -52.52
       1500   0.48484  -121.98    23.437   102.97  0.025636    49.89   0.46465   -52.96
       1550   0.48092  -123.92    22.812   101.85   0.02605    49.72   0.45479   -53.36
       1600   0.47635  -125.89    22.213   100.79  0.026455    49.53   0.44538   -53.78
       1650   0.47282  -127.87    21.637    99.72  0.026871    49.41   0.43569   -54.18
       1700   0.46878  -129.62    21.103    98.67  0.027262    49.28   0.42718   -54.52
       1750   0.46498  -131.29    20.578    97.69  0.027635    49.21   0.41882   -54.94
       1800   0.46235  -133.09    20.074    96.72  0.027995    49.08   0.41069   -55.30
       1850   0.45939  -134.81    19.594    95.77  0.028367    48.94   0.40269   -55.62
       1900   0.45665  -136.32    19.142    94.83   0.02874    48.92   0.39593   -55.92
       1950   0.45333  -137.82     18.69    93.94  0.029089    48.83   0.38951   -56.29
       2000   0.45105  -139.29    18.249    93.09  0.029455    48.87   0.38168   -56.77
       2050   0.44939  -140.66    17.832    92.32  0.029816    48.88    0.3739   -56.97
       2100   0.44767  -142.09    17.452    91.49  0.030236    48.85   0.36828   -57.15
       2150   0.44603  -143.42    17.074    90.74  0.030616    48.93   0.36176   -57.45
       2200   0.44409  -144.76    16.726    90.00  0.031058    48.91   0.35625   -57.48
       2250   0.44181  -146.15    16.375    89.20  0.031423    48.74   0.35182   -57.87
       2300   0.44021  -147.32    16.027    88.47   0.03176    48.69   0.34609   -58.30
       2350   0.44022  -148.50    15.695    87.80  0.032089    48.78   0.33929   -58.71
       2400   0.43971  -149.74    15.392    87.15  0.032478    48.91   0.33283   -58.75
       2450   0.43824  -151.02    15.092    86.53  0.032938    49.02    0.3278   -58.87
       2500   0.43643  -152.49    14.827    85.87  0.033404    48.91   0.32242   -58.99
       2600   0.43345  -154.46    14.301    84.61  0.034199    48.83   0.31346   -59.13
       2700   0.43167  -156.77    13.804    83.31  0.034987    48.70   0.30526   -59.13
       2800   0.42989  -158.68    13.346    82.07  0.035729    48.67   0.29773   -59.21
       2900   0.42872  -160.66    12.909    80.92  0.036527    48.71    0.2912   -59.18
       3000   0.42678  -162.51    12.524    79.79  0.037381    48.67   0.28598   -59.39
       3100   0.42634  -164.32    12.161    78.55  0.038189    48.60   0.28119   -59.55
       3200   0.42516  -166.05    11.802    77.40  0.038976    48.54   0.27552   -59.88
       3300   0.42535  -167.71    11.473    76.30  0.039796    48.47    0.2703   -60.31
       3400   0.42403  -169.43     11.16    75.14  0.040645    48.44   0.26556   -60.77
       3500   0.42381  -171.09    10.866    74.01  0.041483    48.34   0.26038   -61.06
       3600   0.42362  -172.84    10.576    72.91  0.042294    48.29   0.25515   -61.31
       3700   0.42281  -174.17    10.305    71.80  0.043159    48.23   0.25081   -61.41
       3800   0.42324  -175.89    10.051    70.71  0.044049    48.08   0.24629   -61.78
       3900    0.4224  -177.13    9.8031    69.68  0.044948    47.97   0.24246   -62.17
       4000   0.42286  -178.83    9.5615    68.61   0.04583    47.80   0.23811   -62.55
       4100   0.42238   179.94    9.3371    67.63   0.04669    47.74   0.23392   -62.58
       4200   0.42233   178.40    9.1233    66.60  0.047635    47.56   0.23043   -62.94
       4300   0.42203   177.23     8.923    65.61  0.048573    47.33   0.22737   -63.37
       4400   0.42232   175.73    8.7223    64.59  0.049513    47.08   0.22419   -63.70
       4500   0.42198   174.58    8.5351    63.62  0.050385    46.88   0.22112   -64.01
       4600   0.42301   173.26    8.3546    62.67  0.051234    46.64   0.21752   -64.41
       4700   0.42345   172.10    8.1864    61.69  0.052123    46.44    0.2139   -64.94
       4800   0.42402   170.66    8.0141    60.71  0.053024    46.13   0.21118   -65.44
       4900    0.4244   169.39    7.8583    59.73  0.053909    45.94   0.20801   -65.73
       5000   0.42374   168.21    7.7021    58.81  0.054871    45.67   0.20446   -65.96
       5200   0.42446   165.92    7.4051    56.92  0.056685    45.16   0.19926   -67.09
       5400   0.42543   163.61    7.1424    55.11  0.058521    44.56   0.19382   -67.52
       5600   0.42663   161.36    6.8869    53.26  0.060288    43.98   0.18789   -68.82
       5800   0.42676   159.24    6.6516    51.51  0.062112    43.40   0.18316   -69.14
       6000   0.42864   157.29    6.4368    49.72  0.063915    42.78   0.17804   -70.41
       6200   0.43026   155.41    6.2352    48.02  0.065794    42.22   0.17404   -71.09
       6400    0.4321   153.37    6.0429    46.28  0.067662    41.59   0.16854   -72.09
       6600   0.43408   151.29    5.8646    44.56  0.069549    40.89    0.1644   -73.04
       6800   0.43608   149.47    5.7045    42.88  0.071499    40.12   0.16037   -74.16
       7000   0.43739   147.58    5.5397    41.19  0.073394    39.59    0.1556   -75.30
       7200   0.43971   146.03    5.4045    39.53  0.075537    38.80   0.15289   -76.46
       7400   0.44255   144.03    5.2662    37.68  0.077457    37.83   0.14774   -78.14
       7600   0.44598   142.57    5.1449    35.96  0.079571    37.16    0.1448   -79.82
       7800    0.4478   140.09    4.9945    34.05  0.081166    36.10   0.13632   -81.76
       8000    0.4473   138.84    4.8818    32.94  0.083288    35.79   0.13599   -80.78
       8200   0.45326   136.88    4.7748    30.75  0.085504    34.56   0.12966   -84.64
       8400   0.45566   135.15    4.6628    29.25  0.087603    33.94   0.12822   -85.06
       8600   0.45609   133.15    4.5312    27.49   0.08898    32.60   0.11773   -87.91
       8800   0.45613   131.70    4.4325    25.86  0.091097    31.96   0.11522   -89.13
       9000   0.45933   130.81    4.3515    24.52  0.093198    31.37   0.11196   -90.87
       9200   0.46206   129.15    4.2563    22.83  0.095036    30.32   0.10531   -93.34
       9400    0.4665   127.56    4.1711    21.14  0.096921    29.39   0.10157   -95.28
       9600   0.47198   126.10    4.0909    19.63  0.099034    28.66  0.094837   -97.62
       9800   0.47624   124.48    4.0275    18.01   0.10104    27.91  0.092125   -98.64
      10000   0.48272   123.01    3.9576    16.27   0.10417    26.88  0.091631  -101.63
      10200   0.48712   121.05    3.8778    14.48   0.10597    25.54  0.083483  -107.23
      10400   0.48926   119.46    3.7974    12.81    0.1079    24.49  0.080438  -110.08
      10600   0.49097   117.83    3.7212    11.24   0.10977    23.44  0.072384  -114.49
      10800   0.49308   116.49    3.6665     9.70   0.11178    22.53  0.070412  -117.20
      11000   0.49902   114.92    3.5952     8.12   0.11403    21.56  0.065451  -119.94
      11200   0.50516   113.41    3.5663     6.50   0.11628    20.59  0.065658  -126.86
      11400   0.50925   111.73    3.4901     4.65   0.11838    19.27  0.060085  -132.58
      11600   0.51286   110.03    3.4284     3.22   0.11997    18.24   0.05611  -141.01
      11800   0.51845   108.75    3.3814     1.51   0.12244    17.12  0.053693  -145.01
      12000   0.51973   107.45    3.3378     0.22   0.12368    16.14  0.048999  -153.90
      12200   0.52854   105.47    3.3012    -1.84   0.12651    15.17  0.049676  -158.14
      12400   0.52955   103.72    3.2399    -3.66   0.12882    13.85  0.048371  -169.85
      12600   0.53116   102.20    3.1746    -4.93   0.12979    12.88  0.043273   179.02
      12800   0.54058   101.28    3.1538    -6.43    0.1331    12.00  0.042028   179.13
      13000   0.53851    99.31    3.1065    -8.18   0.13401    10.52  0.044437   167.56
      13200   0.54456    98.28    3.0422    -9.94   0.13608     9.40  0.047619   157.91
      13400   0.54913    97.05     3.017   -11.63   0.13871     8.13   0.05528   155.20
      13600   0.55723    95.43    2.9841   -13.42   0.14011     7.08   0.06142   147.71
      13800   0.55864    93.95    2.9287   -15.09   0.14262     5.88  0.068144   140.49
      14000   0.56689    92.34       2.9   -16.31   0.14378     4.71  0.076018   132.81
      14200   0.57369    91.15    2.8655   -18.16   0.14595     3.80  0.080378   126.94
      14400   0.57703    88.83    2.8241   -19.87   0.14782     2.58  0.093274   122.24
      14600   0.58293    87.49    2.7967   -21.45   0.15033     1.66  0.093609   115.90
      14800   0.58563    85.74    2.7634   -23.06   0.15246     0.37   0.10371   112.84
      15000   0.59308    84.53    2.7288   -24.78   0.15464    -0.88   0.10614   108.92
      15200   0.59605    83.23    2.7026   -26.38   0.15675    -2.25   0.11359   107.98
      15400   0.60916    81.87    2.6795   -28.07    0.1583    -3.36   0.12066   105.23
      15600   0.61232    80.91    2.6494   -29.89   0.16075    -4.67   0.12758   103.44
      15800   0.62074    79.22    2.6279   -31.46   0.16176    -6.05   0.13599   101.25
      16000   0.63377    78.02     2.606   -33.64   0.16402    -7.05   0.14421    98.87
      16200   0.64213    76.14    2.5815   -35.60    0.1661    -8.22   0.14966    96.18
      16400   0.65088    74.53    2.5344   -37.67   0.16802    -9.16   0.15422    94.10
      16600   0.65221    72.89    2.4947   -39.16   0.17106   -10.60   0.16282    94.29
      16800   0.65779    71.23    2.4617   -40.55   0.17225   -11.69   0.17131    90.46
      17000   0.65935    69.53    2.4504   -42.18   0.17497   -13.07   0.18246    90.56
      17200   0.66295    67.80    2.4303   -44.08   0.17704   -14.19   0.19071    86.51
      17400      0.67    65.56    2.4152   -46.34    0.1785   -15.51   0.20248    86.02
      17600   0.66802    64.06    2.3704   -48.06   0.18178   -16.44   0.20816    81.83
      17800   0.66954    62.62    2.3535   -49.96   0.18454   -18.11   0.21504    80.51
      18000   0.68054    61.72    2.3101   -51.98   0.18654   -19.64   0.21656    79.86
      18200   0.68764    59.52    2.2933   -54.19   0.18844   -21.00   0.22953    78.53
      18400   0.69489    58.10    2.2442   -56.45   0.19043   -22.36   0.23161    77.80
      18600   0.68849    56.84    2.1798   -57.81   0.19118   -23.59   0.24779    77.16
      18800   0.69767    54.71    2.1508   -59.41   0.19389   -24.86   0.25768    75.70
      19000   0.69396    53.60    2.1216   -60.72   0.19737   -26.10   0.26586    73.99
      19200   0.69972    52.14    2.0946   -62.43   0.20008   -27.87   0.27214    72.25
      19400   0.70553    51.22    2.0654   -63.53   0.20188   -29.29   0.27599    71.53
      19600   0.71186    50.12    2.0365   -65.08   0.20283   -31.64    0.2883    72.72
      19800   0.73836    49.52    2.0432   -66.22   0.20177   -32.21   0.30799    69.73
      20000    0.7527    46.74    2.0378   -68.48   0.20385   -32.97   0.31185    68.53

!  
! Device Noise Parameters
!  Freq-MHz   Fmin-dB  Gopt-mag  Gopt-arg   rn_normalized
	400	0.9050	0.02908	9.78	0.1051
	420	0.9049	0.02893	11.32	0.1053
	440	0.9048	0.02879	12.85	0.1054
	460	0.9047	0.02867	14.38	0.1055
	480	0.9046	0.02856	15.91	0.1057
	500	0.9045	0.02846	17.43	0.1058
	550	0.9043	0.02829	21.22	0.1062
	600	0.9041	0.02820	24.96	0.1065
	650	0.9039	0.02819	28.63	0.1068
	700	0.9038	0.02825	32.23	0.1071
	750	0.9037	0.02837	35.73	0.1074
	800	0.9036	0.02856	39.13	0.1076
	850	0.9035	0.02879	42.43	0.1079
	900	0.9035	0.02907	45.62	0.1082
	950	0.9035	0.02938	48.71	0.1084
	1000	0.9035	0.02973	51.68	0.1086
	1050	0.9035	0.03010	54.56	0.1088
	1100	0.9035	0.03050	57.33	0.1091
	1150	0.9036	0.03092	60.01	0.1093
	1200	0.9037	0.03135	62.60	0.1094
	1250	0.9038	0.03179	65.10	0.1096
	1300	0.9039	0.03224	67.52	0.1098
	1350	0.9041	0.03270	69.87	0.1100
	1400	0.9043	0.03316	72.15	0.1101
	1450	0.9045	0.03362	74.37	0.1103
	1500	0.9047	0.03408	76.54	0.1104
	1550	0.9050	0.03454	78.65	0.1105
	1600	0.9052	0.03500	80.71	0.1106
	1650	0.9055	0.03545	82.73	0.1107
	1700	0.9059	0.03591	84.71	0.1108
	1750	0.9062	0.03635	86.66	0.1109
	1800	0.9066	0.03680	88.58	0.1110
	1850	0.9070	0.03723	90.47	0.1111
	1900	0.9074	0.03767	92.33	0.1112
	1950	0.9078	0.03810	94.18	0.1112
	2000	0.9083	0.03853	96.00	0.1113
	2050	0.9088	0.03895	97.81	0.1113
	2100	0.9093	0.03937	99.61	0.1114
	2150	0.9098	0.03979	101.39	0.1114
	2200	0.9103	0.04021	103.16	0.1114
	2250	0.9109	0.04063	104.93	0.1114
	2300	0.9115	0.04105	106.68	0.1114
	2350	0.9121	0.04147	108.43	0.1115
	2400	0.9128	0.04189	110.18	0.1115
	2450	0.9135	0.04232	111.92	0.1114
	2500	0.9141	0.04275	113.65	0.1114
	2600	0.9156	0.04364	117.12	0.1114
	2700	0.9171	0.04456	120.57	0.1113
	2800	0.9188	0.04552	124.01	0.1113
	2900	0.9205	0.04653	127.43	0.1112
	3100	0.9242	0.04875	134.23	0.1109
	3200	0.9262	0.04998	137.58	0.1108
	3300	0.9283	0.05129	140.90	0.1107
	3400	0.9305	0.05270	144.18	0.1105
	3500	0.9328	0.05420	147.40	0.1103
	3600	0.9352	0.05581	150.57	0.1101
	3700	0.9376	0.05753	153.67	0.1100
	3800	0.9402	0.05936	156.69	0.1098
	3900	0.9428	0.06131	159.64	0.1096
	4000	0.9456	0.06337	162.51	0.1094
	4100	0.9484	0.06554	165.29	0.1092
	4200	0.9513	0.06784	167.99	0.1090
	4300	0.9544	0.07024	170.59	0.1088
	4400	0.9575	0.07276	173.11	0.1086
	4500	0.9607	0.07538	175.53	0.1084
	4600	0.9640	0.07812	177.87	0.1082
	4700	0.9674	0.08095	180.12	0.1080
	4800	0.9708	0.08389	182.28	0.1079
	4900	0.9744	0.08693	184.36	0.1077
	5000	0.9781	0.09006	186.36	0.1075
	5200	0.9857	0.09658	190.14	0.1073
	5400	0.9937	0.10343	193.63	0.1071
	5600	1.0020	0.11057	196.87	0.1069
	5800	1.0107	0.11797	199.88	0.1069
	6000	1.0198	0.12560	202.69	0.1069
	6200	1.0292	0.13342	205.31	0.1071
	6400	1.0391	0.14142	207.77	0.1073
	6600	1.0492	0.14954	210.08	0.1077
	6800	1.0598	0.15778	212.27	0.1082
	7000	1.0707	0.16610	214.35	0.1088
	7200	1.0820	0.17446	216.33	0.1096
	7400	1.0937	0.18286	218.23	0.1106
	7600	1.1057	0.19126	220.05	0.1118
	7800	1.1181	0.19963	221.81	0.1131
	8000	1.1309	0.20796	223.51	0.1147
	8200	1.1440	0.21622	225.17	0.1164
	8400	1.1575	0.22439	226.80	0.1184
	8600	1.1714	0.23245	228.39	0.1206
	8800	1.1856	0.24039	229.96	0.1230
	9000	1.2003	0.24817	231.50	0.1257
	9200	1.2152	0.25580	233.04	0.1287
	9400	1.2306	0.26325	234.57	0.1319
	9600	1.2463	0.27050	236.11	0.1355
	9800	1.2624	0.27755	237.64	0.1393
	10000	1.2788	0.28439	239.19	0.1434
	10200	1.2957	0.29101	240.75	0.1479
	10400	1.3129	0.29739	242.32	0.1526
	10600	1.3304	0.30355	243.93	0.1578
	10800	1.3484	0.30947	245.56	0.1632
	11000	1.3667	0.31516	247.23	0.1690
	11200	1.3853	0.32062	248.93	0.1752
	11400	1.4044	0.32587	250.68	0.1818
	11600	1.4238	0.33090	252.48	0.1888
	11800	1.4436	0.33575	254.33	0.1962
	12000	1.4637	0.34043	256.24	0.2040
	12200	1.4842	0.34496	258.22	0.2122
	12400	1.5051	0.34939	260.26	0.2208
	12600	1.5264	0.35374	262.37	0.2299
	12800	1.5480	0.35806	264.55	0.2395
	13000	1.5700	0.36240	266.82	0.2495
	13200	1.5923	0.36682	269.16	0.2600
	13400	1.6151	0.37138	271.59	0.2710
	13600	1.6382	0.37615	274.10	0.2825
	13800	1.6616	0.38121	276.69	0.2945
	14000	1.6855	0.38666	279.37	0.3071