! Filename:  P:\Prog\Test\Noise\ATS_data\Testdata_Net\BFU730\BFU730_2W_B1_2V3mA_D.s2p
! Date/Time: Fri 29/Apr/2011 14:13:56
! BFU730_2W_B1_2V3mA
! bias mode 1: Vout= 2.0003 V, Iout= 2.9850 mA, Vin= 0.7749 V, Iin= 0.0084 mA
! Date/time Thu Mar 17 09:20:02 2011
! Device data file deembeded for feedlines and parallel
! Original file: \BFU730\BFU730_2W_B1_2V3mA_R.s2p
! Feed-files: PR003V01_101208_Feed1.s2p, PR003V01_101208_Feed2.s2p
! Parallel-file: PR003V01_101208_Par.s2p
# MHz S MA R 50
!  Freq-MHz   S11-mag  S11-arg   S21-mag  S21-arg   S12-mag  S12-arg   S22-mag  S22-arg
         40   0.97094    -1.61    9.6619   178.95  0.001393    86.35   0.99895    -0.77
         50   0.97453    -2.13    9.6912   178.12 0.0014266    90.99   0.99836    -1.02
         60   0.96968    -2.39    9.5681   177.91 0.0021011    92.96   0.99916    -1.13
         70    0.9714    -2.73    9.5898   177.97  0.002501    88.25    0.9993    -1.36
         80    0.9712    -3.12    9.6674   177.61 0.0028506    88.29   0.99929    -1.56
         90   0.97096    -3.54    9.6725   177.12 0.0032323    88.11    0.9991    -1.77
        100   0.97034    -3.90    9.6215   176.93 0.0035526    88.01   0.99895    -1.97
        120   0.97038    -4.76    9.6355   176.34 0.0043518    87.95   0.99892    -2.38
        140   0.97037    -5.55    9.6375   175.76 0.0050825    87.50   0.99884    -2.81
        160   0.97017    -6.34    9.5974   175.08 0.0058233    86.85   0.99844    -3.22
        180   0.97039    -7.17    9.6143   174.57 0.0065841    86.53    0.9982    -3.63
        200   0.96975    -7.98    9.6165   173.86 0.0073054    86.23   0.99772    -4.04
        220   0.96917    -8.79    9.6299   173.28 0.0080653    85.77    0.9974    -4.46
        240   0.96847    -9.61    9.6712   172.60 0.0087869    85.24   0.99713    -4.88
        260   0.96847   -10.41    9.6194   171.96 0.0095685    84.94   0.99654    -5.29
        280   0.96756   -11.21    9.6283   171.34  0.010321    84.61   0.99616    -5.71
        300   0.96729   -12.04    9.6061   170.73  0.011053    84.14   0.99581    -6.14
        320   0.96633   -12.80    9.5605   170.13  0.011795    83.42   0.99511    -6.55
        340   0.96571   -13.60     9.575   169.48  0.012518    82.99   0.99423    -6.97
        360   0.96513   -14.39    9.5358   168.95  0.013273    82.54   0.99317    -7.38
        380   0.96445   -15.20    9.5412   168.34  0.014016    82.04   0.99233    -7.80
        400   0.96337   -16.01    9.5741   167.73  0.014772    81.48   0.99108    -8.19
        420   0.96209   -16.85    9.6007   167.08  0.015489    81.01   0.99069    -8.59
        440    0.9615   -17.61     9.554   166.48  0.016242    80.52   0.98975    -9.02
        460   0.96066   -18.44    9.5675   165.87  0.016938    80.06    0.9886    -9.40
        480   0.95959   -19.21    9.5357   165.29  0.017734    79.57   0.98847    -9.83
        500   0.95854   -19.98    9.4776   164.68   0.01842    78.91   0.98668   -10.27
        550   0.95617   -21.99    9.4988   163.11  0.020191    77.71   0.98274   -11.28
        600   0.95256   -24.04    9.5117   161.64  0.022025    76.48   0.97997   -12.25
        650   0.95002   -25.94    9.4192   160.11  0.023793    75.20   0.97642   -13.29
        700   0.94681   -27.83    9.3055   158.71  0.025519    73.90   0.97247   -14.34
        750   0.94387   -29.82    9.3053   157.29  0.027193    72.67   0.96782   -15.28
        800   0.93996   -31.88    9.3379   155.88  0.028923    71.53   0.96471   -16.17
        850   0.93617   -33.76    9.2561   154.40  0.030649    70.28   0.96117   -17.16
        900   0.93263   -35.58    9.1452   152.97  0.032224    69.03   0.95517   -18.17
        950   0.92886   -37.54    9.1155   151.68  0.033805    67.91   0.94978   -19.08
       1000   0.92441   -39.43    9.1053   150.25  0.035446    66.74   0.94557   -19.99
       1050   0.92005   -41.30    9.0423   148.88  0.036983    65.55   0.94038   -20.93
       1100   0.91635   -43.10     8.957   147.58  0.038444    64.44   0.93452   -21.85
       1150   0.91141   -45.05    8.9406   146.18  0.039903    63.41   0.92872   -22.68
       1200   0.90667   -46.89    8.8908   144.89  0.041378    62.32   0.92431   -23.54
       1250   0.90225   -48.67    8.7961   143.52  0.042845    61.11   0.91922   -24.50
       1300   0.89797   -50.45    8.7176   142.23  0.044148    60.00   0.91231   -25.38
       1350   0.89308   -52.34    8.6976   140.90  0.045461    59.01   0.90594   -26.19
       1400   0.88826   -54.20    8.6525   139.62  0.046826    57.97    0.9004   -27.03
       1450   0.88335   -56.00    8.5881   138.33  0.048084    56.90   0.89424   -27.88
       1500   0.87864   -57.72    8.5212   137.11  0.049281    55.87   0.88811   -28.68
       1550   0.87413   -59.43    8.4619   135.83  0.050528    54.92   0.88265   -29.42
       1600   0.86887   -61.18    8.4059   134.58  0.051751    53.96   0.87739   -30.22
       1650   0.86363   -62.93     8.317   133.37  0.052864    52.93   0.87051   -31.03
       1700   0.85937   -64.57    8.2533   132.16   0.05389    52.02   0.86352   -31.78
       1750   0.85422   -66.25    8.2022   130.93  0.054993    51.08   0.85738   -32.54
       1800   0.84911   -67.99    8.1253   129.74  0.056093    50.10   0.85186   -33.30
       1850   0.84413   -69.72    8.0586   128.54  0.057069    49.15   0.84518   -34.06
       1900   0.83925   -71.41    8.0139   127.30  0.058028    48.30   0.83917   -34.76
       1950   0.83419   -72.95    7.9293   126.20   0.05898    47.46   0.83372   -35.48
       2000    0.8292   -74.57     7.848   125.02  0.059947    46.56   0.82738   -36.26
       2050   0.82374   -76.19    7.7809   123.91  0.060891    45.74   0.82055   -36.94
       2100   0.81918   -77.71    7.7115   122.79  0.061756    44.89   0.81453   -37.63
       2150    0.8149   -79.29    7.6498   121.73  0.062615    44.11   0.80747   -38.31
       2200   0.80965   -80.84    7.5798   120.67  0.063432    43.29   0.80128   -38.88
       2250    0.8039   -82.42    7.5155   119.54  0.064243    42.47   0.79605   -39.58
       2300    0.7994   -83.92    7.4437   118.47  0.065105    41.62   0.79017   -40.28
       2350   0.79518   -85.38    7.3565   117.52  0.065801    40.83   0.78291   -40.97
       2400   0.79081   -86.95    7.3031   116.49  0.066492    40.14   0.77549   -41.49
       2450   0.78504   -88.44    7.2418   115.47  0.067293    39.40    0.7694   -42.06
       2500   0.77945   -89.88    7.1659   114.46  0.068075    38.48   0.76332   -42.71
       2600   0.77155   -92.65    7.0348   112.55  0.069256    36.96   0.75152   -43.79
       2700   0.76223   -95.53    6.9099   110.60  0.070416    35.45   0.74052   -44.82
       2800    0.7546   -98.22    6.7877   108.70  0.071372    34.06   0.72926   -45.83
       2900   0.74608  -100.96    6.6524   106.87  0.072248    32.70   0.71857   -46.83
       3000   0.73821  -103.53    6.5472   105.08  0.073101    31.49   0.70914   -47.85
       3100   0.73241  -106.09    6.4236   103.33  0.073867    30.26   0.69992   -48.80
       3200   0.72537  -108.56    6.3063   101.61  0.074643    29.10   0.68989   -49.77
       3300     0.719  -111.17    6.2047    99.91  0.075391    27.84   0.68146   -50.90
       3400   0.71137  -113.59    6.1019    98.17  0.076097    26.81   0.67262   -51.89
       3500   0.70586  -115.95    5.9914    96.54  0.076658    25.73   0.66297   -52.82
       3600   0.69965  -118.48    5.8884    94.90  0.077254    24.71   0.65335   -53.63
       3700   0.69462  -120.64    5.7831    93.31  0.077737    23.68   0.64582   -54.45
       3800   0.68805  -123.11     5.694    91.68   0.07825    22.72   0.63636   -55.38
       3900    0.6827  -125.23    5.5977    90.14  0.078749    21.88   0.62885   -56.21
       4000   0.67671  -127.62    5.4999    88.57  0.079136    20.84   0.62027   -57.16
       4100   0.67245  -129.64    5.4048    87.12  0.079389    20.00   0.61216   -57.85
       4200    0.6674  -131.87    5.3217    85.60  0.079833    19.07   0.60507   -58.68
       4300   0.66376  -133.90    5.2375    84.14  0.080122    18.26   0.59821   -59.54
       4400   0.65863  -136.12    5.1528    82.62  0.080425    17.40   0.59068   -60.36
       4500   0.65516  -137.98    5.0672    81.26  0.080607    16.66   0.58401   -61.07
       4600   0.65081  -140.10     4.984    79.86  0.080772    15.86   0.57674   -61.81
       4700     0.648  -142.05    4.9099    78.45  0.080938    15.09   0.56991   -62.66
       4800   0.64366  -144.17    4.8313    77.01  0.081104    14.30   0.56388   -63.51
       4900   0.64017  -146.07    4.7562    75.64  0.081247    13.59   0.55799   -64.17
       5000   0.63655  -147.97    4.6841    74.35  0.081358    12.93   0.55097   -64.82
       5200   0.62989  -151.66    4.5447    71.61   0.08146    11.61   0.53989   -66.48
       5400   0.62449  -155.31    4.4107    69.13  0.081486    10.32    0.5284   -67.75
       5600   0.61882  -158.84    4.2824    66.51  0.081389     9.12   0.51767   -69.40
       5800   0.61346  -162.23    4.1609    64.09  0.081148     8.03   0.50807   -70.65
       6000   0.61014  -165.49    4.0469    61.63  0.080933     7.03   0.49837   -72.21
       6200   0.60717  -168.63    3.9393    59.31  0.080645     6.22   0.49064   -73.50
       6400   0.60411  -171.88    3.8349    56.94  0.080299     5.36    0.4812   -75.01
       6600   0.60095  -175.01    3.7391    54.59  0.080021     4.62   0.47326   -76.41
       6800   0.59919  -177.97    3.6474    52.41  0.079762     4.04    0.4652   -77.83
       7000   0.59677   179.22    3.5562    50.10  0.079249     3.49   0.45751   -79.38
       7200   0.59692   176.54    3.4816    48.01  0.079223     3.24   0.45153   -80.73
       7400   0.59538   173.59    3.4022    45.59  0.078953     2.54   0.44349   -82.59
       7600   0.59628   171.06    3.3342    43.48  0.079134     2.49   0.43907   -83.93
       7800   0.59238   167.81    3.2479    41.09  0.078746     1.53     0.428   -85.98
       8000   0.59049   165.75    3.1799    39.41  0.077578     2.12    0.4229   -86.67
       8200   0.59363   162.72    3.1182    36.90  0.078558     1.61   0.41589   -89.07
       8400   0.59374   160.30     3.052    34.93  0.078163     1.76   0.41044   -90.35
       8600   0.59093   157.58    2.9765    32.75  0.077972     0.66       0.4   -92.36
       8800   0.58979   155.28    2.9172    30.68  0.077752     1.11   0.39441   -93.87
       9000   0.59154   153.42    2.8651    28.92  0.077653     1.65   0.39133   -95.38
       9200   0.59232   150.96    2.8104    26.90  0.077823     1.49   0.38237   -97.20
       9400   0.59408   148.65     2.758    24.75  0.077752     1.46   0.37892   -99.09
       9600   0.59685   146.35    2.7087    22.87  0.078036     1.94   0.37071  -100.87
       9800   0.59943   144.07    2.6686    20.84  0.078161     2.34   0.36763  -102.52
      10000   0.60333   141.97    2.6237    18.84  0.079945     2.79   0.36613  -104.49
      10200   0.60532   139.41    2.5756    16.68  0.080487     2.25   0.35663  -107.26
      10400   0.60664   137.45    2.5244    14.71  0.080933     2.16   0.35408  -109.15
      10600   0.60629   135.21    2.4795    12.80  0.081378     2.15   0.34405  -111.47
      10800   0.60714   133.55    2.4431    10.90  0.081878     2.42   0.34351  -113.47
      11000   0.60968   131.20    2.4066     9.06  0.082945     2.72    0.3368  -115.27
      11200   0.61484   129.33    2.3798     6.97  0.084034     3.03   0.33752  -118.23
      11400   0.61719   127.20    2.3342     4.94  0.085136     2.64   0.33042  -120.61
      11600   0.61954   125.07    2.2936     3.08  0.085576     2.76   0.32393  -123.36
      11800   0.62512   123.28    2.2591     1.16  0.087186     2.94   0.32106  -125.30
      12000   0.62493   121.42    2.2335    -0.45   0.08769     3.17   0.31344  -127.76
      12200   0.63142   119.16    2.2056    -2.69  0.090123     3.35   0.31431  -130.17
      12400   0.62983   116.98    2.1712    -4.77  0.091804     2.79   0.30713  -133.22
      12600   0.63078   114.97    2.1263    -6.47  0.091836     3.07   0.30031  -135.56
      12800   0.64017   113.67     2.112    -8.15  0.095065     3.53    0.2978  -137.25
      13000   0.63775   111.31    2.0784   -10.19  0.095775     2.85   0.29401  -140.35
      13200   0.64311   110.03    2.0383   -12.11  0.097394     2.54   0.28923  -143.48
      13400   0.64575   108.15    2.0228   -14.06   0.10074     2.23   0.29162  -146.72
      13600   0.65214   106.14    2.0008   -16.17   0.10218     1.95    0.2891  -150.27
      13800   0.65048   104.46    1.9682   -18.00   0.10466     1.46   0.28562  -153.92
      14000   0.65725   102.38    1.9484   -19.77   0.10609     0.92   0.28304  -157.63
      14200   0.66312   101.03    1.9219   -21.75   0.10826     0.75   0.27906  -160.79
      14400   0.66441    98.50    1.8961   -23.85   0.11014     0.02   0.27982  -165.85
      14600   0.66981    96.93    1.8707   -25.67   0.11276    -0.08   0.27282  -168.33
      14800   0.67133    94.88    1.8464   -27.54   0.11532    -0.62   0.27458  -172.72
      15000   0.68021    93.39    1.8198   -29.44   0.11761    -1.33   0.27067  -175.53
      15200   0.68298    91.84    1.8022   -31.18   0.12058    -2.07   0.27455  -179.08
      15400   0.69387    90.01    1.7857   -33.15   0.12272    -2.86    0.2743   177.50
      15600   0.69648    88.91    1.7632   -35.10   0.12559    -3.54   0.27858   173.96
      15800   0.70355    86.64    1.7491   -36.99   0.12778    -4.58   0.28079   170.44
      16000   0.71376    85.24    1.7324   -39.23   0.13073    -5.35    0.2843   166.72
      16200   0.71974    83.23    1.7162   -41.52   0.13319    -6.24   0.28844   163.18
      16400    0.7272    81.50    1.6819   -43.70   0.13558    -6.94   0.28783   159.58
      16600   0.72648    79.85    1.6577   -45.46   0.13921    -8.06   0.29718   156.38
      16800   0.73067    77.96    1.6324   -47.16   0.14121    -8.86   0.29375   152.51
      17000   0.73053    76.24    1.6226   -49.03   0.14461   -10.07   0.30751   149.09
      17200   0.73274    74.30    1.6046   -51.11   0.14729   -11.01   0.30545   145.05
      17400   0.73806    71.98    1.5884   -53.63   0.14943   -12.30   0.31942   141.39
      17600    0.7372    70.44    1.5572   -55.34   0.15282   -12.78   0.31562   137.25
      17800   0.73916    68.53    1.5428   -57.46   0.15688   -14.31   0.32378   133.91
      18000   0.74961    67.31    1.5147   -59.49   0.15965   -15.71   0.32883   131.49
      18200   0.75497    64.98       1.5   -61.93   0.16261   -17.08   0.33914   127.54
      18400   0.76214    63.57    1.4619   -64.19   0.16486   -18.42   0.34515   124.80
      18600   0.75421    62.11    1.4231   -65.74   0.16662   -19.40   0.35517   121.18
      18800   0.76226    59.94    1.3999   -67.52   0.16957   -20.75   0.36404   118.27
      19000   0.75795    58.70    1.3828   -68.93    0.1739   -21.74   0.37094   115.21
      19200   0.76457    56.84    1.3625   -70.80   0.17781   -23.33   0.37721   112.27
      19400   0.76954    55.67    1.3422   -72.15   0.18107   -24.68   0.38241   110.01
      19600   0.77626    54.26    1.3215   -74.00   0.18328   -27.17    0.3978   108.30
      19800   0.79812    53.53    1.3191   -75.46   0.18371   -28.11   0.41029   104.24
      20000   0.80668    50.95    1.3069   -77.98   0.18587   -29.11   0.41696   102.48

!  
! Device Noise Parameters
!  Freq-MHz   Fmin-dB  Gopt-mag  Gopt-arg   rn_normalized
	400	0.4081	0.61727	6.23	0.1917
	420	0.4093	0.61501	6.69	0.1917
	440	0.4104	0.61278	7.15	0.1917
	460	0.4116	0.61058	7.61	0.1917
	480	0.4128	0.60841	8.07	0.1916
	500	0.4140	0.60627	8.53	0.1916
	550	0.4169	0.60106	9.69	0.1915
	600	0.4199	0.59603	10.84	0.1914
	650	0.4228	0.59118	12.00	0.1912
	700	0.4258	0.58651	13.15	0.1910
	750	0.4288	0.58201	14.30	0.1908
	800	0.4319	0.57767	15.45	0.1906
	850	0.4349	0.57349	16.60	0.1903
	900	0.4380	0.56947	17.75	0.1900
	950	0.4411	0.56560	18.90	0.1897
	1000	0.4442	0.56187	20.04	0.1894
	1050	0.4473	0.55827	21.18	0.1890
	1100	0.4504	0.55481	22.31	0.1886
	1150	0.4536	0.55148	23.44	0.1882
	1200	0.4568	0.54827	24.57	0.1877
	1250	0.4600	0.54518	25.69	0.1873
	1300	0.4632	0.54220	26.81	0.1868
	1350	0.4664	0.53933	27.92	0.1863
	1400	0.4697	0.53656	29.03	0.1857
	1450	0.4729	0.53388	30.13	0.1852
	1500	0.4762	0.53130	31.22	0.1846
	1550	0.4795	0.52880	32.31	0.1840
	1600	0.4828	0.52639	33.40	0.1834
	1650	0.4861	0.52406	34.47	0.1828
	1700	0.4895	0.52180	35.54	0.1821
	1750	0.4929	0.51960	36.61	0.1814
	1800	0.4962	0.51748	37.66	0.1807
	1850	0.4997	0.51541	38.72	0.1800
	1900	0.5031	0.51340	39.76	0.1793
	1950	0.5065	0.51144	40.80	0.1785
	2000	0.5100	0.50953	41.83	0.1778
	2050	0.5134	0.50767	42.85	0.1770
	2100	0.5169	0.50585	43.87	0.1762
	2150	0.5204	0.50406	44.88	0.1753
	2200	0.5240	0.50231	45.89	0.1745
	2250	0.5275	0.50059	46.89	0.1736
	2300	0.5311	0.49890	47.88	0.1728
	2350	0.5347	0.49724	48.87	0.1719
	2400	0.5383	0.49560	49.85	0.1710
	2450	0.5419	0.49397	50.83	0.1701
	2500	0.5455	0.49237	51.80	0.1691
	2600	0.5528	0.48920	53.72	0.1672
	2700	0.5602	0.48608	55.63	0.1653
	2800	0.5677	0.48298	57.51	0.1633
	2900	0.5752	0.47989	59.38	0.1612
	3000	0.5828	0.47680	61.24	0.1591
	3100	0.5905	0.47370	63.08	0.1570
	3200	0.5982	0.47058	64.90	0.1548
	3300	0.6061	0.46743	66.72	0.1526
	3400	0.6139	0.46424	68.53	0.1503
	3500	0.6219	0.46102	70.33	0.1480
	3600	0.6299	0.45777	72.13	0.1457
	3700	0.6380	0.45446	73.93	0.1434
	3800	0.6462	0.45112	75.73	0.1410
	3900	0.6544	0.44774	77.53	0.1387
	4000	0.6627	0.44432	79.33	0.1363
	4100	0.6711	0.44087	81.14	0.1339
	4200	0.6796	0.43739	82.95	0.1315
	4300	0.6881	0.43389	84.78	0.1291
	4400	0.6967	0.43037	86.61	0.1267
	4500	0.7054	0.42684	88.46	0.1242
	4600	0.7141	0.42331	90.32	0.1218
	4700	0.7229	0.41980	92.20	0.1194
	4800	0.7318	0.41630	94.10	0.1170
	4900	0.7407	0.41284	96.02	0.1146
	5000	0.7497	0.40942	97.96	0.1122
	5200	0.7680	0.40277	101.89	0.1075
	5400	0.7865	0.39645	105.93	0.1029
	5600	0.8053	0.39058	110.06	0.0984
	5800	0.8244	0.38526	114.29	0.0940
	6000	0.8438	0.38063	118.61	0.0898
	6200	0.8635	0.37678	123.02	0.0858
	6400	0.8834	0.37382	127.51	0.0819
	6600	0.9036	0.37184	132.06	0.0783
	6800	0.9241	0.37091	136.65	0.0750
	7000	0.9449	0.37109	141.25	0.0719
	7200	0.9660	0.37240	145.84	0.0691
	7400	0.9874	0.37485	150.40	0.0667
	7600	1.0090	0.37841	154.90	0.0646
	7800	1.0309	0.38304	159.32	0.0628
	8000	1.0531	0.38868	163.63	0.0615
	8200	1.0756	0.39523	167.83	0.0605
	8400	1.0984	0.40259	171.90	0.0600
	8600	1.1214	0.41066	175.83	0.0600
	8800	1.1448	0.41930	179.62	0.0604
	9000	1.1684	0.42840	183.27	0.0614
	9200	1.1923	0.43783	186.79	0.0628
	9400	1.2165	0.44745	190.17	0.0649
	9600	1.2410	0.45715	193.44	0.0675
	9800	1.2657	0.46680	196.58	0.0707
	10000	1.2907	0.47629	199.63	0.0745
	10200	1.3161	0.48551	202.59	0.0790
	10400	1.3417	0.49435	205.46	0.0841
	10600	1.3676	0.50272	208.27	0.0899
	10800	1.3937	0.51053	211.02	0.0965
	11000	1.4202	0.51770	213.74	0.1037
	11200	1.4469	0.52415	216.42	0.1118
	11400	1.4739	0.52982	219.09	0.1206
	11600	1.5012	0.53467	221.77	0.1303
	11800	1.5288	0.53865	224.45	0.1407
	12000	1.5567	0.54174	227.17	0.1520
	12200	1.5848	0.54393	229.94	0.1642
	12400	1.6132	0.54523	232.77	0.1773
	12600	1.6419	0.54565	235.69	0.1914
	12800	1.6709	0.54527	238.70	0.2063
	13000	1.7002	0.54415	241.85	0.2223
	13200	1.7298	0.54240	245.13	0.2392
	13400	1.7596	0.54020	248.59	0.2571
	13600	1.7897	0.53772	252.24	0.2761
	13800	1.8201	0.53521	256.10	0.2962
	14000	1.8508	0.53299	260.19	0.3173