! Filename:  P:\Prog\Test\Noise\ATS_data\Testdata_Net\Split files Spar\BFU730_2W_B1_Bias1_2.5V_1mA_25mA_D.s2p
! Date/Time: Fri 29/Apr/2011 15:07:16
! BFU730_2W_B1_Bias1_2.5V_1mA_25mA_R.s2p
! MDIF S-parameter v. bias file
! BFU730_2W_B1_2.5V_1mA_25mA
! Date/time Thu Mar 17 13:38:09 2011
! bias mode 1
! bias variable = I_out
! VAR bias_var= 1
! VAR V_out= 2.5000
! VAR I_out= 1.0650
! VAR V_in= 0.7484
! VAR I_in= 0.0026
! Device data file deembeded for feedlines and parallel
! Original file: \Split files Spar\BFU730_2W_B1_Bias1_2.5V_1mA_25mA_R.s2p
! Feed-files: PR003V01_101208_Feed1.s2p, PR003V01_101208_Feed2.s2p
! Parallel-file: PR003V01_101208_Par.s2p
# MHz S MA R 50
!  Freq-MHz   S11-mag  S11-arg   S21-mag  S21-arg   S12-mag  S12-arg   S22-mag  S22-arg
         40   0.99053    -1.22    3.6379   179.36 0.0013938    84.55   0.99934    -0.54
         50   0.99441    -1.70    3.6471   178.67 0.0015616    96.44   0.99866    -0.69
         60   0.98837    -1.79    3.6052   178.34 0.0021405    91.19   0.99943    -0.76
         70    0.9906    -2.01    3.6149   178.48 0.0024405    87.17   0.99953    -0.90
         80   0.99039    -2.30    3.6478   178.20 0.0028003    87.85   0.99959    -1.03
         90   0.99029    -2.59    3.6513   177.77 0.0031621    87.75   0.99942    -1.17
        100   0.98983    -2.85    3.6306   177.67 0.0035023    88.06   0.99918    -1.30
        120   0.98989    -3.49    3.6315   177.30 0.0042415    87.93   0.99936    -1.56
        140    0.9899    -4.07    3.6356   176.86 0.0049818    87.63    0.9994    -1.84
        160   0.98991    -4.64    3.6238   176.31 0.0056824    87.36   0.99916    -2.10
        180   0.99026    -5.26     3.633   175.97 0.0064328    87.11   0.99924    -2.37
        200   0.99003    -5.85    3.6355   175.42 0.0071436    87.11   0.99886    -2.64
        220   0.98929    -6.44    3.6404   175.00 0.0078834    86.73    0.9989    -2.92
        240   0.98913    -7.03    3.6603   174.46 0.0086046    86.27   0.99892    -3.20
        260   0.98905    -7.62    3.6398   174.00 0.0093554    86.14   0.99861    -3.47
        280   0.98885    -8.21    3.6457   173.53  0.010077    85.84    0.9987    -3.74
        300   0.98875    -8.79      3.64   173.08  0.010809    85.59   0.99848    -4.02
        320   0.98838    -9.35    3.6226   172.64   0.01156    85.03   0.99841    -4.27
        340   0.98792    -9.97     3.632   172.15  0.012272    84.72   0.99804    -4.55
        360   0.98784   -10.53    3.6198   171.75  0.013005    84.45    0.9976    -4.82
        380    0.9876   -11.12    3.6234   171.28  0.013767    83.95   0.99743    -5.10
        400   0.98708   -11.70    3.6367   170.85  0.014523    83.50   0.99687    -5.35
        420   0.98697   -12.31    3.6529   170.35  0.015237    83.11   0.99698    -5.60
        440   0.98665   -12.88    3.6389   169.92  0.016009    82.87   0.99645    -5.89
        460   0.98617   -13.46    3.6482   169.45  0.016723    82.44    0.9961    -6.15
        480   0.98598   -14.07    3.6407   169.00  0.017477    82.02   0.99632    -6.44
        500    0.9854   -14.63    3.6152   168.53   0.01817    81.64   0.99568    -6.73
        550    0.9847   -16.13    3.6278   167.43  0.019986    80.58   0.99442    -7.40
        600   0.98306   -17.58    3.6465   166.30  0.021823    79.64   0.99347    -8.04
        650   0.98214   -19.03    3.6184   165.12  0.023644    78.58   0.99231    -8.73
        700   0.98058   -20.44    3.5828   164.02  0.025442    77.56   0.99108    -9.43
        750   0.97976   -21.93    3.5944   162.89  0.027228    76.60    0.9894   -10.10
        800   0.97802   -23.41    3.6225   161.84  0.029037    75.63    0.9886   -10.71
        850    0.9766   -24.86    3.6091   160.66  0.030834    74.61   0.98761   -11.38
        900   0.97555   -26.25    3.5686   159.53  0.032549    73.62   0.98559   -12.06
        950    0.9742   -27.72    3.5708   158.50  0.034269    72.65   0.98359   -12.70
       1000   0.97235   -29.15    3.5879   157.38  0.036041    71.73   0.98232   -13.35
       1050   0.97056   -30.55    3.5726   156.29  0.037747    70.73   0.98051   -14.01
       1100   0.96907   -31.95    3.5488   155.23  0.039417    69.74   0.97841   -14.69
       1150   0.96703   -33.42    3.5555   154.10  0.041077    68.80   0.97637   -15.30
       1200   0.96492   -34.82    3.5524   153.04  0.042753    67.88   0.97487   -15.91
       1250    0.9632   -36.24    3.5292   151.92  0.044463    66.88   0.97333   -16.61
       1300   0.96148   -37.61    3.5063   150.83   0.04605    65.88   0.97076   -17.25
       1350   0.95963   -39.07     3.516   149.79  0.047604    64.99   0.96808   -17.88
       1400    0.9574   -40.52    3.5153   148.72  0.049216    64.04   0.96616   -18.52
       1450    0.9556   -41.92    3.5009   147.66  0.050782    63.10   0.96395   -19.16
       1500   0.95363   -43.30    3.4857   146.64   0.05229    62.17   0.96153   -19.79
       1550   0.95152   -44.70    3.4827   145.52  0.053796    61.29   0.95954   -20.38
       1600   0.94933   -46.08    3.4794   144.50  0.055383    60.40   0.95777   -20.98
       1650    0.9468   -47.51     3.456   143.43  0.056845    59.44   0.95485   -21.63
       1700   0.94501   -48.83    3.4422   142.39  0.058219    58.56   0.95168   -22.24
       1750   0.94256   -50.21    3.4382   141.36  0.059663    57.70   0.94926   -22.85
       1800   0.94026   -51.63    3.4231   140.30  0.061154    56.76   0.94726   -23.47
       1850   0.93787   -53.02    3.4081   139.22  0.062511    55.84   0.94437   -24.09
       1900   0.93563   -54.41    3.4046   138.20  0.063858    55.02   0.94169   -24.69
       1950    0.9329   -55.72    3.3806   137.21   0.06517    54.15   0.93936   -25.30
       2000   0.93016   -57.08    3.3634   136.16    0.0666    53.31   0.93692   -25.93
       2050   0.92722   -58.42    3.3535   135.15  0.067963    52.43   0.93383   -26.51
       2100   0.92505   -59.74    3.3449   134.13  0.069243    51.61   0.93092   -27.11
       2150   0.92303   -61.08     3.336   133.19  0.070528    50.79   0.92758   -27.70
       2200   0.92031   -62.39    3.3206   132.20  0.071732    49.86   0.92455   -28.24
       2250     0.917   -63.76    3.3114   131.17  0.073004    49.04   0.92232   -28.85
       2300   0.91469   -65.05    3.2938   130.17  0.074323    48.20   0.91962   -29.45
       2350   0.91196   -66.30     3.263   129.26  0.075546    47.35   0.91578   -30.05
       2400   0.90941   -67.63    3.2538   128.29  0.076663    46.54   0.91149   -30.58
       2450   0.90602   -68.93    3.2491   127.31  0.077943    45.73   0.90841   -31.10
       2500   0.90339   -70.19    3.2299   126.33  0.079185    44.70   0.90608   -31.70
       2600   0.89822   -72.71    3.1972   124.48  0.081181    42.98   0.89999   -32.76
       2700   0.89256   -75.34    3.1734   122.56  0.083256    41.26    0.8942   -33.82
       2800   0.88803   -77.80    3.1428   120.67  0.084979    39.60   0.88787   -34.88
       2900   0.88198   -80.31    3.1072   118.83  0.086668    37.98    0.8824   -35.92
       3000   0.87696   -82.77     3.089   117.00  0.088285    36.49   0.87663   -36.94
       3100   0.87304   -85.14    3.0481   115.22  0.089817    34.94   0.87143   -38.00
       3200     0.868   -87.50    3.0184   113.45  0.091334    33.51   0.86496   -39.01
       3300   0.86317   -89.96     2.992   111.69  0.092843    31.96   0.86008   -40.17
       3400   0.85747   -92.30    2.9703   109.89  0.094248    30.61   0.85426   -41.16
       3500   0.85302   -94.58    2.9377   108.17  0.095544    29.18   0.84809   -42.16
       3600   0.84828   -97.02    2.9087   106.46   0.09679    27.82   0.84151   -43.10
       3700   0.84413   -99.16      2.87   104.75  0.097913    26.40   0.83666   -44.07
       3800   0.83826  -101.55    2.8513   103.02  0.099104    25.05   0.83039   -45.07
       3900   0.83378  -103.71    2.8262   101.38   0.10006    23.83   0.82502   -45.95
       4000   0.82865  -106.00    2.7968    99.68   0.10121    22.41   0.81922   -46.98
       4100   0.82447  -108.12    2.7614    98.08   0.10192    21.08   0.81306   -47.88
       4200   0.82041  -110.30    2.7356    96.46   0.10286    19.79   0.80785   -48.80
       4300   0.81718  -112.43    2.7105    94.85   0.10361    18.54   0.80301   -49.79
       4400   0.81179  -114.66    2.6856    93.16   0.10438    17.23   0.79786   -50.73
       4500   0.80884  -116.67    2.6545    91.66   0.10492    16.04   0.79228   -51.60
       4600   0.80381  -118.80    2.6236    90.08   0.10543    14.78   0.78626   -52.49
       4700   0.80087  -120.84    2.5961    88.54   0.10589    13.57   0.78099   -53.43
       4800   0.79629  -122.99    2.5701    86.91   0.10644    12.32   0.77676   -54.41
       4900   0.79254  -125.01     2.541    85.39   0.10688    11.13   0.77188   -55.23
       5000   0.78861  -127.02    2.5171    83.94   0.10722     9.99   0.76627   -56.06
       5200   0.78115  -130.99    2.4675    80.82    0.1076     7.72    0.7566   -57.93
       5400   0.77447  -134.87    2.4146    78.00   0.10787     5.44   0.74746   -59.58
       5600   0.76727  -138.69    2.3644    75.01   0.10783     3.19   0.73823   -61.45
       5800   0.76089  -142.41    2.3153    72.20   0.10756     1.05   0.72956   -63.09
       6000   0.75572  -146.04    2.2675    69.39   0.10708    -0.98   0.72137   -64.88
       6200    0.7511  -149.59    2.2221    66.67   0.10641    -2.86   0.71377   -66.51
       6400   0.74614  -153.12    2.1772    63.98   0.10559    -4.81   0.70567   -68.27
       6600   0.74126  -156.63    2.1366    61.24   0.10468    -6.62   0.69836   -69.96
       6800   0.73722  -159.96    2.0927    58.72    0.1036    -8.26   0.69011   -71.72
       7000    0.7334  -163.22    2.0524    56.05   0.10225    -9.96   0.68314   -73.41
       7200   0.73174  -166.37    2.0182    53.63     0.101   -11.19   0.67639   -75.10
       7400   0.72873  -169.69    1.9816    50.89  0.099681   -12.91   0.66936   -77.14
       7600   0.72742  -172.71      1.95    48.48  0.098621   -13.84   0.66502   -78.63
       7800   0.72202  -176.10    1.9082    45.79  0.097449   -15.80   0.65422   -80.87
       8000   0.71924  -178.71    1.8735    43.74  0.093746   -16.60   0.64829   -82.13
       8200   0.71947   177.95    1.8434    41.03  0.093742   -17.57   0.64168   -84.30
       8400   0.71793   175.18    1.8098    38.70  0.091398   -18.48   0.63628   -86.04
       8600   0.71382   172.09    1.7734    36.20  0.090297   -20.44   0.62629   -88.06
       8800    0.7115   169.34    1.7439    33.89  0.087811   -20.91   0.61988   -89.68
       9000    0.7126   166.95    1.7161    31.81  0.085213   -21.07    0.6177   -91.48
       9200   0.71159   164.12    1.6869    29.55  0.083645   -21.91   0.60971   -93.36
       9400   0.71087   161.40    1.6606    27.08  0.081419   -22.55   0.60685   -95.51
       9600   0.71187   158.75    1.6336    24.98  0.079359   -22.45   0.59852   -97.39
       9800   0.71247   156.05     1.612    22.73  0.076963   -22.34    0.5953   -99.14
      10000    0.7142   153.63    1.5878    20.48   0.07649   -21.46   0.59341  -101.37
      10200   0.71431   150.79    1.5621    18.07  0.075213   -22.09   0.58448  -103.76
      10400   0.71473   148.37    1.5336    15.83  0.073588   -22.28   0.58121  -105.98
      10600   0.71278   145.85    1.5102    13.71  0.071787   -22.14   0.57286  -108.12
      10800    0.7138   143.74    1.4883    11.54  0.069816   -21.49    0.5704  -110.21
      11000   0.71418   141.10    1.4715     9.48  0.068625   -20.51   0.56618  -112.35
      11200   0.71843   138.86    1.4539     7.13  0.067284   -18.94    0.5644  -114.94
      11400   0.71922   136.43     1.428     4.93  0.066645   -18.69     0.558  -117.43
      11600   0.72034   134.01     1.405     2.76   0.06476   -17.53   0.55117  -120.01
      11800   0.72502   131.74    1.3825     0.67  0.064584   -15.74   0.54606  -122.05
      12000   0.72443   129.60    1.3685    -1.11  0.063061   -13.97   0.54064  -124.37
      12200   0.72904   127.11    1.3505    -3.47  0.064347   -11.86   0.53907  -126.76
      12400   0.72635   124.75    1.3322    -5.75  0.064699   -11.22   0.53415  -129.56
      12600   0.72554   122.51    1.3031    -7.72  0.062985    -8.94   0.52721  -131.94
      12800   0.73332   120.67    1.2943    -9.57  0.065393    -5.94   0.52381  -134.25
      13000   0.73085   118.24    1.2733   -11.70  0.065428    -5.11   0.51794  -136.88
      13200    0.7352   116.42    1.2504   -13.82  0.066327    -3.93   0.51496  -139.54
      13400   0.73785   114.37     1.241   -15.80   0.06982    -2.33    0.5134  -142.53
      13600   0.74172   112.07     1.228   -18.09  0.071277    -1.02   0.51131  -145.38
      13800   0.74106   110.18     1.208   -20.09  0.073352    -0.33   0.50667  -148.50
      14000   0.74498   107.97    1.1958   -22.12  0.075158     0.62   0.50351  -151.59
      14200    0.7502   106.19    1.1778   -24.24  0.077554     1.63   0.50047  -154.46
      14400   0.75021   103.72    1.1631   -26.46  0.079674     1.87    0.4969  -158.47
      14600    0.7549   101.85    1.1442   -28.43  0.082926     2.99   0.49178  -160.92
      14800   0.75604    99.70    1.1271   -30.35  0.086078     3.43   0.48851  -164.48
      15000   0.76151    97.82    1.1108   -32.37  0.089298     3.49   0.48512  -167.29
      15200   0.76521    95.97     1.099   -34.13  0.093112     3.43   0.48588  -170.22
      15400   0.77341    93.89    1.0887   -36.21  0.096471     3.04   0.48364  -173.43
      15600    0.7768    92.40    1.0731   -38.22   0.10007     2.86   0.48768  -176.60
      15800     0.782    90.07    1.0632   -40.18   0.10362     2.27   0.48612  -179.69
      16000   0.78938    88.38    1.0531   -42.51   0.10743     1.32    0.4922   176.80
      16200   0.79386    86.33    1.0411   -44.92   0.11072     0.70   0.49414   173.44
      16400   0.79903    84.41    1.0192   -47.15   0.11384     0.10   0.49262   169.89
      16600   0.79929    82.54    1.0042   -49.02   0.11831    -0.90   0.49771   166.58
      16800   0.80211    80.60   0.98564   -50.84   0.12141    -1.53   0.49321   163.35
      17000   0.80326    78.76   0.97738   -52.77   0.12577    -2.72   0.50267   159.72
      17200   0.80463    76.77   0.96393   -54.85   0.12918    -3.66   0.50068   156.37
      17400   0.80812    74.45    0.9508   -57.34   0.13229    -5.03   0.50957   152.66
      17600   0.80834    72.80   0.93015   -58.99   0.13624    -5.27   0.50515   148.87
      17800    0.8084    70.84   0.91924   -60.98   0.14167    -6.91   0.51043   145.66
      18000   0.81764    69.32   0.90345   -62.97   0.14537    -8.39   0.51483   142.41
      18200   0.82054    67.00   0.89147   -65.37   0.14933   -10.01   0.52043   138.72
      18400   0.82487    65.39   0.86853   -67.52    0.1523   -11.55    0.5235   135.53
      18600   0.81847    63.81   0.84362   -69.05   0.15483   -12.48   0.52896   131.97
      18800   0.82433    61.62   0.82859   -70.78   0.15853   -14.00   0.53396   129.03
      19000   0.82253    60.30   0.81624   -72.08   0.16337   -14.89   0.53994   125.69
      19200   0.82763    58.37   0.80448   -73.87   0.16886   -16.62    0.5435   122.49
      19400   0.83022    56.93   0.79143   -75.26   0.17348   -18.21   0.54482   119.92
      19600   0.83491    55.43    0.7788   -77.12    0.1767   -20.94   0.55808   117.27
      19800   0.85101    54.38   0.77492   -78.71   0.17797   -22.50   0.56608   113.78
      20000   0.86049    51.98   0.76176   -81.07   0.18008   -23.72    0.5731   110.99