! Filename:  P:\Prog\Test\Noise\ATS_data\Testdata_Net\Split files Spar\BFU730_2W_B1_Bias4_2.5V_1mA_25mA_D.s2p
! Date/Time: Fri 29/Apr/2011 15:08:17
! BFU730_2W_B1_Bias4_2.5V_1mA_25mA_R.s2p
! MDIF S-parameter v. bias file
! BFU730_2W_B1_2.5V_1mA_25mA
! Date/time Thu Mar 17 13:38:09 2011
! VAR V_out= 2.5000
! VAR I_out= 5.0100
! VAR V_in= 0.7859
! VAR I_in= 0.0140
! Device data file deembeded for feedlines and parallel
! Original file: \Split files Spar\BFU730_2W_B1_Bias4_2.5V_1mA_25mA_R.s2p
! Feed-files: PR003V01_101208_Feed1.s2p, PR003V01_101208_Feed2.s2p
! Parallel-file: PR003V01_101208_Par.s2p
# MHz S MA R 50
!  Freq-MHz   S11-mag  S11-arg   S21-mag  S21-arg   S12-mag  S12-arg   S22-mag  S22-arg
         40   0.95026    -1.99     15.35   178.41 0.0013889    76.92   0.99579    -0.93
         50   0.94772    -2.95    15.389   177.60 0.0014039    70.39   0.99548    -1.27
         60    0.9481    -2.76    15.193   177.36 0.0019121    85.21   0.99623    -1.45
         70   0.95082    -3.38    15.228   177.36 0.0023918    82.52   0.99631    -1.73
         80   0.95026    -3.91    15.342   176.94 0.0027315    82.69   0.99636    -1.99
         90   0.95014    -4.43    15.344   176.39 0.0030834    83.24   0.99613    -2.27
        100   0.95043    -4.85    15.267   176.14 0.0033944    83.22   0.99593    -2.53
        120   0.94965    -5.91    15.288   175.42 0.0041131    83.91   0.99572    -3.07
        140   0.94931    -6.88     15.29   174.69 0.0048428    84.32   0.99559    -3.62
        160   0.94893    -7.86    15.218   173.88 0.0055247    83.79   0.99485    -4.14
        180   0.94914    -8.86    15.241   173.24 0.0062552    83.62   0.99436    -4.67
        200   0.94787    -9.89    15.229   172.40 0.0069266    83.46   0.99358    -5.21
        220   0.94733   -10.88    15.248   171.68 0.0076768    83.22   0.99281    -5.76
        240   0.94582   -11.90    15.303   170.84 0.0083589    82.73   0.99217    -6.29
        260   0.94556   -12.84    15.208   170.09 0.0090708    82.31   0.99117    -6.82
        280   0.94437   -13.85    15.216   169.33 0.0097436    81.84   0.99038    -7.35
        300   0.94375   -14.87    15.165   168.59  0.010476    81.47   0.98952    -7.90
        320   0.94234   -15.80    15.092   167.87  0.011179    80.98   0.98809    -8.43
        340   0.94113   -16.80    15.102   167.07  0.011863    80.34   0.98644    -8.96
        360   0.94065   -17.77    15.033   166.43  0.012548    79.84    0.9847    -9.49
        380   0.93905   -18.76    15.035   165.69  0.013252    79.34    0.9831   -10.03
        400   0.93727   -19.77    15.071   164.95  0.013949    78.73   0.98106   -10.51
        420   0.93539   -20.81    15.096   164.17  0.014626    78.23    0.9802   -10.99
        440   0.93398   -21.73    15.003   163.44  0.015321    77.74   0.97831   -11.55
        460   0.93295   -22.75     15.02   162.72  0.015978    77.19   0.97656   -12.04
        480   0.93102   -23.71    14.941   162.00  0.016685    76.64   0.97569   -12.61
        500   0.92946   -24.64    14.854   161.26  0.017333    75.95   0.97267   -13.16
        550   0.92488   -27.08    14.832   159.43  0.018936    74.64   0.96581   -14.40
        600   0.91927   -29.56    14.808   157.65  0.020603    73.26   0.96066   -15.61
        650   0.91454   -31.85    14.622   155.86  0.022185    71.85   0.95467   -16.88
        700   0.90972   -34.10    14.421   154.23  0.023704    70.49   0.94744   -18.17
        750   0.90451   -36.52    14.378   152.53  0.025202    69.19   0.93974   -19.32
        800   0.89796   -39.00    14.357   150.85  0.026754    67.93   0.93408   -20.39
        850   0.89199   -41.21    14.172   149.17  0.028231    66.55   0.92766   -21.59
        900   0.88623   -43.36    13.975   147.54  0.029537    65.23     0.918   -22.77
        950   0.88046   -45.69    13.891   146.03  0.030889    64.05   0.90931   -23.81
       1000   0.87337   -47.93    13.798   144.39   0.03227    62.85   0.90252   -24.87
       1050   0.86637   -50.11    13.657   142.83  0.033545    61.62   0.89417   -25.97
       1100   0.86064   -52.22    13.491   141.37  0.034735    60.42   0.88486   -27.02
       1150   0.85312   -54.50    13.407   139.77   0.03592    59.34   0.87603   -27.95
       1200   0.84617   -56.64     13.28   138.32  0.037131    58.23   0.86862   -28.92
       1250   0.83949   -58.64    13.084   136.83  0.038278    57.01   0.86045   -30.01
       1300   0.83313   -60.68    12.935   135.41  0.039294    55.94   0.85052   -30.95
       1350   0.82601   -62.84     12.84   133.94   0.04032    54.97   0.84146   -31.82
       1400   0.81891   -64.93    12.714   132.52   0.04133    53.93   0.83312   -32.72
       1450   0.81196   -66.95    12.572   131.12  0.042273    52.92   0.82422   -33.63
       1500    0.8053   -68.91    12.428   129.78  0.043197    51.93   0.81553   -34.47
       1550   0.79868   -70.80    12.281   128.44  0.044107    51.03   0.80754   -35.25
       1600   0.79205   -72.71     12.14   127.11  0.045032    50.12   0.79985   -36.07
       1650    0.7855   -74.61    11.973   125.83  0.045853    49.16   0.79074   -36.89
       1700    0.7793   -76.45    11.843   124.56  0.046578    48.31   0.78166   -37.64
       1750   0.77231   -78.30    11.714   123.26  0.047359    47.45   0.77366   -38.42
       1800    0.7664   -80.20    11.562   122.02  0.048147    46.56   0.76576   -39.21
       1850    0.7599   -82.02    11.428   120.77  0.048822    45.71   0.75706   -39.95
       1900   0.75333   -83.86    11.309   119.48  0.049505    44.98   0.74957   -40.66
       1950     0.747   -85.54    11.153   118.34   0.05012    44.19   0.74198   -41.38
       2000   0.74099   -87.24    10.998   117.15  0.050797    43.44    0.7337   -42.16
       2050   0.73449   -88.92    10.855   116.03  0.051411    42.68   0.72502   -42.82
       2100   0.72962   -90.50    10.717   114.94  0.052043    42.00   0.71764   -43.43
       2150   0.72425   -92.18     10.59   113.87  0.052578    41.32   0.70947   -44.09
       2200   0.71847   -93.79     10.46   112.81  0.053153    40.63   0.70172   -44.60
       2250   0.71214   -95.42    10.331   111.69  0.053711    39.94   0.69557   -45.27
       2300   0.70652   -97.00    10.195   110.63  0.054225    39.24   0.68841   -45.97
       2350   0.70242   -98.55    10.054   109.68  0.054698    38.62   0.67968   -46.61
       2400   0.69703  -100.19    9.9423   108.66  0.055145    38.06   0.67129   -47.10
       2450   0.69108  -101.72    9.8186   107.69  0.055681    37.51   0.66375   -47.59
       2500   0.68529  -103.18    9.6917   106.76  0.056213    36.76   0.65702   -48.13
       2600   0.67641  -106.01    9.4622   104.91  0.056948    35.55   0.64372   -49.07
       2700   0.66707  -108.89    9.2351   103.04  0.057697    34.38     0.631   -49.99
       2800   0.65931  -111.60    9.0224   101.23  0.058273    33.32   0.61902   -50.83
       2900   0.65066  -114.28    8.7979    99.53  0.058839    32.34   0.60774   -51.61
       3000    0.6434  -116.84    8.6142    97.86  0.059437    31.49   0.59763   -52.41
       3100   0.63759  -119.33    8.4221    96.20  0.059925    30.60   0.58845   -53.26
       3200   0.63074  -121.76    8.2309    94.60  0.060436    29.81   0.57808   -54.09
       3300   0.62488  -124.30    8.0622    92.99  0.060899    28.92   0.56913   -55.04
       3400   0.61821  -126.66     7.896    91.38  0.061409    28.24   0.56024   -55.84
       3500   0.61323  -128.94    7.7303    89.86  0.061834    27.53   0.55111   -56.64
       3600   0.60786  -131.39    7.5675    88.34  0.062232    26.86   0.54171   -57.31
       3700   0.60319  -133.48    7.4103    86.85  0.062576    26.18   0.53359   -58.00
       3800   0.59793  -135.83    7.2647    85.35  0.062948    25.58   0.52483   -58.78
       3900   0.59334  -137.82    7.1198    83.95  0.063377    25.07    0.5179   -59.43
       4000   0.58877  -140.13    6.9763    82.51  0.063717    24.44   0.50979   -60.20
       4100   0.58479  -142.05    6.8383    81.16  0.063954    23.91   0.50173   -60.79
       4200    0.5808  -144.14    6.7113    79.78  0.064329    23.36   0.49491   -61.47
       4300   0.57769  -146.02    6.5869    78.44  0.064673    22.88   0.48893   -62.22
       4400   0.57372  -148.11    6.4649    77.06  0.065019    22.39   0.48256   -62.87
       4500   0.57116  -149.90    6.3447    75.80  0.065295    21.99   0.47641   -63.46
       4600   0.56821  -151.85    6.2276    74.53  0.065493    21.49   0.46956   -64.11
       4700   0.56579  -153.66    6.1215    73.25  0.065732    21.08   0.46318   -64.81
       4800    0.5625  -155.65      6.01    71.94  0.066008    20.60   0.45809   -65.56
       4900   0.56004  -157.44    5.9091    70.69  0.066261    20.23   0.45248   -66.13
       5000   0.55718  -159.18    5.8059    69.52  0.066505    19.89   0.44646   -66.62
       5200   0.55242  -162.64    5.6109    67.02  0.066913    19.21   0.43577   -68.01
       5400    0.5486  -165.98    5.4308    64.77  0.067353    18.56   0.42666   -69.08
       5600    0.5446  -169.27    5.2559    62.39  0.067669    17.93   0.41648   -70.44
       5800   0.54087  -172.38     5.094    60.17  0.068002    17.40   0.40794   -71.53
       6000   0.53867  -175.35    4.9442    57.93  0.068329    16.94    0.3993   -72.85
       6200   0.53743  -178.23    4.8022    55.78  0.068719    16.63   0.39183   -74.01
       6400   0.53595   178.87    4.6674    53.63  0.069104    16.31   0.38393   -75.30
       6600    0.5344   175.94    4.5418    51.47  0.069556    15.99   0.37685   -76.46
       6800   0.53363   173.29    4.4253    49.46  0.070097    15.72   0.37042   -77.91
       7000   0.53223   170.66    4.3074    47.37  0.070417    15.63   0.36298   -79.06
       7200   0.53304   168.26    4.2083    45.43  0.071245    15.60   0.35814   -80.42
       7400   0.53308   165.55    4.1083    43.21  0.071821    15.17   0.35116   -82.10
       7600     0.535   163.23    4.0202    41.22   0.07276    15.24   0.34718   -83.35
       7800   0.53292   160.23      3.91    38.99  0.073175    14.51   0.33627   -85.43
       8000   0.53122   158.39    3.8255    37.49  0.073419    15.26   0.33315   -85.67
       8200   0.53579   155.67     3.747    35.11   0.07495    14.67   0.32641   -88.17
       8400   0.53563   153.36    3.6637    33.27  0.075651    14.83   0.32286   -89.37
       8600   0.53453   150.83    3.5695    31.23   0.07617    13.85   0.31172   -91.43
       8800     0.534   148.79    3.4951    29.34  0.077022    14.15   0.30659   -92.66
       9000   0.53661   147.23    3.4334    27.70  0.077972    14.52    0.3042   -94.15
       9200   0.53759   144.99    3.3626    25.80  0.078912    14.16   0.29661   -95.96
       9400   0.54003   142.83    3.2988    23.81  0.079784    13.97   0.29273   -97.81
       9600   0.54429   140.84    3.2378    22.06   0.08104    14.13   0.28467   -99.46
       9800   0.54681   138.73     3.189    20.19  0.082074    14.22   0.28132  -100.77
      10000   0.55181   136.76    3.1348    18.25  0.084641    14.10   0.28073  -102.93
      10200   0.55426   134.38    3.0755    16.22  0.085841    13.28   0.27163  -105.66
      10400   0.55567   132.43    3.0135    14.33  0.086997    12.82   0.26855  -107.84
      10600    0.5561   130.38    2.9586    12.54  0.088241    12.46   0.25988  -109.99
      10800   0.55799   128.72    2.9146    10.77  0.089525    12.30   0.25727  -111.80
      11000   0.56241   126.65    2.8658     9.01  0.091265    12.07    0.2523  -113.82
      11200   0.56732   124.85    2.8383     7.10  0.092963    11.87   0.25136  -116.56
      11400   0.56993   122.88    2.7811     5.11  0.094607    11.07   0.24485  -119.32
      11600   0.57228   120.81    2.7331     3.39  0.095621    10.68   0.23879  -122.18
      11800   0.57813   119.11    2.6928     1.52  0.097769    10.25   0.23469  -124.15
      12000   0.57833   117.48    2.6607     0.04  0.098607    10.02   0.22866  -126.72
      12200    0.5865   115.30    2.6299    -2.16   0.10138     9.59   0.22766  -129.09
      12400   0.58642   113.24    2.5858    -4.16   0.10341     8.70   0.22181  -132.67
      12600   0.58628   111.48    2.5334    -5.71   0.10397     8.40    0.2145  -134.81
      12800   0.59593   110.17    2.5159    -7.37   0.10728     8.23   0.21272  -136.55
      13000   0.59354   108.04    2.4777    -9.28   0.10815     7.17   0.20894  -140.05
      13200    0.5991   106.70    2.4295   -11.19   0.11008     6.50   0.20512  -143.18
      13400   0.60374   105.11    2.4092   -13.02   0.11313     5.75   0.20682  -147.31
      13600   0.61031   103.23    2.3848   -15.02   0.11476     5.11   0.20563  -151.03
      13800   0.61021   101.55    2.3421   -16.83    0.1172     4.30   0.20186  -155.38
      14000   0.61749    99.72    2.3202   -18.38   0.11865     3.44   0.19933  -159.88
      14200   0.62439    98.26    2.2901   -20.34   0.12087     2.92   0.19604  -163.32
      14400   0.62606    95.93    2.2592   -22.27    0.1228     1.96   0.19595  -169.65
      14600    0.6316    94.35    2.2337   -24.07   0.12539     1.48   0.19056  -171.93
      14800   0.63357    92.52    2.2051   -25.84   0.12781     0.58    0.1912  -177.13
      15000   0.64068    91.04     2.177   -27.69   0.13013    -0.35    0.1891   179.54
      15200   0.64467    89.48    2.1552   -29.39   0.13269    -1.39   0.19308   176.17
      15400    0.6559    87.80    2.1371   -31.27   0.13476    -2.26   0.19322   171.48
      15600   0.66001    86.64    2.1111   -33.23   0.13747    -3.28   0.19767   168.08
      15800   0.66762    84.71    2.0942   -34.96   0.13922    -4.38   0.19925   163.86
      16000   0.67918    83.24    2.0773   -37.27   0.14201    -5.32    0.2056   159.71
      16200   0.68556    81.32     2.057   -39.43   0.14435    -6.31   0.20776   156.08
      16400    0.6932    79.50     2.017   -41.63   0.14655    -7.16   0.21043   152.09
      16600   0.69468    77.84    1.9874   -43.30   0.14995    -8.44   0.21912   148.83
      16800    0.6991    76.10    1.9583   -44.91   0.15161    -9.35   0.21807   144.57
      17000   0.70094    74.34    1.9469   -46.73   0.15473   -10.65   0.23135   140.88
      17200   0.70382    72.51    1.9282   -48.76   0.15713   -11.67   0.23191   136.70
      17400   0.70949    70.27    1.9126   -51.18    0.1591   -12.95   0.24386   133.06
      17600   0.70881    68.72    1.8751   -52.96    0.1623   -13.62   0.24421   128.31
      17800    0.7108    67.09    1.8594   -55.00   0.16588   -15.19   0.25094   125.67
      18000   0.72154    65.88    1.8259   -57.04   0.16839   -16.63   0.25872   123.13
      18200   0.72723    63.65     1.811   -59.41   0.17104   -17.99   0.26854   119.60
      18400   0.73339    62.14    1.7694   -61.73   0.17331   -19.36   0.27498   117.25
      18600   0.72711    60.80    1.7196   -63.22   0.17457   -20.44   0.28869   113.76
      18800   0.73517    58.60    1.6943   -64.97   0.17758   -21.77   0.29663   110.91
      19000   0.73218    57.44    1.6707   -66.36   0.18115   -22.83   0.30531   107.80
      19200   0.73832    55.82    1.6487   -68.23   0.18481   -24.50   0.31153   105.08
      19400   0.74297    54.69    1.6261   -69.56   0.18758   -25.86   0.31558   103.22
      19600   0.74942    53.43    1.6018   -71.29   0.18926   -28.27   0.33429   102.07
      19800   0.77337    52.53    1.6035   -72.72   0.18956   -29.13   0.34691    98.14
      20000   0.78556    49.87    1.5923   -75.13   0.19171   -30.01   0.35482    96.03