! Filename:  P:\Prog\Test\Noise\ATS_data\Testdata_Net\Split files Spar\BFU730_2W_B1_1V_1mA_30mA_Bias2_D.s2p
! Date/Time: Fri 29/Apr/2011 14:16:01
! BFU730_2W_B1_1V_1mA_30mA_Bias2_R.s2p
! MDIF S-parameter v. bias file
! BFU730_2W_B1_1V_1mA_30mA
! Date/time Thu Mar 17 14:34:31 2011
! VAR V_out= 1.0001
! VAR I_out= 1.9650
! VAR V_in= 0.7666
! VAR I_in= 0.0055
! Device data file deembeded for feedlines and parallel
! Original file: \Split files Spar\BFU730_2W_B1_1V_1mA_30mA_Bias2_R.s2p
! Feed-files: PR003V01_101208_Feed1.s2p, PR003V01_101208_Feed2.s2p
! Parallel-file: PR003V01_101208_Par.s2p
# MHz S MA R 50
!  Freq-MHz   S11-mag  S11-arg   S21-mag  S21-arg   S12-mag  S12-arg   S22-mag  S22-arg
         40   0.98051    -1.45      6.62   179.26 0.0016221    87.76    0.9992    -0.74
         50   0.98218    -1.83    6.6413   178.45 0.0016929    85.19   0.99867    -0.97
         60   0.98028    -2.13    6.5623   178.15 0.0023809    93.39   0.99926    -1.06
         70   0.98102    -2.43    6.5776   178.25 0.0029007    89.17   0.99937    -1.26
         80   0.98067    -2.80    6.6314   177.91 0.0033204    89.01   0.99947    -1.44
         90   0.98043    -3.16    6.6352   177.44 0.0037521    88.80   0.99925    -1.63
        100   0.98003    -3.49    6.5996   177.29 0.0041223    88.40    0.9991    -1.81
        120   0.98004    -4.26    6.6108   176.74 0.0050116    88.35   0.99901    -2.19
        140   0.98012    -4.96    6.6136   176.21 0.0059025    88.08   0.99901    -2.58
        160   0.98021    -5.67    6.5859   175.60  0.006743    87.46   0.99866    -2.95
        180   0.98036    -6.41    6.6008   175.15 0.0076241    87.14   0.99848    -3.32
        200   0.97992    -7.14    6.6013   174.50 0.0084453    86.73   0.99792    -3.71
        220    0.9793    -7.87    6.6132   173.97 0.0093452    86.38   0.99777    -4.09
        240   0.97867    -8.60    6.6446   173.34  0.010207    85.84   0.99761    -4.49
        260   0.97858    -9.30    6.6098   172.75  0.011058    85.48   0.99709    -4.85
        280   0.97815   -10.05     6.618   172.19  0.011911    85.11   0.99689    -5.24
        300   0.97813   -10.77    6.6032   171.64  0.012763    84.56    0.9965    -5.63
        320   0.97705   -11.46     6.572   171.11  0.013665    83.99     0.996    -5.99
        340    0.9767   -12.19    6.5849   170.51  0.014508    83.66   0.99525    -6.37
        360    0.9764   -12.88     6.559   170.04  0.015373    83.06   0.99438    -6.75
        380   0.97596   -13.61    6.5638   169.49  0.016257    82.66   0.99377    -7.14
        400   0.97534   -14.33    6.5886   168.94  0.017123    82.21   0.99276    -7.48
        420   0.97473   -15.07     6.611   168.36   0.01799    81.73   0.99256    -7.83
        440   0.97398   -15.77    6.5818   167.81  0.018854    81.28   0.99173    -8.23
        460    0.9733   -16.51    6.5934   167.26   0.01969    80.78   0.99087    -8.59
        480   0.97267   -17.22    6.5735   166.72  0.020565    80.23    0.9909    -9.00
        500   0.97199   -17.93    6.5313   166.17  0.021391    79.68   0.98945    -9.39
        550   0.97018   -19.72    6.5517   164.76  0.023463    78.50   0.98653   -10.31
        600   0.96756   -21.54    6.5704   163.43  0.025579    77.29    0.9843   -11.20
        650   0.96569   -23.26    6.5128   162.01  0.027658    76.06   0.98171   -12.14
        700   0.96339   -24.98    6.4433   160.73  0.029715    74.84   0.97873   -13.10
        750   0.96136   -26.79    6.4502   159.41  0.031712    73.67   0.97519   -14.01
        800   0.95855   -28.62    6.4845   158.14  0.033775    72.60   0.97281   -14.83
        850   0.95572   -30.34    6.4407   156.77  0.035785    71.40   0.97017   -15.73
        900    0.9531   -32.00    6.3661   155.46  0.037684    70.22   0.96582   -16.66
        950   0.95063   -33.77     6.356   154.27   0.03961    69.13   0.96167   -17.51
       1000    0.9473   -35.51    6.3634   152.94  0.041538    68.02   0.95848   -18.37
       1050   0.94378   -37.17    6.3263   151.70   0.04339    66.84   0.95443   -19.24
       1100   0.94127   -38.83    6.2743   150.48  0.045218    65.74   0.95007   -20.12
       1150   0.93782   -40.62     6.273   149.18  0.046995    64.70   0.94558   -20.92
       1200   0.93424   -42.28    6.2498   147.97   0.04882    63.67   0.94204   -21.73
       1250   0.93061   -43.93     6.193   146.68  0.050619    62.50    0.9383   -22.64
       1300   0.92765   -45.57     6.145   145.47  0.052265    61.41   0.93315   -23.47
       1350   0.92418   -47.30    6.1453   144.24  0.053897    60.43   0.92805   -24.26
       1400   0.92028   -49.01    6.1259   143.02  0.055578    59.38   0.92366   -25.08
       1450    0.9171   -50.68    6.0895   141.82  0.057194    58.32   0.91897   -25.89
       1500   0.91343   -52.27    6.0503   140.69  0.058739    57.31   0.91421   -26.67
       1550    0.9095   -53.87    6.0229   139.43  0.060292    56.34   0.90972   -27.41
       1600   0.90561   -55.49    5.9969   138.26  0.061855    55.38   0.90538   -28.18
       1650   0.90187   -57.13    5.9418   137.11  0.063291    54.34   0.90001   -28.98
       1700   0.89854   -58.68    5.9066   135.95  0.064639    53.41   0.89442   -29.72
       1750   0.89453   -60.27    5.8831   134.79  0.066076    52.46   0.88953   -30.48
       1800   0.89048   -61.90    5.8392   133.62   0.06751    51.45   0.88506   -31.24
       1850   0.88669   -63.50    5.8007   132.47  0.068855    50.49   0.87966   -31.98
       1900   0.88301   -65.09    5.7806   131.32  0.070121    49.61   0.87471   -32.70
       1950   0.87892   -66.59    5.7282   130.23  0.071389    48.71      0.87   -33.42
       2000    0.8747   -68.11    5.6806   129.09  0.072663    47.80   0.86484   -34.19
       2050   0.87032   -69.65    5.6441   128.01  0.073939    46.91   0.85912   -34.89
       2100   0.86678   -71.12    5.6073   126.91  0.075117    46.04   0.85411   -35.59
       2150   0.86327   -72.63    5.5751   125.89  0.076311    45.20   0.84835   -36.31
       2200   0.85903   -74.09    5.5361   124.83  0.077432    44.31   0.84294   -36.91
       2250   0.85431   -75.62    5.5005   123.72  0.078547    43.44   0.83845   -37.63
       2300   0.85071   -77.07    5.4574   122.66  0.079716    42.58   0.83355   -38.34
       2350     0.847   -78.46    5.4004   121.71  0.080801    41.73   0.82754   -39.02
       2400   0.84324   -79.97    5.3712   120.68  0.081757    40.94   0.82099   -39.61
       2450   0.83841   -81.41    5.3398   119.66  0.082845    40.12   0.81544   -40.22
       2500   0.83388   -82.78    5.2927   118.64  0.083921    39.14   0.81056   -40.89
       2600   0.82689   -85.51    5.2145   116.73   0.08565    37.48   0.80049   -42.07
       2700   0.81892   -88.33    5.1409   114.74  0.087324    35.84   0.79006   -43.23
       2800   0.81247   -91.01    5.0664   112.80  0.088773    34.27   0.78037   -44.35
       2900    0.8045   -93.66    4.9804   110.95  0.090133    32.74   0.77074   -45.46
       3000   0.79788   -96.27    4.9201   109.11  0.091393    31.34   0.76166   -46.56
       3100   0.79232   -98.77    4.8376   107.32  0.092621    29.91   0.75336   -47.66
       3200   0.78556  -101.23    4.7636   105.54  0.093763    28.56    0.7436   -48.74
       3300   0.77985  -103.84    4.7003   103.79  0.094966    27.06   0.73618   -50.02
       3400   0.77306  -106.27    4.6374   102.00  0.096031    25.85   0.72753   -51.05
       3500   0.76748  -108.62    4.5648   100.30  0.096923    24.55   0.71819   -52.11
       3600    0.7614  -111.13    4.4977    98.61  0.097842    23.33    0.7089   -53.05
       3700   0.75668  -113.33    4.4251    96.94  0.098738    22.04   0.70225   -54.01
       3800   0.75027  -115.78    4.3681    95.26  0.099375    20.86   0.69208   -55.08
       3900    0.7449  -118.00    4.3075    93.66   0.10015    19.79   0.68506   -55.96
       4000   0.73951  -120.33    4.2423    92.01    0.1008    18.54   0.67608   -57.05
       4100   0.73486  -122.44    4.1762    90.47   0.10123    17.41    0.6681   -57.90
       4200   0.73039  -124.66    4.1194    88.89   0.10192    16.30   0.66111   -58.81
       4300   0.72609  -126.75    4.0629    87.36   0.10242    15.23   0.65443   -59.81
       4400   0.72113  -129.00    4.0065    85.76    0.1028    14.13   0.64637   -60.74
       4500   0.71767  -130.97    3.9474    84.31    0.1031    13.15    0.6394   -61.58
       4600   0.71312  -133.07    3.8883    82.82   0.10339    12.11   0.63197   -62.45
       4700    0.7099  -135.09    3.8366    81.36   0.10363    11.10   0.62545   -63.38
       4800   0.70527  -137.21    3.7825    79.84    0.1039    10.09   0.61918   -64.35
       4900   0.70148  -139.20    3.7294    78.39   0.10415     9.11   0.61286   -65.11
       5000   0.69766  -141.15     3.679    77.03   0.10431     8.21   0.60561   -65.90
       5200   0.69059  -144.99    3.5807    74.13   0.10445     6.37   0.59449   -67.71
       5400    0.6843  -148.73    3.4838    71.49   0.10437     4.59   0.58207   -69.26
       5600   0.67785  -152.41    3.3909    68.69    0.1043     2.85    0.5714   -71.06
       5800   0.67196  -155.94    3.3031    66.11   0.10386     1.21   0.56081   -72.58
       6000   0.66798  -159.38    3.2203    63.48   0.10349    -0.33   0.55099   -74.28
       6200   0.66431  -162.72    3.1408    60.98   0.10293    -1.72   0.54231   -75.82
       6400   0.66022  -166.04    3.0654    58.47   0.10228    -3.15   0.53289   -77.52
       6600   0.65648  -169.33    2.9931    55.95    0.1016    -4.44   0.52425   -79.09
       6800   0.65384  -172.44     2.924    53.63   0.10078    -5.55    0.5148   -80.84
       7000   0.65111  -175.45    2.8552    51.19   0.09983    -6.69   0.50657   -82.39
       7200   0.65022  -178.37     2.798    48.92  0.099073    -7.46   0.49943   -84.08
       7400   0.64797   178.55    2.7382    46.37  0.098212    -8.71   0.49099   -86.04
       7600   0.64827   175.81    2.6849    44.12  0.097709    -9.28   0.48611   -87.55
       7800   0.64396   172.57    2.6197    41.61   0.09673   -10.70   0.47414   -89.78
       8000   0.64186   170.25     2.567    39.73  0.094338   -10.83   0.46776   -90.84
       8200   0.64381   167.14    2.5185    37.18  0.094696   -11.60    0.4605   -93.19
       8400   0.64272   164.59    2.4674    35.04   0.09331   -12.00   0.45466   -94.72
       8600   0.63995   161.75    2.4103    32.74  0.092645   -13.38   0.44425   -96.96
       8800   0.63833   159.29     2.365    30.58  0.091361   -13.38   0.43737   -98.41
       9000   0.64025   157.21    2.3241    28.67  0.090109   -13.30   0.43458  -100.22
       9200   0.63997   154.59    2.2805    26.55  0.089471   -13.77   0.42628  -102.13
       9400   0.64058   152.11    2.2394    24.25  0.088397   -14.17   0.42274  -104.19
       9600   0.64352   149.76    2.1998    22.29   0.08758   -13.98   0.41402  -106.20
       9800   0.64438   147.30    2.1677    20.16  0.086546   -13.84   0.41088  -107.82
      10000   0.64754   145.08    2.1313    18.05  0.087124   -13.37    0.4088  -110.14
      10200   0.64839   142.42    2.0946    15.78  0.086871   -13.91   0.39999  -112.75
      10400    0.6493   140.21    2.0526    13.69  0.086296   -14.12   0.39704  -115.01
      10600   0.64821   137.90    2.0192    11.67  0.085775   -14.14   0.38859  -117.34
      10800    0.6505   135.99    1.9875     9.67  0.085133   -13.89   0.38665  -119.48
      11000   0.65223   133.55    1.9593     7.72   0.08513   -13.51   0.38123  -121.77
      11200   0.65711   131.54     1.936     5.55  0.085033   -12.94    0.3805  -124.52
      11400   0.65802   129.30    1.8996     3.46  0.085212   -13.15   0.37437  -127.19
      11600   0.65993   127.08    1.8667     1.45  0.084488   -12.84    0.3685  -130.04
      11800   0.66497   125.02     1.837    -0.53  0.085154   -12.25   0.36456  -132.23
      12000   0.66543   123.12    1.8164    -2.25  0.084671   -11.69   0.35882  -134.82
      12200   0.67082   120.73    1.7921    -4.53   0.08621   -11.05   0.35741  -137.37
      12400   0.66959   118.54    1.7651    -6.68  0.087128   -11.18   0.35292  -140.47
      12600   0.66893   116.54     1.728    -8.49   0.08632   -10.49   0.34568  -142.99
      12800   0.67723   114.93    1.7148   -10.31  0.088609    -9.35   0.34459  -145.27
      13000   0.67506   112.62    1.6876   -12.35  0.088913    -9.63   0.33946  -148.36
      13200   0.67994   111.01    1.6556   -14.37  0.089911    -9.47   0.33766  -151.25
      13400   0.68343   109.11    1.6422   -16.33  0.092798    -9.21   0.33786  -154.62
      13600   0.68842   107.00    1.6238   -18.53  0.093708    -9.02   0.33687  -157.96
      13800   0.68825   105.26    1.5964   -20.40  0.095573    -9.05    0.3346  -161.50
      14000   0.69348   103.19    1.5796   -22.29  0.096751    -9.18   0.33226  -165.10
      14200   0.69919   101.55    1.5568   -24.34  0.098262    -8.93   0.33076  -168.30
      14400   0.69967    99.17    1.5357   -26.47  0.099835    -9.20    0.3307  -172.92
      14600   0.70459    97.47    1.5129   -28.39   0.10198    -8.73   0.32699  -175.52
      14800   0.70623    95.44    1.4919   -30.26   0.10434    -8.80    0.3279  -179.61
      15000    0.7128    93.77    1.4702   -32.21   0.10669    -9.04   0.32602   177.37
      15200   0.71664    92.01     1.455   -33.97   0.10942    -9.45   0.33003   174.12
      15400   0.72625    90.11    1.4407   -36.05   0.11166    -9.94   0.33047   170.58
      15600   0.72974    88.73    1.4215   -38.00   0.11433   -10.36   0.33547   167.28
      15800   0.73584    86.59    1.4084   -39.94   0.11655   -11.07   0.33738   163.87
      16000   0.74491    84.95    1.3942   -42.22   0.11918   -11.75   0.34408   160.23
      16200   0.74985    83.00    1.3774   -44.53   0.12129   -12.32   0.34719   156.81
      16400   0.75539    81.17     1.349   -46.68    0.1235   -12.71   0.34881   153.28
      16600   0.75555    79.42    1.3292   -48.51   0.12702   -13.54   0.35646   150.20
      16800   0.75943    77.58    1.3076   -50.26   0.12896   -14.14   0.35647   146.66
      17000   0.76038    75.76    1.2965   -52.22   0.13233   -15.09    0.3689   143.27
      17200   0.76275    73.87    1.2801   -54.26    0.1348   -15.85   0.36969   139.58
      17400   0.76672    71.61    1.2641   -56.72    0.1369   -16.92   0.38135   136.15
      17600   0.76716    69.99    1.2388   -58.39   0.14019   -17.06   0.38083   132.16
      17800   0.76813    68.24    1.2253   -60.46   0.14449   -18.42   0.38843   129.14
      18000   0.77821    66.85    1.2041   -62.48   0.14746   -19.68   0.39404   126.37
      18200   0.78153    64.58    1.1891   -64.89   0.15025   -20.90   0.40338   122.78
      18400   0.78637    63.01    1.1587   -67.05   0.15286   -22.09   0.40861   120.19
      18600   0.77932    61.60    1.1266   -68.53   0.15455   -22.86   0.41937   116.94
      18800   0.78621    59.42    1.1082   -70.28   0.15782   -24.08   0.42666   114.19
      19000   0.78414    58.21    1.0923   -71.65   0.16199   -24.87   0.43533   111.22
      19200   0.79006    56.38    1.0778   -73.53    0.1664   -26.42   0.44112   108.17
      19400    0.7936    55.04    1.0606   -74.95   0.17004   -27.76   0.44502   106.15
      19600   0.79884    53.68    1.0448   -76.73    0.1727   -30.30   0.46059   104.18
      19800   0.81736    52.63    1.0392   -78.38   0.17281   -31.42    0.4727   100.72
      20000   0.82769    50.19     1.025   -80.70   0.17438   -32.25   0.48062    98.40