! Filename:  P:\Prog\Test\Noise\ATS_data\Testdata_Net\BFU730\BFU730_2W_B1_2V20mA_D.s2p
! Date/Time: Fri 29/Apr/2011 14:14:25
! BFU730_2W_B1_2V20mA
! bias mode 1: Vout= 2.0001 V, Iout=19.9700 mA, Vin= 0.8146 V, Iin= 0.0702 mA
! Date/time Thu Mar 17 12:54:20 2011
! Device data file deembeded for feedlines and parallel
! Original file: \BFU730\BFU730_2W_B1_2V20mA_R.s2p
! Feed-files: PR003V01_101208_Feed1.s2p, PR003V01_101208_Feed2.s2p
! Parallel-file: PR003V01_101208_Par.s2p
# MHz S MA R 50
!  Freq-MHz   S11-mag  S11-arg   S21-mag  S21-arg   S12-mag  S12-arg   S22-mag  S22-arg
         40   0.81316    -4.27    47.171   176.99 0.0013555    86.01   0.99095    -1.24
         50   0.81254    -5.49    47.304   175.73 0.0016922   100.55   0.99103    -2.16
         60   0.81222    -6.36    46.814   175.16 0.0021161    90.03   0.99367    -2.71
         70   0.81255    -7.42    46.909   174.73 0.0023252    86.55   0.99397    -3.48
         80   0.81136    -8.56     47.14   173.87 0.0026641    86.32   0.99368    -4.18
         90   0.80968    -9.67    47.048   172.89 0.0029847    85.88   0.99283    -4.88
        100   0.80898   -10.66    46.799   172.23 0.0032768    85.61   0.99172    -5.53
        120   0.80787   -12.91    46.836   170.67 0.0039558    84.53   0.98962    -6.86
        140   0.80629   -15.02    46.598   169.14 0.0046067    83.44   0.98716    -8.18
        160   0.80345   -17.15    46.299   167.53 0.0052405    81.94   0.98335    -9.42
        180   0.80187   -19.30    46.112   166.12 0.0058726    81.29   0.97925   -10.67
        200   0.79841   -21.42     45.87   164.53 0.0065069    80.42   0.97484   -11.89
        220   0.79526   -23.57    45.697   163.06  0.007157    79.51   0.96965   -13.12
        240   0.79024   -25.69    45.481   161.48 0.0077609    78.54   0.96409   -14.31
        260   0.78779   -27.73    45.049   160.03 0.0083566    77.61   0.95821   -15.48
        280   0.78323   -29.86    44.764   158.57  0.008962    76.69   0.95224   -16.65
        300   0.77946   -31.89    44.378   157.13 0.0095863    75.70   0.94547   -17.82
        320   0.77458   -33.88     43.99   155.78  0.010132    74.65   0.93792   -18.94
        340   0.76999   -35.90    43.647   154.34  0.010711    73.64   0.93037   -20.02
        360   0.76589   -37.89    43.243   153.08   0.01123    72.86   0.92218   -21.09
        380   0.75975   -39.96    42.937   151.69  0.011787    71.82   0.91435   -22.15
        400   0.75396   -41.88    42.578   150.35  0.012327    70.89   0.90597   -23.15
        420   0.74783   -43.83      42.2   149.01  0.012831    70.16   0.89838   -24.14
        440   0.74375   -45.64    41.713   147.82   0.01333    69.30   0.88981   -25.17
        460   0.73738   -47.61    41.373   146.53  0.013822    68.47   0.88125   -26.12
        480   0.73224   -49.38    40.855   145.31  0.014301    67.56   0.87259   -27.11
        500   0.72562   -51.19    40.404   144.08  0.014716    66.79   0.86266   -28.05
        550   0.71139   -55.63    39.368   141.08  0.015806    65.08   0.83804   -30.13
        600   0.69643   -59.95    38.273   138.29  0.016859    63.31   0.81624   -32.16
        650   0.68299   -63.94    37.093   135.70  0.017816    61.64   0.79349   -34.13
        700   0.66966   -67.84    35.948   133.24  0.018686    60.27   0.77073   -35.90
        750   0.65714   -71.71    34.921   130.85  0.019514    58.96   0.74905   -37.49
        800   0.64422   -75.42    33.889   128.62  0.020339    57.62   0.72905   -39.01
        850    0.6318   -78.98     32.85   126.43  0.021035    56.44   0.70813   -40.53
        900   0.61956   -82.29    31.829   124.38  0.021687    55.55   0.68718   -41.79
        950   0.60909   -85.52    30.892   122.47  0.022357    54.63   0.66879   -42.97
       1000    0.5983   -88.56    29.969   120.63  0.022963    53.79   0.65083   -44.16
       1050   0.58734   -91.61    29.073   118.86  0.023545    52.92    0.6331   -45.22
       1100   0.57878   -94.43     28.23   117.20  0.024103    52.30   0.61664   -46.21
       1150   0.56943   -97.28     27.43   115.55  0.024627    51.64   0.60088   -47.09
       1200   0.56037   -99.90    26.647   114.05  0.025126    51.04   0.58598   -47.96
       1250   0.55249  -102.55    25.884   112.55  0.025601    50.49   0.57107   -48.84
       1300   0.54526  -105.02    25.177   111.11  0.026072    49.99   0.55683   -49.56
       1350   0.53843  -107.37    24.503   109.76  0.026528    49.58   0.54385   -50.27
       1400   0.53154  -109.80    23.854   108.42  0.026971    49.17   0.53108   -50.95
       1450   0.52544  -112.04    23.229   107.16   0.02739    48.83   0.51878   -51.55
       1500   0.51916  -114.11    22.627   105.94  0.027788    48.53   0.50737   -52.10
       1550   0.51406  -116.16    22.054   104.76  0.028226    48.24   0.49681   -52.59
       1600   0.50875  -118.13    21.501   103.65  0.028634    47.96   0.48676   -53.13
       1650   0.50366  -120.20    20.967   102.51  0.029013    47.71   0.47635   -53.62
       1700   0.49903  -122.04    20.474   101.41  0.029396    47.51   0.46707   -54.05
       1750   0.49438  -123.83    19.985   100.37  0.029782    47.28     0.458   -54.55
       1800   0.49043  -125.70    19.515    99.34  0.030175    47.08   0.44919   -54.99
       1850   0.48669  -127.47    19.066    98.33  0.030509    46.90   0.44049   -55.40
       1900   0.48304  -129.07    18.642    97.34  0.030884    46.76   0.43306   -55.78
       1950   0.47896  -130.64    18.218    96.40  0.031257    46.59   0.42598   -56.21
       2000   0.47567  -132.22    17.801    95.49  0.031564    46.45   0.41753   -56.76
       2050   0.47319  -133.70    17.405    94.68  0.031936    46.43   0.40901   -57.04
       2100   0.47088  -135.21    17.045    93.81  0.032328    46.39    0.4028   -57.30
       2150   0.46887  -136.62    16.687    93.01   0.03268    46.36   0.39558   -57.67
       2200   0.46599  -138.02    16.355    92.23  0.033084    46.30   0.38938   -57.76
       2250   0.46296  -139.51    16.022    91.38   0.03345    46.08   0.38444   -58.20
       2300   0.46116  -140.79     15.69    90.60  0.033748    45.98   0.37819   -58.67
       2350   0.45986  -142.10    15.373    89.89  0.034059    46.00   0.37081   -59.13
       2400   0.45893  -143.38    15.082    89.20   0.03444    46.10    0.3638   -59.25
       2450    0.4571  -144.77    14.795    88.55  0.034891    46.16   0.35827   -59.41
       2500   0.45411  -146.27    14.539    87.85  0.035308    46.01    0.3523   -59.60
       2600   0.45043  -148.44    14.033    86.52  0.036045    45.84   0.34232   -59.85
       2700   0.44751  -150.82    13.554    85.15  0.036754    45.69   0.33318   -60.00
       2800   0.44512  -152.89    13.113    83.85  0.037477    45.60   0.32467   -60.18
       2900   0.44297  -155.04    12.688    82.64  0.038172    45.62   0.31716   -60.25
       3000   0.44043  -157.00    12.316    81.46  0.038975    45.58   0.31116   -60.54
       3100   0.43957  -158.96    11.964    80.17  0.039726    45.47   0.30557   -60.78
       3200   0.43733  -160.79    11.616    78.98  0.040476    45.40   0.29918   -61.16
       3300   0.43728  -162.62    11.296    77.83  0.041227    45.37    0.2933   -61.64
       3400   0.43556  -164.44    10.993    76.63  0.042009    45.29   0.28792   -62.14
       3500   0.43468  -166.21    10.707    75.46   0.04279    45.23   0.28214   -62.50
       3600   0.43389  -168.04    10.424    74.31  0.043543    45.16    0.2762   -62.78
       3700   0.43279  -169.48    10.159    73.17  0.044351    45.13   0.27132   -62.95
       3800   0.43263  -171.35    9.9122    72.03  0.045193    44.99   0.26624   -63.37
       3900   0.43138  -172.69     9.669    70.98  0.046014    44.95   0.26198   -63.78
       4000   0.43147  -174.53    9.4338    69.88  0.046827    44.74   0.25704   -64.21
       4100   0.43083  -175.83    9.2139    68.86  0.047619    44.71   0.25235   -64.30
       4200   0.43038  -177.43    9.0059    67.79  0.048527    44.54   0.24843   -64.69
       4300   0.42983  -178.72    8.8091    66.77  0.049397    44.41   0.24501   -65.13
       4400   0.42995   179.74    8.6128    65.72  0.050279    44.12   0.24135   -65.49
       4500   0.42947   178.49     8.429    64.73  0.051124    43.97   0.23792   -65.84
       4600   0.42987   177.07     8.252    63.75  0.051934    43.77   0.23399   -66.27
       4700   0.43025   175.80     8.087    62.74  0.052754    43.59   0.23004   -66.79
       4800   0.43045   174.32    7.9183    61.74  0.053617    43.37   0.22706   -67.32
       4900   0.43036   172.97    7.7651    60.73  0.054413    43.14   0.22356   -67.63
       5000   0.42996   171.70    7.6119    59.79  0.055327    42.97   0.21975   -67.89
       5200   0.43014   169.31    7.3198    57.86  0.057044    42.49   0.21389   -69.02
       5400   0.43068   166.85    7.0614    56.02  0.058772    41.96   0.20789   -69.49
       5600   0.43138   164.47    6.8106    54.12  0.060461    41.49   0.20154   -70.82
       5800   0.43145   162.21     6.578    52.34  0.062187    40.97    0.1963   -71.18
       6000   0.43281   160.14    6.3668    50.51  0.063892    40.43   0.19073   -72.47
       6200   0.43446   158.18    6.1676    48.78  0.065715    39.92   0.18641   -73.18
       6400    0.4362   156.06    5.9783    47.01  0.067454    39.38   0.18057   -74.21
       6600   0.43814   153.86    5.8031    45.25  0.069293    38.74   0.17618   -75.19
       6800   0.43955   151.92    5.6464    43.55  0.071145    38.04   0.17192   -76.30
       7000   0.44087   150.04    5.4833    41.83  0.072942    37.56   0.16692   -77.47
       7200   0.44299   148.38    5.3494    40.15  0.075047    36.89   0.16398   -78.58
       7400   0.44573   146.30    5.2132    38.27  0.076889    35.97   0.15867   -80.29
       7600   0.44881   144.74    5.0932    36.54  0.078945    35.38   0.15559   -81.89
       7800   0.45033   142.16    4.9447    34.60  0.080479    34.36    0.1469   -83.91
       8000   0.44961   140.90    4.8333    33.47  0.082469    34.15   0.14614   -82.99
       8200   0.45601   138.85    4.7272    31.26  0.084668    32.95   0.13994   -86.78
       8400   0.45801   137.01    4.6167    29.74   0.08672    32.38   0.13825   -87.23
       8600   0.45823   135.00    4.4875    27.96  0.088067    31.09   0.12775   -90.10
       8800   0.45847   133.45      4.39    26.32  0.090119    30.51   0.12516   -91.31
       9000   0.46191   132.55    4.3097    24.95  0.092129    29.99   0.12188   -92.99
       9200   0.46414   130.79    4.2158    23.25  0.093959    28.98   0.11509   -95.45
       9400   0.46875   129.17    4.1307    21.55  0.095784    28.12   0.11139   -97.35
       9600   0.47451   127.67    4.0517    20.00  0.097848    27.43   0.10447   -99.70
       9800   0.47795   126.01    3.9895    18.37  0.099817    26.74   0.10173  -100.82
      10000   0.48409   124.46    3.9196    16.62    0.1029    25.78   0.10123  -103.61
      10200   0.48896   122.41    3.8407    14.82    0.1047    24.47  0.093131  -108.97
      10400     0.491   120.84    3.7613    13.13   0.10657    23.44  0.090185  -111.67
      10600   0.49258   119.15    3.6866    11.54   0.10842    22.43  0.082033  -115.86
      10800   0.49437   117.83    3.6324     9.99   0.11044    21.57  0.080271  -118.41
      11000   0.50046   116.16    3.5628     8.41   0.11262    20.65  0.075108  -121.00
      11200   0.50627   114.67    3.5332     6.76   0.11478    19.70  0.075502  -127.21
      11400   0.51045   112.95    3.4582     4.91   0.11689    18.43  0.069717  -132.33
      11600   0.51422   111.21    3.3969     3.47   0.11845    17.44  0.065558  -139.64
      11800   0.52002   109.88      3.35     1.74   0.12088    16.36  0.063038  -143.20
      12000   0.52089   108.60    3.3073     0.43    0.1221    15.41   0.05794  -150.75
      12200   0.52974   106.59    3.2711    -1.63   0.12494    14.47  0.058639  -154.66
      12400   0.53039   104.74      3.21    -3.47   0.12724    13.18  0.056475  -164.88
      12600   0.53205   103.20    3.1456    -4.76   0.12817    12.24  0.050738  -173.83
      12800   0.54169   102.33     3.125    -6.26   0.13141    11.43  0.049382  -174.00
      13000   0.53964   100.27     3.078    -8.03   0.13237     9.94  0.050815   175.66
      13200   0.54574    99.27    3.0145    -9.78   0.13444     8.84  0.052905   166.32
      13400   0.54999    97.97    2.9896   -11.48   0.13711     7.62  0.060357   162.72
      13600   0.55822    96.34    2.9568   -13.29   0.13847     6.57  0.065658   154.91
      13800   0.55883    94.80     2.903   -14.97   0.14097     5.42  0.071448   147.35
      14000   0.56738    93.22    2.8741   -16.22   0.14219     4.24  0.078495   139.21
      14200    0.5744    91.99    2.8396   -18.07   0.14427     3.36  0.081991   133.11
      14400   0.57739    89.66     2.799   -19.78   0.14615     2.15  0.094587   127.68
      14600   0.58339    88.30    2.7717   -21.39   0.14863     1.26   0.09404   121.27
      14800   0.58604    86.55    2.7383   -23.01   0.15077     0.01   0.10399   117.77
      15000   0.59399    85.33     2.704   -24.73   0.15291    -1.23   0.10602   113.63
      15200   0.59696    83.99    2.6783   -26.33   0.15502    -2.58   0.11365   112.46
      15400   0.60994    82.62    2.6551   -28.04   0.15658    -3.67   0.12054   109.38
      15600   0.61276    81.63     2.625   -29.87   0.15907    -4.96   0.12739   107.38
      15800   0.62145    79.93    2.6037   -31.43   0.16012    -6.31   0.13573   104.97
      16000   0.63431    78.69    2.5825   -33.62    0.1624    -7.31   0.14372   102.34
      16200   0.64259    76.83    2.5584   -35.61    0.1644    -8.47   0.14929    99.59
      16400   0.65135    75.19    2.5115   -37.67   0.16635    -9.40   0.15369    97.30
      16600    0.6524    73.59     2.472   -39.17   0.16939   -10.82   0.16269    97.34
      16800   0.65797    71.87     2.439   -40.57    0.1706   -11.87   0.17076    93.28
      17000   0.65932    70.17    2.4278   -42.22   0.17333   -13.26   0.18227    93.30
      17200   0.66266    68.39    2.4077   -44.13   0.17542   -14.38   0.19015    89.08
      17400   0.66989    66.19    2.3931   -46.40    0.1769   -15.68    0.2023    88.52
      17600    0.6679    64.73    2.3485   -48.12   0.18013   -16.60   0.20762    84.21
      17800   0.66991    63.21    2.3316   -50.03   0.18291   -18.24   0.21469    82.82
      18000   0.68063    62.29    2.2886   -52.05   0.18497   -19.77   0.21648    82.13
      18200   0.68839    60.09    2.2719   -54.28   0.18684   -21.12    0.2295    80.64
      18400   0.69543    58.67    2.2222   -56.52   0.18881   -22.47   0.23203    79.86
      18600   0.68877    57.43    2.1593   -57.90   0.18963   -23.67   0.24816    79.01
      18800   0.69829    55.25    2.1301   -59.52   0.19224   -24.92   0.25827    77.51
      19000   0.69406    54.11    2.1013   -60.83   0.19579   -26.16   0.26646    75.72
      19200    0.6999    52.67    2.0743   -62.55   0.19855   -27.91   0.27287    73.96
      19400   0.70565    51.68    2.0456   -63.65   0.20038   -29.32   0.27693    73.17
      19600   0.71219    50.62    2.0165   -65.21   0.20134   -31.69   0.28947    74.28
      19800   0.73883    50.03    2.0229   -66.37    0.2004   -32.26   0.30908    71.17
      20000   0.75192    47.28    2.0181   -68.64   0.20245   -33.04   0.31283    69.99

!  
! Device Noise Parameters
!  Freq-MHz   Fmin-dB  Gopt-mag  Gopt-arg   rn_normalized
	400	0.8038	0.09776	8.32	0.1068
	420	0.8037	0.09744	8.93	0.1069
	440	0.8037	0.09712	9.55	0.1070
	460	0.8036	0.09681	10.16	0.1072
	480	0.8036	0.09651	10.77	0.1073
	500	0.8036	0.09621	11.37	0.1074
	550	0.8035	0.09549	12.89	0.1077
	600	0.8035	0.09480	14.39	0.1079
	650	0.8035	0.09414	15.89	0.1082
	700	0.8035	0.09350	17.37	0.1084
	750	0.8035	0.09288	18.85	0.1086
	800	0.8036	0.09229	20.31	0.1088
	850	0.8036	0.09172	21.77	0.1090
	900	0.8037	0.09116	23.21	0.1092
	950	0.8039	0.09062	24.65	0.1094
	1000	0.8040	0.09010	26.07	0.1096
	1050	0.8042	0.08959	27.49	0.1097
	1100	0.8044	0.08909	28.90	0.1099
	1150	0.8046	0.08859	30.29	0.1100
	1200	0.8048	0.08811	31.68	0.1101
	1250	0.8051	0.08763	33.06	0.1102
	1300	0.8054	0.08716	34.43	0.1103
	1350	0.8057	0.08669	35.80	0.1104
	1400	0.8060	0.08623	37.16	0.1105
	1450	0.8064	0.08577	38.51	0.1106
	1500	0.8068	0.08530	39.85	0.1106
	1550	0.8072	0.08484	41.19	0.1107
	1600	0.8076	0.08438	42.53	0.1107
	1650	0.8080	0.08392	43.86	0.1108
	1700	0.8085	0.08346	45.19	0.1108
	1750	0.8090	0.08299	46.52	0.1108
	1800	0.8095	0.08252	47.85	0.1108
	1850	0.8101	0.08205	49.17	0.1108
	1900	0.8106	0.08157	50.50	0.1108
	1950	0.8112	0.08109	51.82	0.1108
	2000	0.8118	0.08061	53.15	0.1108
	2050	0.8125	0.08012	54.48	0.1108
	2100	0.8131	0.07963	55.82	0.1107
	2150	0.8138	0.07914	57.16	0.1107
	2200	0.8145	0.07864	58.51	0.1106
	2250	0.8153	0.07814	59.86	0.1106
	2300	0.8160	0.07763	61.22	0.1105
	2350	0.8168	0.07713	62.59	0.1104
	2400	0.8176	0.07662	63.97	0.1104
	2450	0.8184	0.07611	65.36	0.1103
	2500	0.8193	0.07560	66.76	0.1102
	2600	0.8210	0.07457	69.60	0.1100
	2700	0.8229	0.07356	72.50	0.1098
	2800	0.8248	0.07256	75.47	0.1095
	2900	0.8269	0.07158	78.50	0.1093
	3100	0.8312	0.06974	84.82	0.1087
	3200	0.8335	0.06889	88.11	0.1084
	3300	0.8359	0.06812	91.49	0.1081
	3400	0.8384	0.06743	94.97	0.1077
	3500	0.8410	0.06684	98.54	0.1074
	3600	0.8437	0.06637	102.19	0.1070
	3700	0.8465	0.06603	105.93	0.1066
	3800	0.8494	0.06584	109.74	0.1062
	3900	0.8524	0.06580	113.61	0.1058
	4000	0.8554	0.06594	117.53	0.1054
	4100	0.8586	0.06626	121.47	0.1050
	4200	0.8618	0.06679	125.43	0.1046
	4300	0.8652	0.06751	129.38	0.1042
	4400	0.8686	0.06845	133.29	0.1038
	4500	0.8721	0.06960	137.15	0.1034
	4600	0.8758	0.07097	140.95	0.1030
	4700	0.8795	0.07255	144.65	0.1026
	4800	0.8833	0.07434	148.26	0.1022
	4900	0.8872	0.07633	151.76	0.1018
	5000	0.8912	0.07852	155.13	0.1014
	5200	0.8994	0.08347	161.50	0.1007
	5400	0.9081	0.08910	167.34	0.1000
	5600	0.9171	0.09534	172.68	0.0994
	5800	0.9265	0.10210	177.53	0.0988
	6000	0.9362	0.10933	181.95	0.0983
	6200	0.9463	0.11694	185.98	0.0979
	6400	0.9568	0.12487	189.67	0.0976
	6600	0.9677	0.13307	193.06	0.0974
	6800	0.9789	0.14148	196.18	0.0973
	7000	0.9905	0.15006	199.07	0.0973
	7200	1.0025	0.15876	201.77	0.0975
	7400	1.0149	0.16754	204.30	0.0978
	7600	1.0276	0.17637	206.68	0.0982
	7800	1.0407	0.18521	208.93	0.0989
	8000	1.0542	0.19403	211.08	0.0997
	8200	1.0680	0.20279	213.13	0.1007
	8400	1.0822	0.21148	215.11	0.1019
	8600	1.0968	0.22006	217.02	0.1034
	8800	1.1118	0.22852	218.87	0.1050
	9000	1.1271	0.23682	220.68	0.1069
	9200	1.1428	0.24494	222.45	0.1090
	9400	1.1589	0.25287	224.20	0.1114
	9600	1.1754	0.26059	225.93	0.1140
	9800	1.1922	0.26808	227.64	0.1169
	10000	1.2094	0.27533	229.35	0.1201
	10200	1.2269	0.28232	231.07	0.1236
	10400	1.2449	0.28905	232.79	0.1273
	10600	1.2632	0.29551	234.52	0.1314
	10800	1.2819	0.30169	236.28	0.1358
	11000	1.3009	0.30759	238.07	0.1406
	11200	1.3203	0.31322	239.88	0.1457
	11400	1.3401	0.31857	241.74	0.1512
	11600	1.3603	0.32367	243.64	0.1570
	11800	1.3808	0.32852	245.59	0.1632
	12000	1.4018	0.33314	247.60	0.1698
	12200	1.4230	0.33757	249.68	0.1767
	12400	1.4447	0.34182	251.82	0.1841
	12600	1.4667	0.34593	254.04	0.1919
	12800	1.4891	0.34996	256.33	0.2002
	13000	1.5119	0.35396	258.71	0.2088
	13200	1.5350	0.35797	261.18	0.2179
	13400	1.5586	0.36208	263.74	0.2275
	13600	1.5824	0.36636	266.39	0.2376
	13800	1.6067	0.37090	269.13	0.2481
	14000	1.6313	0.37579	271.97	0.2591