! Filename:  P:\Prog\Test\Noise\ATS_data\Testdata_Net\Split files Spar\BFU730_2W_B1_Bias6_2.5V_1mA_25mA_D.s2p
! Date/Time: Fri 29/Apr/2011 15:08:32
! BFU730_2W_B1_Bias6_2.5V_1mA_25mA_R.s2p
! MDIF S-parameter v. bias file
! BFU730_2W_B1_2.5V_1mA_25mA
! Date/time Thu Mar 17 13:38:09 2011
! VAR V_out= 2.5000
! VAR I_out= 9.9400
! VAR V_in= 0.7993
! VAR I_in= 0.0309
! Device data file deembeded for feedlines and parallel
! Original file: \Split files Spar\BFU730_2W_B1_Bias6_2.5V_1mA_25mA_R.s2p
! Feed-files: PR003V01_101208_Feed1.s2p, PR003V01_101208_Feed2.s2p
! Parallel-file: PR003V01_101208_Par.s2p
# MHz S MA R 50
!  Freq-MHz   S11-mag  S11-arg   S21-mag  S21-arg   S12-mag  S12-arg   S22-mag  S22-arg
         40   0.89904    -2.77    27.781   177.61 0.0013607    74.95   0.99122    -1.17
         50   0.90148    -3.74     27.84   176.68 0.0021427    69.61   0.99143    -1.68
         60   0.89769    -4.17    27.537   176.37 0.0019654    74.71    0.9926    -2.02
         70   0.89933    -4.82    27.592   176.20 0.0023134    79.95   0.99244    -2.47
         80   0.89872    -5.57    27.745   175.63 0.0026628    80.32   0.99241    -2.88
         90   0.89806    -6.31    27.728   174.94 0.0030144    81.13   0.99199    -3.31
        100   0.89742    -6.94    27.595   174.53 0.0033661    81.09   0.99155    -3.71
        120   0.89723    -8.43    27.624   173.51 0.0040045    81.75   0.99093    -4.53
        140   0.89635    -9.83     27.58   172.48  0.004684    82.06   0.99013    -5.37
        160   0.89509   -11.23    27.435   171.37 0.0053571    81.55   0.98852    -6.15
        180   0.89479   -12.66    27.424   170.43  0.006018    81.40     0.987    -6.94
        200    0.8931   -14.10    27.371   169.30 0.0067002    80.94   0.98531    -7.75
        220   0.89138   -15.52    27.355   168.28 0.0073505    80.56   0.98314    -8.56
        240   0.88845   -16.96    27.377   167.16 0.0080435    79.90   0.98116    -9.35
        260   0.88738   -18.32     27.18   166.12 0.0086867    79.38   0.97872   -10.13
        280   0.88529   -19.74    27.135   165.08 0.0093505    78.81   0.97631   -10.92
        300   0.88366   -21.15    26.999   164.06  0.010024    78.10   0.97374   -11.72
        320   0.88095   -22.48    26.868   163.07  0.010638    77.49   0.97051   -12.49
        340   0.87816   -23.91    26.792   162.00  0.011304    76.99   0.96696   -13.25
        360   0.87651   -25.24    26.643   161.11  0.011921    76.28   0.96316   -14.01
        380   0.87344   -26.67      26.6   160.11  0.012566    75.58   0.95961   -14.77
        400   0.86937   -28.09    26.555   159.08  0.013185    75.00   0.95545   -15.47
        420   0.86619   -29.48    26.498   158.05  0.013795    74.28   0.95238   -16.18
        440    0.8637   -30.73    26.279   157.13  0.014421    73.55   0.94822   -16.96
        460   0.86018   -32.17    26.236   156.15  0.015041    72.87   0.94415   -17.67
        480   0.85718   -33.44    26.019   155.20  0.015619    72.15   0.94073   -18.45
        500   0.85335   -34.75    25.868   154.23  0.016181    71.47   0.93506   -19.20
        550   0.84453   -38.07    25.598   151.83  0.017559    69.85   0.92139   -20.86
        600   0.83425   -41.41    25.304   149.53   0.01896    68.24   0.90985   -22.51
        650   0.82531   -44.45    24.825   147.33  0.020267    66.65    0.8971   -24.17
        700   0.81604   -47.44    24.358   145.24   0.02149    65.09   0.88288   -25.80
        750   0.80594   -50.64    24.053   143.12  0.022691    63.70    0.8689   -27.24
        800   0.79553   -53.74    23.718   141.05  0.023904    62.30   0.85672   -28.62
        850    0.7855   -56.59    23.238   139.06  0.024989    60.86   0.84332   -30.10
        900   0.77522   -59.37    22.789   137.13  0.025962    59.60   0.82733   -31.43
        950    0.7654   -62.26    22.427   135.30  0.026952    58.43   0.81321   -32.63
       1000   0.75496   -64.97    22.028   133.45  0.027935    57.23   0.80037   -33.89
       1050   0.74406   -67.66    21.622   131.65  0.028831    56.03   0.78629   -35.09
       1100   0.73506   -70.24    21.213   129.97  0.029662    54.98   0.77226   -36.21
       1150   0.72467   -72.93    20.855   128.21  0.030465    54.00     0.759   -37.22
       1200   0.71462   -75.42    20.466   126.61  0.031251    53.00    0.7465   -38.26
       1250   0.70561   -77.81    20.037   125.02  0.031977    51.98   0.73344   -39.36
       1300    0.6968   -80.21    19.665   123.47  0.032645    51.10   0.72002   -40.27
       1350   0.68813   -82.58    19.315   121.96  0.033316    50.30   0.70774   -41.15
       1400   0.67905   -84.94    18.956   120.47  0.033971    49.41   0.69584   -42.05
       1450   0.67057   -87.20    18.598   119.04  0.034559    48.66   0.68379   -42.89
       1500   0.66242   -89.36    18.246   117.67  0.035127    47.92   0.67241   -43.67
       1550   0.65511   -91.41    17.898   116.33  0.035692    47.24   0.66168   -44.39
       1600    0.6475   -93.45    17.552   115.05  0.036248    46.56   0.65126   -45.14
       1650   0.63996   -95.53    17.207   113.77  0.036747    45.81   0.64033   -45.86
       1700   0.63307   -97.49    16.905   112.50  0.037237    45.31   0.62997   -46.52
       1750   0.62626   -99.41    16.594   111.27  0.037709    44.73    0.6202   -47.20
       1800   0.61983  -101.40    16.283   110.06  0.038146    44.14   0.61057   -47.87
       1850   0.61297  -103.33     15.99   108.87  0.038588    43.54   0.60059   -48.49
       1900   0.60689  -105.11    15.706   107.70  0.038989    43.10    0.5921   -49.08
       1950   0.60097  -106.85     15.41   106.59  0.039355    42.58   0.58361   -49.69
       2000   0.59536  -108.59    15.114   105.52  0.039738    42.13   0.57415   -50.37
       2050   0.59007  -110.26    14.832   104.52  0.040122    41.72   0.56446   -50.89
       2100   0.58523  -111.89    14.573   103.50  0.040519    41.32   0.55665   -51.34
       2150   0.58091  -113.51    14.319   102.53  0.040895    40.97   0.54826   -51.88
       2200   0.57576  -115.11    14.078   101.59   0.04126    40.61   0.54046   -52.22
       2250    0.5707  -116.73    13.835   100.58  0.041649    40.18   0.53419   -52.78
       2300   0.56613  -118.22    13.588    99.63   0.04196    39.82   0.52664   -53.38
       2350   0.56295  -119.77     13.35    98.77  0.042241    39.45   0.51782   -53.92
       2400   0.55931  -121.33    13.134    97.90  0.042562    39.27   0.50957   -54.25
       2450   0.55464  -122.81    12.913    97.08  0.042942    39.04   0.50227   -54.59
       2500   0.55003  -124.36    12.714    96.26  0.043332    38.65    0.4954   -54.94
       2600    0.5428  -126.98    12.322    94.64  0.043912    38.02   0.48273   -55.55
       2700   0.53612  -129.71    11.948    93.02  0.044471    37.44   0.47079   -56.13
       2800   0.53045  -132.22    11.597    91.46  0.045005    36.99   0.46002   -56.66
       2900   0.52483  -134.71    11.253    90.01  0.045484    36.61   0.44995   -57.06
       3000   0.51959  -137.05    10.954    88.59   0.04604    36.28   0.44132   -57.59
       3100   0.51594  -139.37    10.668    87.11  0.046557    35.94   0.43359   -58.15
       3200    0.5114  -141.58    10.381    85.72  0.047078    35.62   0.42478   -58.73
       3300   0.50866  -143.84    10.119    84.36  0.047611    35.31   0.41707   -59.42
       3400   0.50415  -145.97    9.8689    82.97  0.048157    35.09   0.40971   -60.04
       3500   0.50109  -148.08    9.6303    81.63  0.048684    34.83   0.40212   -60.58
       3600   0.49862  -150.27    9.3929    80.31  0.049219    34.62   0.39432   -61.05
       3700   0.49566  -152.11    9.1695    79.00  0.049706    34.41   0.38732   -61.47
       3800   0.49304  -154.27    8.9612    77.70  0.050281    34.21   0.38039   -62.07
       3900   0.49007  -155.95    8.7544    76.48  0.050847    34.08   0.37482   -62.53
       4000   0.48802  -158.07    8.5543    75.23  0.051392    33.84   0.36823   -63.09
       4100    0.4861  -159.73    8.3639    74.06  0.051895    33.73   0.36168   -63.44
       4200   0.48399  -161.59     8.186    72.86  0.052502    33.53   0.35626   -63.94
       4300   0.48232  -163.22    8.0159    71.70  0.053084    33.36   0.35163   -64.52
       4400   0.48062  -165.05    7.8474    70.50  0.053696    33.13   0.34681   -64.99
       4500   0.47906  -166.60    7.6873    69.39  0.054248    33.00   0.34198   -65.43
       4600   0.47804  -168.32    7.5318    68.29  0.054776    32.80   0.33654   -65.94
       4700   0.47732  -169.88     7.388    67.16  0.055324    32.64   0.33137   -66.51
       4800   0.47599  -171.62    7.2406    66.03  0.055887    32.46   0.32749   -67.16
       4900   0.47507  -173.22     7.107    64.92  0.056452    32.30   0.32295   -67.59
       5000   0.47343  -174.72    6.9723    63.87  0.057046    32.18   0.31825   -67.92
       5200   0.47173  -177.65    6.7146    61.70  0.058195    31.86   0.30977   -69.07
       5400   0.47061   179.43    6.4859    59.69   0.05939    31.53   0.30276   -69.87
       5600    0.4692   176.59    6.2614    57.60  0.060481    31.21   0.29452   -71.03
       5800   0.46787   173.93    6.0535    55.64  0.061654    30.93   0.28781   -71.83
       6000   0.46777   171.37    5.8644    53.65  0.062811    30.65   0.28097   -73.01
       6200   0.46825   168.97     5.686    51.73  0.064085    30.38    0.2749   -73.93
       6400   0.46861   166.48    5.5166    49.81  0.065303    30.11   0.26845   -75.07
       6600   0.46888   163.91    5.3589    47.89  0.066613    29.78   0.26288   -76.01
       6800   0.46998   161.64    5.2163    46.06  0.068021    29.40   0.25772   -77.42
       7000   0.47003   159.38    5.0695    44.19  0.069276    29.24   0.25164   -78.35
       7200   0.47166   157.39    4.9482    42.40  0.070959    28.93   0.24785   -79.63
       7400   0.47342   154.98    4.8251    40.39  0.072371    28.32   0.24213   -81.30
       7600   0.47632   153.10    4.7167    38.56  0.074038    28.04   0.23863   -82.48
       7800   0.47653   150.35    4.5821    36.50  0.075169    27.21   0.22872   -84.65
       8000   0.47546   148.80    4.4803    35.23  0.076635    27.52   0.22732   -84.25
       8200   0.48073   146.42    4.3841    32.95  0.078607    26.57   0.22067   -87.18
       8400   0.48184   144.38    4.2828    31.30  0.080251    26.34   0.21867   -88.15
       8600   0.48204   142.14    4.1669    29.41  0.081283    25.22   0.20745   -90.39
       8800   0.48191   140.41    4.0772    27.68  0.082966    25.01   0.20345   -91.53
       9000    0.4851   139.21    4.0034    26.20  0.084674    24.84    0.2011   -93.01
       9200   0.48648   137.22     3.918    24.41   0.08621    24.10   0.19417   -95.00
       9400   0.49062   135.34    3.8405    22.59  0.087745    23.51    0.1904   -96.87
       9600   0.49594   133.65    3.7686    20.98  0.089598    23.14   0.18274   -98.57
       9800   0.49888   131.79     3.711    19.26  0.091237    22.76   0.17961   -99.66
      10000   0.50503   130.03    3.6471    17.42    0.0942    22.09   0.17953  -102.07
      10200   0.50859   127.86    3.5755    15.54  0.095836    20.95   0.17055  -105.37
      10400   0.51024   126.11     3.502    13.76  0.097477    20.13    0.1677  -107.83
      10600   0.51164   124.29    3.4355    12.10  0.099159    19.34   0.15917  -110.24
      10800   0.51378   122.77    3.3839    10.47   0.10094    18.73   0.15658  -112.09
      11000   0.51905   120.95    3.3225     8.80   0.10299    18.07   0.15185  -114.29
      11200   0.52428   119.32    3.2934     7.06   0.10503    17.37   0.15084  -117.70
      11400   0.52794   117.47     3.225     5.14   0.10702    16.24   0.14444  -120.96
      11600   0.53116   115.62    3.1686     3.59    0.1084    15.45   0.13909  -124.79
      11800   0.53709   114.10    3.1241     1.81   0.11068    14.59   0.13493  -126.91
      12000   0.53776   112.67     3.085     0.44   0.11184    13.90   0.12937  -130.39
      12200   0.54632   110.65    3.0508    -1.69   0.11468    13.14   0.12819  -132.86
      12400   0.54686   108.70    2.9965    -3.60   0.11691    11.97   0.12317  -138.15
      12600   0.54756   107.06    2.9364    -4.97   0.11775    11.24   0.11564  -140.78
      12800   0.55704   105.99    2.9168    -6.55   0.12101    10.62   0.11418  -142.17
      13000   0.55487   103.90    2.8726    -8.36   0.12194     9.30   0.11159  -147.44
      13200   0.56081   102.74    2.8156   -10.18   0.12398     8.33   0.10826  -151.77
      13400   0.56587   101.36    2.7917   -11.95    0.1268     7.28   0.11216  -157.77
      13600   0.57271    99.62    2.7632   -13.82   0.12829     6.38   0.11218  -162.99
      13800   0.57361    98.02    2.7125   -15.56    0.1308     5.33   0.11098  -169.70
      14000   0.58172    96.29    2.6866   -16.93    0.1321     4.28   0.11103  -176.80
      14200   0.58874    94.99    2.6545   -18.83   0.13431     3.54   0.10901   178.21
      14400   0.59123    92.67    2.6166   -20.63   0.13621     2.40   0.11407   169.13
      14600   0.59678    91.23    2.5908   -22.30   0.13874     1.65   0.10904   165.73
      14800   0.59902    89.41    2.5587   -23.97   0.14095     0.51   0.11361   158.89
      15000   0.60654    88.10    2.5267   -25.77   0.14314    -0.61   0.11348   154.58
      15200   0.61016    86.68    2.5026   -27.40   0.14546    -1.84   0.11893   151.55
      15400   0.62294    85.18    2.4812   -29.17   0.14718    -2.85   0.12332   145.64
      15600   0.62595    84.13    2.4528   -31.07   0.14972    -4.07   0.12853   142.60
      15800   0.63412    82.36    2.4332   -32.70    0.1511    -5.31   0.13379   137.81
      16000   0.64716    80.99     2.414   -34.94   0.15362    -6.31   0.14189   134.02
      16200   0.65457    79.09    2.3919   -37.00   0.15579    -7.38   0.14504   130.33
      16400    0.6627    77.38    2.3466   -39.14   0.15781    -8.28    0.1501   126.73
      16600   0.66439    75.69    2.3115   -40.71   0.16102    -9.66   0.15987   124.79
      16800   0.66913    73.97    2.2796   -42.19   0.16241   -10.67   0.16289   119.83
      17000   0.67131    72.28    2.2684   -43.91   0.16525   -12.01   0.17716   117.67
      17200   0.67462    70.49    2.2488   -45.89   0.16748   -13.11   0.18072   113.13
      17400   0.68078    68.28    2.2343   -48.22   0.16919   -14.40   0.19353   110.65
      17600   0.67998    66.76    2.1911   -49.99    0.1723   -15.24    0.1976   105.76
      17800   0.68129    65.25    2.1752   -51.95   0.17543   -16.85   0.20372   103.91
      18000   0.69243    64.17     2.135   -54.00    0.1776   -18.34   0.21084   102.47
      18200   0.69878    61.96    2.1199   -56.29   0.17986   -19.68   0.22174    99.86
      18400   0.70587    60.47    2.0734   -58.58     0.182   -21.04   0.22706    98.45
      18600   0.70003    59.17    2.0141   -60.01   0.18296   -22.21   0.24362    96.27
      18800   0.70835    57.02    1.9873   -61.69    0.1858   -23.48   0.25235    93.86
      19000     0.705    55.90    1.9592   -63.04   0.18927   -24.65   0.26197    91.37
      19200   0.71108    54.39    1.9342   -64.83    0.1924   -26.36   0.26828    89.13
      19400   0.71633    53.38    1.9077   -66.03   0.19462   -27.75     0.272    87.79
      19600   0.72238    52.21    1.8801   -67.67   0.19582   -30.12   0.28958    88.13
      19800   0.74823    51.44    1.8857   -68.94   0.19546   -30.79   0.30489    84.40
      20000   0.76202    48.72    1.8779   -71.27   0.19763   -31.62    0.3119    82.66