! Filename:  P:\Prog\Test\Noise\ATS_data\Testdata_Net\Split files Spar\BFU730_2W_B1_Bias5_2.5V_1mA_25mA_D.s2p
! Date/Time: Fri 29/Apr/2011 15:08:25
! BFU730_2W_B1_Bias5_2.5V_1mA_25mA_R.s2p
! MDIF S-parameter v. bias file
! BFU730_2W_B1_2.5V_1mA_25mA
! Date/time Thu Mar 17 13:38:09 2011
! VAR V_out= 2.5000
! VAR I_out= 7.5600
! VAR V_in= 0.7941
! VAR I_in= 0.0222
! Device data file deembeded for feedlines and parallel
! Original file: \Split files Spar\BFU730_2W_B1_Bias5_2.5V_1mA_25mA_R.s2p
! Feed-files: PR003V01_101208_Feed1.s2p, PR003V01_101208_Feed2.s2p
! Parallel-file: PR003V01_101208_Par.s2p
# MHz S MA R 50
!  Freq-MHz   S11-mag  S11-arg   S21-mag  S21-arg   S12-mag  S12-arg   S22-mag  S22-arg
         40   0.92436    -2.40     21.89   177.96 0.0013608    74.41    0.9933    -1.08
         50   0.92536    -3.05    21.944   177.09 0.0014679    88.05    0.9928    -1.51
         60   0.92449    -3.57    21.683   176.83 0.0020729    84.28   0.99417    -1.76
         70   0.92471    -4.12    21.733   176.73 0.0023826    80.99   0.99427    -2.14
         80   0.92404    -4.78    21.873   176.23 0.0026822    81.76   0.99422    -2.48
         90   0.92334    -5.39    21.867   175.61 0.0030339    82.35   0.99393    -2.83
        100   0.92316    -5.96    21.758   175.28 0.0033451    82.46    0.9936    -3.17
        120   0.92309    -7.22    21.789   174.40 0.0040738    82.91   0.99322    -3.86
        140   0.92242    -8.43     21.77   173.51 0.0047634    82.85   0.99278    -4.56
        160   0.92177    -9.62    21.662   172.54 0.0054359    82.64    0.9916    -5.22
        180   0.92142   -10.85    21.675   171.74 0.0061267    82.24   0.99059    -5.89
        200   0.92024   -12.07    21.644   170.75 0.0067985    82.06   0.98938    -6.57
        220   0.91877   -13.31    21.655   169.87 0.0075087    81.58   0.98797    -7.26
        240   0.91694   -14.54      21.7   168.88 0.0081813    81.13   0.98677    -7.93
        260   0.91639   -15.72    21.552   167.98 0.0088839    80.66   0.98502    -8.60
        280   0.91453   -16.96    21.545   167.07 0.0095473    80.39   0.98351    -9.26
        300   0.91334   -18.15    21.454   166.17   0.01023    79.57    0.9818    -9.95
        320   0.91156   -19.32    21.355   165.31  0.010904    78.99   0.97941   -10.61
        340    0.9095   -20.53     21.33   164.36  0.011568    78.47   0.97698   -11.27
        360   0.90798   -21.68    21.223   163.58  0.012245    77.89    0.9741   -11.93
        380    0.9059   -22.93     21.21   162.70   0.01291    77.25   0.97158   -12.58
        400   0.90343   -24.15    21.222   161.81  0.013548    76.55   0.96849   -13.19
        420   0.90028   -25.36    21.208   160.89  0.014226    76.01   0.96652   -13.80
        440   0.89865   -26.49    21.053   160.05  0.014852    75.38   0.96358   -14.47
        460   0.89591   -27.71    21.047   159.19  0.015511    74.87   0.96068   -15.09
        480   0.89359   -28.84    20.902   158.34  0.016128    74.08   0.95845   -15.78
        500   0.89073   -29.98    20.788   157.47  0.016738    73.42   0.95416   -16.45
        550   0.88411   -32.90    20.664   155.33  0.018234    71.86   0.94364   -17.93
        600   0.87603   -35.86    20.529   153.25  0.019775    70.45   0.93528   -19.39
        650   0.86903   -38.56    20.203   151.22  0.021189    68.92    0.9257   -20.90
        700   0.86165   -41.23    19.878   149.33  0.022582    67.41   0.91466   -22.40
        750    0.8538   -44.07    19.723   147.40  0.023902    66.04   0.90362   -23.73
        800   0.84492   -46.92    19.559   145.47  0.025266    64.65    0.8945   -24.99
        850   0.83645   -49.50    19.232   143.61  0.026534    63.23    0.8843   -26.38
        900   0.82813   -52.00    18.919   141.79  0.027649    61.92   0.87084   -27.67
        950   0.82026   -54.69     18.71   140.08  0.028781    60.71     0.859   -28.82
       1000   0.81082   -57.19    18.468   138.30  0.029948    59.45   0.84883   -30.02
       1050   0.80129   -59.70    18.201   136.57   0.03099    58.21    0.8371   -31.20
       1100   0.79352   -62.05    17.915   134.98  0.031976    57.10   0.82484   -32.32
       1150   0.78416   -64.62      17.7   133.26  0.032945    56.07    0.8133   -33.32
       1200   0.77506   -66.98    17.445   131.68  0.033909    54.95    0.8028   -34.36
       1250   0.76671   -69.22    17.127   130.13  0.034805    53.79    0.7916   -35.49
       1300   0.75872   -71.50    16.867   128.61  0.035611    52.80   0.77935   -36.43
       1350   0.75006   -73.82    16.643   127.08  0.036429    51.90   0.76826   -37.33
       1400   0.74157   -76.09    16.397   125.59  0.037216    50.95    0.7576   -38.25
       1450   0.73309   -78.27    16.144   124.15  0.037945    50.03    0.7465   -39.15
       1500   0.72554   -80.35    15.889   122.77  0.038633    49.17   0.73585   -39.98
       1550   0.71819   -82.37    15.634   121.41  0.039339    48.35   0.72595   -40.75
       1600   0.71012   -84.37     15.38   120.08  0.040026    47.54   0.71629   -41.55
       1650   0.70281   -86.39    15.117   118.78  0.040618    46.74   0.70589   -42.34
       1700   0.69588   -88.34    14.894   117.49  0.041167    46.02   0.69568   -43.06
       1750   0.68838   -90.27    14.665   116.21  0.041781    45.31   0.68634   -43.81
       1800   0.68205   -92.22    14.424   114.98  0.042339    44.55    0.6771   -44.55
       1850   0.67525   -94.15    14.204   113.74  0.042823    43.87   0.66738   -45.23
       1900   0.66821   -95.98    13.992   112.50  0.043336    43.25   0.65898   -45.88
       1950   0.66191   -97.71    13.757   111.36  0.043803    42.64   0.65061   -46.56
       2000    0.6559   -99.45    13.521   110.22  0.044268    42.00   0.64123   -47.29
       2050   0.64976  -101.13    13.298   109.16  0.044701    41.45   0.63163   -47.88
       2100   0.64475  -102.78    13.089   108.10  0.045149    40.93    0.6237   -48.42
       2150   0.63938  -104.43    12.888   107.08  0.045616    40.43   0.61508   -49.02
       2200   0.63381  -106.07    12.694   106.07  0.046041    39.89   0.60707   -49.44
       2250   0.62792  -107.70    12.498   105.01  0.046418    39.37   0.60053   -50.06
       2300     0.623  -109.25    12.298   104.01   0.04681    38.84   0.59294   -50.71
       2350   0.61895  -110.82      12.1   103.09  0.047132    38.37   0.58393   -51.30
       2400   0.61433  -112.42    11.926   102.16  0.047491    38.03   0.57537   -51.70
       2450   0.60887  -113.94    11.744   101.27  0.047888    37.64   0.56771   -52.12
       2500   0.60344  -115.46    11.574   100.40  0.048298    37.09    0.5607   -52.55
       2600    0.5951  -118.22    11.247    98.67  0.048922    36.22   0.54736   -53.32
       2700   0.58707  -121.04    10.931    96.93  0.049512    35.42   0.53472   -54.06
       2800   0.58048  -123.65    10.637    95.26      0.05    34.71   0.52312   -54.72
       2900   0.57339  -126.24    10.339    93.71  0.050479    34.08   0.51224   -55.28
       3000   0.56681  -128.70    10.083    92.18  0.051014    33.54   0.50269   -55.94
       3100   0.56211  -131.11    9.8352    90.61  0.051487    32.96   0.49422   -56.63
       3200     0.557  -133.41    9.5854    89.13  0.051977    32.49   0.48457   -57.31
       3300   0.55235  -135.84    9.3586    87.67  0.052417    31.94   0.47612   -58.11
       3400   0.54709  -138.06    9.1395    86.19  0.052913    31.56   0.46787   -58.80
       3500   0.54343  -140.26    8.9287    84.77   0.05334    31.12   0.45945   -59.46
       3600    0.5393  -142.56    8.7198    83.37  0.053813    30.73   0.45089   -60.01
       3700   0.53555  -144.52     8.522    81.99  0.054217    30.38   0.44333   -60.55
       3800   0.53168  -146.78    8.3368    80.60   0.05467    30.05   0.43553   -61.21
       3900   0.52829  -148.62    8.1526    79.31  0.055155    29.78   0.42924   -61.76
       4000   0.52535  -150.81    7.9742    77.98  0.055577    29.39   0.42198   -62.40
       4100   0.52244  -152.59    7.8038    76.74  0.055968    29.14   0.41477   -62.85
       4200   0.51953  -154.57    7.6452    75.46   0.05646    28.83   0.40868   -63.42
       4300   0.51713  -156.31    7.4921    74.24  0.056918    28.60   0.40342   -64.07
       4400   0.51474  -158.24    7.3405    72.97  0.057393    28.29   0.39786   -64.60
       4500   0.51269  -159.92    7.1954    71.79  0.057819    28.07   0.39248   -65.11
       4600   0.51084  -161.72    7.0551    70.63  0.058221    27.80   0.38642   -65.67
       4700   0.50935  -163.38    6.9246    69.44  0.058612    27.57   0.38076   -66.29
       4800    0.5075  -165.27    6.7895    68.25  0.059079    27.30   0.37628   -66.97
       4900   0.50571  -166.94    6.6686    67.08  0.059495    27.10   0.37124   -67.46
       5000   0.50385  -168.56    6.5454    65.98  0.059943    26.94   0.36603   -67.87
       5200   0.50094  -171.68    6.3109    63.69  0.060785    26.53   0.35657   -69.09
       5400   0.49876  -174.82    6.0987    61.58  0.061672    26.15   0.34867   -70.00
       5600   0.49614  -177.81    5.8928    59.39  0.062476    25.77   0.33958   -71.22
       5800   0.49432   179.32    5.7018    57.32  0.063299    25.47   0.33205   -72.14
       6000    0.4934   176.61    5.5274    55.24  0.064179    25.20    0.3245   -73.36
       6200   0.49296   174.01    5.3617    53.24  0.065071    25.00   0.31785   -74.38
       6400   0.49267   171.30    5.2048    51.23   0.06601    24.76   0.31081   -75.59
       6600   0.49221   168.61    5.0591    49.22  0.067009    24.50   0.30463   -76.59
       6800   0.49248   166.18    4.9254    47.32  0.068107    24.22   0.29897   -78.01
       7000   0.49218   163.80    4.7897    45.38  0.069061    24.15   0.29234   -79.03
       7200   0.49359   161.61    4.6767    43.51  0.070412    23.99   0.28807   -80.34
       7400   0.49455   159.12    4.5623    41.43  0.071547    23.50   0.28192   -81.99
       7600   0.49728   157.04    4.4612    39.55  0.072986    23.41   0.27812   -83.20
       7800   0.49683   154.17     4.335    37.43  0.073863    22.61   0.26794   -85.31
       8000   0.49532   152.57      4.24    36.07  0.074937    23.15   0.26584   -85.18
       8200   0.50054   150.01    4.1498    33.75  0.076749    22.35   0.25917   -87.92
       8400   0.50125   147.89    4.0556    32.03  0.078073    22.28   0.25657   -88.98
       8600   0.50055   145.48    3.9474    30.09  0.078934    21.21   0.24532   -91.15
       8800   0.50047   143.64    3.8638    28.29  0.080334    21.23   0.24099   -92.31
       9000   0.50324   142.30     3.794    26.76  0.081793    21.26   0.23849   -93.78
       9200   0.50475   140.21    3.7142    24.93  0.083174    20.67    0.2314   -95.70
       9400   0.50825   138.24    3.6421    23.04  0.084498    20.21   0.22751   -97.52
       9600   0.51305   136.39    3.5737    21.38  0.086138    20.04   0.21975   -99.21
       9800   0.51615   134.46    3.5197    19.60  0.087617    19.85   0.21655  -100.38
      10000   0.52156   132.64    3.4592    17.73  0.090454    19.34   0.21624  -102.67
      10200   0.52458   130.38    3.3925    15.79  0.091937    18.33   0.20731  -105.69
      10400    0.5264   128.54    3.3232    13.97  0.093438    17.64   0.20429  -107.99
      10600   0.52759   126.60    3.2605    12.25  0.094994    17.00    0.1957  -110.28
      10800   0.52923   125.11    3.2119    10.58  0.096603    16.55   0.19311  -112.09
      11000   0.53427   123.16    3.1554     8.87   0.09856    16.01   0.18826  -114.20
      11200   0.53965   121.45    3.1262     7.07   0.10053    15.47   0.18727  -117.26
      11400   0.54289   119.54    3.0622     5.13    0.1024    14.48    0.1809  -120.25
      11600   0.54561   117.61    3.0093     3.52   0.10365    13.81   0.17524  -123.58
      11800   0.55131   116.02    2.9659     1.70   0.10595    13.10   0.17105  -125.59
      12000   0.55216   114.54    2.9296     0.28   0.10696    12.54   0.16532  -128.63
      12200   0.56057   112.40    2.8968    -1.86   0.10981    11.89   0.16426  -131.00
      12400   0.56068   110.46    2.8458    -3.81   0.11195    10.82   0.15875  -135.43
      12600   0.56154   108.76    2.7886    -5.26    0.1127    10.23   0.15132  -137.73
      12800   0.57064   107.58    2.7697    -6.86   0.11601     9.76    0.1498  -139.29
      13000   0.56888   105.48    2.7281    -8.71    0.1169     8.53   0.14658  -143.61
      13200   0.57446   104.25    2.6739   -10.56    0.1189     7.66   0.14298  -147.28
      13400   0.57937   102.80     2.652   -12.35    0.1218     6.70    0.1458  -152.38
      13600   0.58625   101.00    2.6244   -14.27   0.12336     5.90   0.14524  -156.81
      13800   0.58651    99.41    2.5771   -16.03   0.12582     4.92   0.14268  -162.36
      14000   0.59415    97.64    2.5529   -17.48   0.12724     3.91   0.14129  -168.13
      14200   0.60161    96.25    2.5207   -19.40   0.12932     3.24   0.13857  -172.35
      14400   0.60335    93.92    2.4858   -21.24   0.13133     2.16     0.141   179.78
      14600   0.60926    92.43    2.4589   -22.97   0.13385     1.51   0.13578   177.02
      14800   0.61119    90.65    2.4294   -24.68   0.13614     0.44    0.1383   170.78
      15000   0.61866    89.25    2.3983   -26.48   0.13839    -0.60   0.13728   166.90
      15200   0.62222    87.77    2.3752   -28.14   0.14079    -1.78   0.14207   163.53
      15400   0.63461    86.20    2.3556   -29.96   0.14258    -2.73   0.14452   158.00
      15600   0.63809    85.11    2.3277   -31.88   0.14519    -3.87    0.1494   154.66
      15800   0.64602    83.25    2.3094   -33.55   0.14665    -5.07   0.15301   149.95
      16000   0.65837    81.85    2.2904   -35.82   0.14929    -6.03   0.16036   145.79
      16200   0.66551    79.96    2.2691   -37.92   0.15154    -7.09   0.16302   142.05
      16400   0.67354    78.19    2.2261   -40.08   0.15365    -7.98   0.16726   138.13
      16600   0.67501    76.54    2.1926   -41.68    0.1569    -9.31   0.17672   135.49
      16800   0.67997    74.80    2.1621   -43.21   0.15837   -10.29   0.17813   130.69
      17000   0.68167    73.10    2.1504   -44.97   0.16128   -11.62   0.19201   127.72
      17200   0.68461    71.29     2.131   -46.97   0.16357   -12.69   0.19443   123.21
      17400   0.69087    69.06    2.1164   -49.32   0.16536   -13.97   0.20696   120.15
      17600   0.68998    67.52    2.0756   -51.11   0.16849   -14.75   0.20963   115.21
      17800   0.69161    65.98    2.0594   -53.10   0.17178   -16.35   0.21602   113.01
      18000   0.70304    64.83    2.0222   -55.14   0.17407   -17.81    0.2237   111.11
      18200   0.70901    62.65     2.007   -57.46   0.17646   -19.15   0.23438   108.04
      18400   0.71579    61.12     1.962   -59.76   0.17867   -20.52   0.24029   106.28
      18600   0.70953    59.83    1.9058   -61.23    0.1797   -21.66   0.25608   103.45
      18800   0.71773    57.66    1.8799   -62.92    0.1826   -22.94    0.2645   100.83
      19000   0.71459    56.51    1.8536   -64.30   0.18611   -24.07   0.27388    98.06
      19200   0.72064    54.95      1.83   -66.11   0.18941   -25.76   0.28021    95.59
      19400   0.72544    53.88     1.805   -67.36   0.19183   -27.14   0.28426    94.08
      19600   0.73179    52.69    1.7786   -69.05   0.19324   -29.51   0.30248    93.78
      19800    0.7571    51.88    1.7823   -70.38   0.19308   -30.26   0.31677    89.98
      20000   0.76989    49.21    1.7734   -72.76    0.1953   -31.19   0.32368    88.17