! Filename:  P:\Prog\Test\Noise\ATS_data\Testdata_Net\BFU730\BFU730_2W_B1_2V2mA_D.s2p
! Date/Time: Fri 29/Apr/2011 14:13:52
! BFU730_2W_B1_2V2mA
! bias mode 1: Vout= 2.0003 V, Iout= 1.9650 mA, Vin= 0.7645 V, Iin= 0.0054 mA
! Date/time Thu Mar 17 09:34:41 2011
! Device data file deembeded for feedlines and parallel
! Original file: \BFU730\BFU730_2W_B1_2V2mA_R.s2p
! Feed-files: PR003V01_101208_Feed1.s2p, PR003V01_101208_Feed2.s2p
! Parallel-file: PR003V01_101208_Par.s2p
# MHz S MA R 50
!  Freq-MHz   S11-mag  S11-arg   S21-mag  S21-arg   S12-mag  S12-arg   S22-mag  S22-arg
         40   0.98113    -1.39    6.5419   179.22 0.0014228    86.48   0.99943    -0.65
         50   0.97697    -1.88    6.5659   178.44 0.0017565   100.76   0.99872    -0.84
         60   0.98073    -1.90    6.4837   178.13 0.0022808    91.38   0.99956    -0.95
         70   0.98137    -2.36    6.4989   178.25 0.0025307    88.51   0.99963    -1.13
         80   0.98079    -2.71    6.5528   177.94 0.0028904    88.64   0.99966    -1.29
         90   0.98102    -3.09    6.5567   177.48 0.0032821    88.59   0.99945    -1.47
        100     0.981    -3.42    6.5204   177.34 0.0036022    88.79   0.99928    -1.63
        120   0.98062    -4.14    6.5306   176.81 0.0043915    88.47   0.99946    -1.97
        140   0.98075    -4.81    6.5345   176.32 0.0051322    87.96   0.99933    -2.33
        160    0.9807    -5.50    6.5078   175.73 0.0058628    87.22   0.99911    -2.66
        180   0.98087    -6.20    6.5214   175.30 0.0066335    87.11     0.999    -3.00
        200   0.98005    -6.91    6.5228   174.67 0.0073546    86.97   0.99864    -3.34
        220   0.98001    -7.61     6.533   174.17 0.0081144    86.43   0.99847    -3.69
        240   0.97922    -8.31    6.5651   173.57 0.0088657    86.14   0.99836    -4.03
        260   0.97939    -8.99    6.5321   173.00  0.009647    85.82   0.99797    -4.37
        280   0.97878    -9.73    6.5395   172.46  0.010369    85.45   0.99773    -4.71
        300   0.97857   -10.42    6.5266   171.93  0.011141    85.02   0.99761    -5.07
        320   0.97819   -11.07    6.4961   171.41  0.011882    84.53   0.99717    -5.41
        340   0.97737   -11.79    6.5079   170.85  0.012635    84.03   0.99667    -5.76
        360   0.97718   -12.46    6.4847   170.39  0.013389    83.59   0.99597    -6.10
        380   0.97669   -13.14    6.4898   169.85  0.014142    83.19   0.99539    -6.45
        400   0.97612   -13.85     6.515   169.33  0.014908    82.62   0.99452    -6.77
        420   0.97547   -14.58    6.5375   168.75  0.015653    82.31   0.99454    -7.10
        440   0.97483   -15.23     6.509   168.23  0.016416    81.77   0.99387    -7.46
        460   0.97421   -15.97    6.5207   167.69  0.017141    81.36   0.99312    -7.77
        480   0.97366   -16.64    6.5026   167.19  0.017916    80.88   0.99321    -8.12
        500   0.97274   -17.32     6.461   166.65  0.018611    80.35   0.99194    -8.49
        550   0.97149   -19.05    6.4844   165.28  0.020459    79.12   0.98953    -9.33
        600   0.96886   -20.81    6.5039   163.99  0.022321    78.11   0.98787   -10.15
        650   0.96734   -22.48    6.4519   162.62  0.024145    76.95   0.98565   -11.02
        700   0.96494   -24.13     6.383   161.36  0.025968    75.75   0.98319   -11.90
        750   0.96313   -25.89    6.3919   160.10  0.027729    74.61   0.98022   -12.70
        800   0.96072   -27.64    6.4297   158.87  0.029554    73.58   0.97829   -13.46
        850   0.95796   -29.34      6.39   157.52  0.031347    72.44   0.97621   -14.29
        900   0.95572   -30.95    6.3184   156.25  0.033038    71.29   0.97225   -15.15
        950   0.95321   -32.66    6.3097   155.08  0.034705    70.24   0.96873   -15.94
       1000   0.95004   -34.34    6.3208   153.80  0.036464    69.16    0.9661   -16.72
       1050   0.94703   -35.97    6.2872   152.57  0.038117    68.06   0.96269   -17.54
       1100    0.9446   -37.59    6.2367   151.39  0.039725    67.00   0.95893   -18.35
       1150   0.94123   -39.30     6.237   150.12  0.041301    65.97   0.95505   -19.08
       1200   0.93783   -40.93    6.2166   148.93  0.042914    64.96   0.95222   -19.83
       1250   0.93476   -42.54    6.1639   147.68  0.044541    63.87   0.94901   -20.66
       1300   0.93215   -44.13     6.118   146.49  0.046035    62.79   0.94426   -21.44
       1350   0.92859   -45.82    6.1195   145.28  0.047486    61.86   0.93972   -22.18
       1400   0.92497   -47.49    6.1041   144.10  0.048992    60.82   0.93597   -22.93
       1450   0.92156   -49.10    6.0696   142.91  0.050443    59.78   0.93186   -23.70
       1500   0.91821   -50.68     6.034   141.79  0.051856    58.77   0.92765   -24.43
       1550   0.91461   -52.24    6.0104   140.57  0.053235    57.88   0.92393   -25.10
       1600   0.91114   -53.83    5.9874   139.42  0.054665    56.89   0.92043   -25.83
       1650   0.90721   -55.43    5.9351   138.28  0.055966    55.89   0.91542   -26.57
       1700   0.90422   -56.93     5.901   137.15  0.057181    54.96   0.91027   -27.27
       1750    0.9006   -58.49    5.8805   136.00  0.058474    54.06   0.90581   -27.97
       1800   0.89651   -60.07    5.8387   134.86  0.059794    53.07   0.90199   -28.67
       1850   0.89277   -61.66    5.8023   133.72  0.060974    52.11   0.89712   -29.38
       1900   0.88925   -63.23    5.7852   132.57  0.062147    51.27   0.89266   -30.05
       1950   0.88519   -64.66    5.7348   131.52  0.063324    50.39   0.88879   -30.73
       2000    0.8813   -66.19    5.6906   130.39  0.064517    49.48   0.88425   -31.46
       2050   0.87692   -67.69    5.6574   129.31  0.065669    48.58   0.87925   -32.11
       2100   0.87348   -69.13    5.6225   128.22  0.066766    47.74   0.87452   -32.78
       2150   0.87005   -70.63    5.5925   127.22  0.067857    46.92   0.86901   -33.43
       2200   0.86584   -72.09    5.5547   126.18  0.068855    46.02   0.86426   -34.00
       2250   0.86108   -73.57    5.5226   125.08  0.069889    45.18   0.86023   -34.67
       2300   0.85727   -75.01    5.4824   124.04  0.070957    44.34   0.85585   -35.34
       2350   0.85386   -76.37    5.4247   123.09  0.071909    43.52   0.85002   -36.01
       2400    0.8503   -77.84    5.3983   122.07  0.072857    42.71   0.84395   -36.54
       2450   0.84566   -79.26    5.3703   121.06  0.073853    41.91   0.83931   -37.11
       2500   0.84117   -80.61     5.325   120.05  0.074868    40.91   0.83467   -37.76
       2600   0.83453   -83.34    5.2489   118.15  0.076433    39.27   0.82523   -38.86
       2700    0.8262   -86.11    5.1806   116.20   0.07802    37.62   0.81637   -39.94
       2800   0.81983   -88.74    5.1086   114.28  0.079322    36.07   0.80698   -40.99
       2900   0.81196   -91.41    5.0265   112.40  0.080543    34.54   0.79815   -42.07
       3000   0.80484   -93.93    4.9697   110.57  0.081712    33.17   0.79002   -43.13
       3100   0.80003   -96.46    4.8879   108.81  0.082842    31.74   0.78228   -44.14
       3200   0.79322   -98.90    4.8172   107.04  0.083922    30.43   0.77346   -45.15
       3300   0.78705  -101.49    4.7562   105.28  0.084974    28.97   0.76634   -46.33
       3400   0.77973  -103.92    4.6966   103.49  0.085972    27.74   0.75838   -47.36
       3500   0.77453  -106.26    4.6252   101.81  0.086807    26.47   0.74963   -48.36
       3600   0.76819  -108.79    4.5605   100.11  0.087639    25.26   0.74096   -49.23
       3700   0.76355  -110.95    4.4886    98.46  0.088392    24.01   0.73462   -50.14
       3800   0.75686  -113.43    4.4356    96.77  0.089129    22.82   0.72574   -51.14
       3900   0.75104  -115.61    4.3757    95.15  0.089785    21.76   0.71873   -52.02
       4000   0.74552  -117.99    4.3118    93.50  0.090421    20.52    0.7107   -53.04
       4100   0.74116  -120.09    4.2458    91.98  0.090815    19.43   0.70322   -53.82
       4200   0.73602  -122.30    4.1912    90.39  0.091442    18.28    0.6966   -54.72
       4300   0.73201  -124.42    4.1361    88.84  0.091866    17.23   0.69014   -55.66
       4400    0.7268  -126.69    4.0809    87.23   0.09233    16.15   0.68288   -56.56
       4500   0.72342  -128.63    4.0217    85.81  0.092576    15.20   0.67641   -57.35
       4600   0.71833  -130.76    3.9633    84.31  0.092813    14.16   0.66944   -58.16
       4700   0.71508  -132.78    3.9126    82.82  0.093043    13.16   0.66296   -59.08
       4800   0.71035  -134.95    3.8599    81.29  0.093338    12.13   0.65721   -60.01
       4900   0.70648  -136.95    3.8065    79.85  0.093506    11.17   0.65159   -60.74
       5000    0.7024  -138.92    3.7557    78.48  0.093623    10.28   0.64462   -61.47
       5200   0.69507  -142.75    3.6596    75.56   0.09373     8.49   0.63389   -63.27
       5400   0.68858  -146.56     3.562    72.91  0.093648     6.72   0.62233   -64.71
       5600   0.68152  -150.22    3.4685    70.12   0.09347     5.04   0.61171   -66.49
       5800   0.67548  -153.85      3.38    67.53  0.092971     3.42   0.60198   -67.90
       6000     0.671  -157.27    3.2957    64.88  0.092519     1.94   0.59232   -69.59
       6200   0.66699  -160.63    3.2162    62.38  0.091959     0.63   0.58458   -71.05
       6400   0.66294  -164.01    3.1392    59.86  0.091253    -0.73   0.57518   -72.67
       6600   0.65866  -167.31    3.0673    57.34  0.090542    -1.96     0.567   -74.23
       6800   0.65595  -170.50    2.9971    55.02  0.089787    -2.98    0.5584   -75.74
       7000   0.65272  -173.49    2.9275    52.55  0.088744    -4.04   0.55071   -77.42
       7200   0.65205  -176.40    2.8718    50.33  0.088075    -4.65   0.54426   -78.88
       7400   0.64988  -179.49    2.8102    47.75  0.087182    -5.76   0.53599   -80.83
       7600   0.64955   177.75    2.7581    45.52  0.086742    -6.13   0.53147   -82.26
       7800   0.64489   174.40    2.6905    43.00  0.085844    -7.52    0.5201   -84.34
       8000   0.64222   172.13    2.6366    41.14  0.083465    -7.39   0.51408   -85.33
       8200   0.64458   168.91    2.5892    38.53  0.083961    -8.03    0.5072   -87.62
       8400   0.64392   166.36    2.5368    36.43   0.08264    -8.20   0.50112   -89.08
       8600    0.6404   163.45    2.4786    34.12   0.08195    -9.61    0.4911   -91.09
       8800   0.63866   160.97    2.4314    31.93  0.080685    -9.40   0.48485   -92.67
       9000   0.63994   158.89    2.3898    30.03  0.079501    -8.96   0.48199   -94.29
       9200   0.63993   156.25    2.3465    27.94  0.078876    -9.25   0.47274   -96.08
       9400   0.64119   153.81    2.3043    25.63  0.077912    -9.39   0.46975   -98.07
       9600   0.64336   151.35    2.2645    23.67  0.077208    -8.84   0.46131   -99.89
       9800   0.64464   148.86    2.2315    21.52  0.076275    -8.43   0.45835  -101.65
      10000    0.6476   146.61    2.1948    19.42  0.077183    -7.60   0.45637  -103.68
      10200   0.64901   143.95    2.1564    17.15  0.077033    -8.04   0.44685  -106.29
      10400   0.64989   141.86    2.1147    15.06  0.076642    -7.98   0.44435  -108.26
      10600   0.64864   139.49    2.0791    13.07  0.076224    -7.77   0.43426  -110.50
      10800   0.65021   137.66     2.049    11.04  0.075809    -7.16   0.43388  -112.59
      11000   0.65147   135.21     2.021     9.15  0.076044    -6.43   0.42722  -114.45
      11200   0.65622   133.18    1.9971     6.93   0.07629    -5.55   0.42773  -117.31
      11400   0.65813   130.93    1.9606     4.84  0.076784    -5.58    0.4205  -119.65
      11600   0.65999   128.71    1.9262     2.85  0.076423    -5.00   0.41378  -122.29
      11800   0.66525   126.72    1.8963     0.86  0.077444    -4.18   0.41063  -124.26
      12000   0.66463   124.80     1.876    -0.85  0.077265    -3.33    0.4031  -126.63
      12200   0.67051   122.37    1.8518    -3.14  0.079322    -2.53   0.40373  -129.05
      12400   0.66844   120.13    1.8249    -5.30  0.080607    -2.65   0.39693  -131.90
      12600   0.66879   118.02    1.7857    -7.11  0.080043    -1.67   0.38996  -134.25
      12800   0.67762   116.55    1.7742    -8.86  0.083076    -0.42   0.38754  -136.16
      13000   0.67518   114.15    1.7454   -10.95  0.083523    -0.64   0.38293  -138.98
      13200   0.67988   112.72    1.7124   -12.95  0.084869    -0.48   0.37828  -141.95
      13400    0.6826   110.72    1.6994   -14.94  0.088357    -0.20   0.37967  -144.93
      13600   0.68818   108.60    1.6811   -17.13  0.089718     0.00   0.37676  -148.18
      13800   0.68628   106.84    1.6544   -19.05  0.092053    -0.08    0.3731  -151.50
      14000   0.69233   104.67    1.6375   -20.94  0.093599    -0.19   0.36999  -154.83
      14200   0.69769   103.22    1.6146   -22.96  0.095846     0.06   0.36631  -157.82
      14400   0.69811   100.67    1.5933   -25.14  0.097729    -0.36   0.36578  -162.28
      14600   0.70341    99.05    1.5695   -27.05   0.10044    -0.05   0.35911  -164.75
      14800   0.70534    96.90    1.5481   -28.95   0.10318    -0.20   0.35948  -168.70
      15000   0.71298    95.30    1.5253   -30.90   0.10575    -0.66    0.3553  -171.41
      15200   0.71615    93.62    1.5103   -32.66   0.10897    -1.07   0.35818  -174.74
      15400   0.72597    91.75    1.4959   -34.71   0.11151    -1.71   0.35734  -177.92
      15600   0.72854    90.49    1.4759   -36.69   0.11459    -2.16   0.36134   178.70
      15800   0.73524    88.13    1.4639   -38.63   0.11728    -3.05   0.36272   175.40
      16000   0.74389    86.62    1.4496   -40.91   0.12047    -3.80   0.36633   171.92
      16200   0.74969    84.61    1.4346   -43.26   0.12312    -4.55   0.37022   168.40
      16400   0.75637    82.83    1.4054   -45.47   0.12589    -5.17   0.36859   164.94
      16600   0.75587    81.15    1.3857   -47.28   0.12972    -6.19   0.37692   161.67
      16800   0.75961    79.21    1.3626   -49.05   0.13211    -6.87   0.37244   158.16
      17000   0.75913    77.45     1.353   -50.99   0.13583    -8.01   0.38528   154.66
      17200    0.7608    75.47    1.3363   -53.05   0.13878    -8.94   0.38243   150.92
      17400   0.76562    73.13    1.3211   -55.63   0.14125   -10.24   0.39553   147.21
      17600   0.76473    71.55     1.294   -57.29   0.14482   -10.55   0.39047   143.35
      17800   0.76703    69.58    1.2809   -59.45   0.14941   -12.07    0.3979   139.94
      18000   0.77665    68.25     1.258   -61.44   0.15257   -13.51   0.40239   137.24
      18200   0.78142    65.92    1.2445   -63.90   0.15589   -14.91   0.41119   133.29
      18400   0.78773    64.45     1.212   -66.14   0.15839   -16.31   0.41634   130.30
      18600    0.7801    62.99    1.1793   -67.71    0.1605   -17.20   0.42379   126.71
      18800   0.78707    60.81    1.1588   -69.50   0.16363   -18.61   0.43183   123.73
      19000   0.78365    59.52     1.144   -70.89   0.16829   -19.53   0.43797   120.59
      19200   0.78977    57.58    1.1269   -72.77   0.17269   -21.15    0.4436   117.50
      19400   0.79372    56.33    1.1096   -74.18   0.17655   -22.57   0.44796   115.04
      19600    0.8005    54.84    1.0919   -76.04    0.1792   -25.10     0.462   112.91
      19800    0.8197    53.96     1.088   -77.58      0.18   -26.29   0.47283   109.02
      20000   0.82808    51.50    1.0754   -80.08   0.18215   -27.35   0.47969   106.99

!  
! Device Noise Parameters
!  Freq-MHz   Fmin-dB  Gopt-mag  Gopt-arg   rn_normalized
	400	0.3513	0.74041	7.63	0.2414
	420	0.3533	0.73738	8.06	0.2414
	440	0.3552	0.73439	8.49	0.2414
	460	0.3572	0.73143	8.92	0.2414
	480	0.3591	0.72850	9.35	0.2414
	500	0.3610	0.72561	9.78	0.2414
	550	0.3659	0.71853	10.86	0.2414
	600	0.3708	0.71166	11.94	0.2413
	650	0.3756	0.70500	13.03	0.2411
	700	0.3805	0.69853	14.11	0.2410
	750	0.3854	0.69226	15.21	0.2408
	800	0.3903	0.68619	16.30	0.2405
	850	0.3952	0.68029	17.39	0.2403
	900	0.4001	0.67458	18.49	0.2400
	950	0.4051	0.66905	19.58	0.2396
	1000	0.4100	0.66369	20.68	0.2392
	1050	0.4149	0.65850	21.77	0.2388
	1100	0.4199	0.65347	22.87	0.2383
	1150	0.4248	0.64860	23.97	0.2379
	1200	0.4298	0.64388	25.06	0.2373
	1250	0.4348	0.63931	26.15	0.2368
	1300	0.4398	0.63489	27.24	0.2362
	1350	0.4448	0.63060	28.33	0.2356
	1400	0.4498	0.62645	29.42	0.2349
	1450	0.4548	0.62243	30.51	0.2342
	1500	0.4598	0.61853	31.59	0.2335
	1550	0.4648	0.61475	32.67	0.2328
	1600	0.4698	0.61109	33.75	0.2320
	1650	0.4749	0.60754	34.82	0.2312
	1700	0.4799	0.60410	35.89	0.2304
	1750	0.4850	0.60075	36.96	0.2295
	1800	0.4901	0.59751	38.02	0.2286
	1850	0.4952	0.59435	39.08	0.2277
	1900	0.5002	0.59129	40.14	0.2268
	1950	0.5053	0.58831	41.19	0.2258
	2000	0.5104	0.58541	42.23	0.2248
	2050	0.5155	0.58259	43.28	0.2238
	2100	0.5207	0.57984	44.31	0.2227
	2150	0.5258	0.57716	45.35	0.2217
	2200	0.5309	0.57455	46.38	0.2206
	2250	0.5361	0.57200	47.40	0.2195
	2300	0.5412	0.56950	48.42	0.2183
	2350	0.5464	0.56706	49.44	0.2172
	2400	0.5516	0.56467	50.45	0.2160
	2450	0.5567	0.56233	51.46	0.2148
	2500	0.5619	0.56004	52.46	0.2135
	2600	0.5723	0.55557	54.45	0.2110
	2700	0.5828	0.55125	56.43	0.2084
	2800	0.5932	0.54706	58.39	0.2058
	2900	0.6037	0.54297	60.34	0.2030
	3000	0.6143	0.53898	62.27	0.2002
	3100	0.6248	0.53506	64.19	0.1974
	3200	0.6354	0.53120	66.09	0.1945
	3300	0.6461	0.52739	67.99	0.1915
	3400	0.6568	0.52363	69.88	0.1885
	3500	0.6675	0.51989	71.76	0.1854
	3600	0.6782	0.51618	73.63	0.1823
	3700	0.6890	0.51249	75.50	0.1791
	3800	0.6998	0.50882	77.37	0.1760
	3900	0.7106	0.50516	79.24	0.1728
	4000	0.7215	0.50151	81.10	0.1695
	4100	0.7324	0.49787	82.97	0.1662
	4200	0.7434	0.49425	84.84	0.1630
	4300	0.7543	0.49064	86.71	0.1597
	4400	0.7653	0.48705	88.60	0.1564
	4500	0.7764	0.48349	90.49	0.1531
	4600	0.7875	0.47996	92.38	0.1497
	4700	0.7986	0.47647	94.29	0.1464
	4800	0.8097	0.47302	96.21	0.1431
	4900	0.8209	0.46962	98.15	0.1398
	5000	0.8321	0.46629	100.09	0.1365
	5200	0.8547	0.45985	104.03	0.1300
	5400	0.8773	0.45379	108.04	0.1236
	5600	0.9001	0.44820	112.11	0.1173
	5800	0.9231	0.44318	116.25	0.1112
	6000	0.9461	0.43883	120.46	0.1052
	6200	0.9694	0.43524	124.74	0.0995
	6400	0.9927	0.43251	129.07	0.0940
	6600	1.0162	0.43071	133.44	0.0889
	6800	1.0398	0.42993	137.84	0.0840
	7000	1.0636	0.43021	142.26	0.0795
	7200	1.0874	0.43158	146.66	0.0754
	7400	1.1115	0.43407	151.04	0.0717
	7600	1.1356	0.43765	155.37	0.0684
	7800	1.1599	0.44231	159.64	0.0657
	8000	1.1844	0.44799	163.83	0.0634
	8200	1.2089	0.45463	167.92	0.0616
	8400	1.2336	0.46214	171.91	0.0605
	8600	1.2585	0.47043	175.79	0.0599
	8800	1.2834	0.47940	179.55	0.0600
	9000	1.3086	0.48893	183.19	0.0607
	9200	1.3338	0.49890	186.70	0.0622
	9400	1.3592	0.50920	190.11	0.0643
	9600	1.3847	0.51971	193.40	0.0672
	9800	1.4103	0.53032	196.58	0.0710
	10000	1.4361	0.54090	199.67	0.0755
	10200	1.4621	0.55135	202.67	0.0809
	10400	1.4881	0.56157	205.58	0.0872
	10600	1.5143	0.57145	208.43	0.0943
	10800	1.5406	0.58090	211.22	0.1025
	11000	1.5671	0.58985	213.96	0.1116
	11200	1.5937	0.59821	216.67	0.1217
	11400	1.6205	0.60591	219.34	0.1329
	11600	1.6473	0.61289	222.00	0.1452
	11800	1.6743	0.61911	224.66	0.1585
	12000	1.7015	0.62452	227.33	0.1730
	12200	1.7288	0.62911	230.03	0.1887
	12400	1.7562	0.63286	232.76	0.2056
	12600	1.7837	0.63578	235.54	0.2236
	12800	1.8114	0.63789	238.38	0.2430
	13000	1.8393	0.63925	241.31	0.2637
	13200	1.8672	0.63993	244.33	0.2856
	13400	1.8953	0.64002	247.47	0.3090
	13600	1.9235	0.63967	250.74	0.3337
	13800	1.9519	0.63904	254.16	0.3599
	14000	1.9804	0.63836	257.74	0.3875