! Filename:  P:\Prog\Test\Noise\ATS_data\Testdata_Net\BFU730\BFU730_2W_B1_2V10mA_D.s2p
! Date/Time: Fri 29/Apr/2011 14:14:10
! BFU730_2W_B1_2V10mA
! bias mode 1: Vout= 2.0003 V, Iout= 9.9850 mA, Vin= 0.8032 V, Iin= 0.0315 mA
! Date/time Wed Mar 16 16:41:59 2011
! Device data file deembeded for feedlines and parallel
! Original file: \BFU730\BFU730_2W_B1_2V10mA_R.s2p
! Feed-files: PR003V01_101208_Feed1.s2p, PR003V01_101208_Feed2.s2p
! Parallel-file: PR003V01_101208_Par.s2p
# MHz S MA R 50
!  Freq-MHz   S11-mag  S11-arg   S21-mag  S21-arg   S12-mag  S12-arg   S22-mag  S22-arg
         40   0.90153    -2.84    27.987   177.77 0.0013746    85.00   0.99567    -1.24
         50   0.89944    -3.59    28.061   176.79 0.0013378    87.22   0.99535    -1.80
         60   0.90225    -4.11    27.721   176.45 0.0020233    92.86   0.99661    -2.09
         70   0.90219    -4.87    27.786   176.28 0.0023928    87.20   0.99674    -2.55
         80   0.90126    -5.63    27.963   175.68 0.0027322    86.99   0.99668    -2.98
         90   0.90031    -6.37    27.945   174.97 0.0031134    86.54   0.99634    -3.43
        100   0.89995    -7.05    27.804   174.55 0.0034046    86.21   0.99596    -3.84
        120   0.89972    -8.55    27.841   173.49 0.0041337    85.95   0.99494    -4.70
        140   0.89902    -9.96    27.794   172.45 0.0048745    85.25   0.99433    -5.56
        160   0.89786   -11.39    27.653   171.29 0.0055666    84.27   0.99261    -6.39
        180   0.89733   -12.84    27.641   170.34 0.0062681    83.68   0.99101    -7.22
        200    0.8954   -14.28    27.578   169.19 0.0069308    83.24   0.98913    -8.05
        220   0.89361   -15.73    27.566   168.16  0.007661    82.54   0.98694    -8.88
        240   0.89103   -17.20    27.581   167.02 0.0083437    81.76   0.98494    -9.70
        260   0.89016   -18.55    27.386   165.97 0.0090174    81.01   0.98234   -10.51
        280   0.88758   -20.02    27.333   164.92 0.0097015    80.30   0.97988   -11.33
        300   0.88559   -21.46      27.2   163.87  0.010415    79.54   0.97716   -12.17
        320   0.88316   -22.81    27.047   162.87  0.011069    78.69   0.97369   -12.98
        340   0.88039   -24.23    26.976   161.77  0.011725    77.95   0.97008   -13.77
        360    0.8786   -25.61     26.82   160.88  0.012383    77.27   0.96597   -14.56
        380   0.87545   -27.07    26.769   159.86  0.013058    76.52   0.96209   -15.35
        400   0.87165   -28.46    26.732   158.83  0.013707    75.71   0.95784   -16.08
        420   0.86772   -29.90    26.669   157.76  0.014328    74.91   0.95459   -16.83
        440   0.86544   -31.19    26.445   156.83  0.014965    74.26   0.95034   -17.63
        460   0.86174   -32.62    26.389   155.85  0.015605    73.59     0.946   -18.36
        480   0.85868   -33.93    26.176   154.89  0.016204    72.68   0.94231   -19.15
        500   0.85452   -35.24     26.01   153.91  0.016786    72.00   0.93639   -19.92
        550   0.84571   -38.61    25.736   151.50  0.018195    70.26   0.92214   -21.66
        600   0.83504   -41.99    25.436   149.17  0.019649    68.61   0.91016   -23.36
        650   0.82593   -45.07    24.952   146.94  0.021017    66.86   0.89673   -25.10
        700   0.81619   -48.11    24.463   144.83  0.022261    65.32    0.8819   -26.79
        750   0.80643   -51.33    24.147   142.71  0.023494    63.83   0.86734   -28.27
        800   0.79537   -54.47    23.805   140.61  0.024719    62.41   0.85468   -29.72
        850    0.7853   -57.36    23.315   138.61  0.025857    60.88   0.84068   -31.24
        900   0.77472   -60.18    22.858   136.66  0.026841    59.59   0.82409   -32.63
        950   0.76482   -63.09    22.491   134.81  0.027863    58.40   0.80962   -33.88
       1000   0.75424   -65.83    22.082   132.96  0.028846    57.13    0.7963   -35.15
       1050   0.74315   -68.55    21.662   131.15  0.029755    55.94   0.78175   -36.42
       1100   0.73412   -71.12    21.243   129.48  0.030587    54.85   0.76729   -37.56
       1150    0.7235   -73.85    20.882   127.70  0.031411    53.85   0.75356   -38.63
       1200   0.71336   -76.37    20.485   126.09  0.032218    52.80   0.74058   -39.71
       1250   0.70456   -78.79    20.048   124.51  0.032976    51.78   0.72709   -40.82
       1300   0.69531   -81.22    19.671   122.95  0.033655    50.85   0.71341   -41.80
       1350   0.68639   -83.60    19.317   121.44  0.034337    50.04   0.70094   -42.70
       1400   0.67782   -85.96    18.955   119.95  0.034993    49.16   0.68864   -43.62
       1450    0.6693   -88.22    18.592   118.52  0.035592    48.40   0.67622   -44.51
       1500   0.66113   -90.39    18.233   117.14   0.03615    47.66   0.66451   -45.31
       1550   0.65367   -92.50     17.88   115.79  0.036726    46.93    0.6534   -46.08
       1600   0.64601   -94.50    17.531   114.52  0.037292    46.26   0.64278   -46.84
       1650   0.63856   -96.60    17.187   113.23  0.037823    45.60   0.63165   -47.60
       1700   0.63158   -98.61    16.879   111.96  0.038292    44.99   0.62097   -48.28
       1750   0.62486  -100.51    16.565   110.73  0.038784    44.43   0.61103   -48.98
       1800   0.61853  -102.50    16.254   109.53  0.039232    43.79   0.60116   -49.71
       1850   0.61154  -104.43    15.956   108.34  0.039653    43.25   0.59104   -50.33
       1900   0.60574  -106.28    15.669   107.17  0.040075    42.75   0.58229   -50.95
       1950   0.59948  -108.00     15.37   106.06  0.040461    42.24   0.57349   -51.60
       2000   0.59389  -109.70    15.073   104.99  0.040854    41.79   0.56407   -52.29
       2050   0.58868  -111.38    14.791   103.99  0.041228    41.37   0.55404   -52.84
       2100    0.5843  -113.02    14.529   102.98  0.041655    40.97   0.54607   -53.30
       2150    0.5798  -114.63    14.276   102.02  0.041989    40.63   0.53772   -53.87
       2200   0.57457  -116.28    14.037   101.06  0.042394    40.23   0.52953   -54.26
       2250   0.56963  -117.90     13.79   100.05  0.042783    39.78   0.52301   -54.81
       2300   0.56538  -119.37    13.543    99.11  0.043073    39.37   0.51537   -55.46
       2350    0.5623  -120.93    13.304    98.25  0.043364    39.11   0.50647   -56.02
       2400   0.55859  -122.51    13.086    97.38  0.043736    38.88   0.49838   -56.37
       2450   0.55405  -124.01    12.864    96.56  0.044095    38.64   0.49073   -56.74
       2500   0.54961  -125.53    12.665    95.75  0.044473    38.27   0.48373   -57.08
       2600   0.54214  -128.18    12.273    94.12  0.045094    37.60   0.47066   -57.79
       2700   0.53571  -130.89    11.898    92.50  0.045662    37.05   0.45836   -58.39
       2800   0.53009  -133.45    11.547    90.94  0.046187    36.55   0.44729   -58.97
       2900   0.52459  -135.90    11.203    89.48  0.046687    36.18   0.43708   -59.40
       3000   0.51948  -138.28    10.902    88.07  0.047275    35.87   0.42824   -59.96
       3100   0.51596  -140.59    10.618    86.58  0.047833    35.48   0.41999   -60.54
       3200   0.51169  -142.84    10.331    85.18  0.048352    35.14   0.41092   -61.19
       3300   0.50861  -145.05    10.068    83.82  0.048874    34.80   0.40308   -61.93
       3400   0.50474  -147.23    9.8165    82.43   0.04945    34.56   0.39573   -62.57
       3500   0.50201  -149.35    9.5797    81.08  0.049985    34.31   0.38775   -63.15
       3600   0.49922  -151.49    9.3439    79.77  0.050547    34.06   0.37942   -63.65
       3700   0.49616  -153.46    9.1197    78.44  0.051053    33.84   0.37242   -64.15
       3800   0.49372  -155.47    8.9094    77.16  0.051606    33.62   0.36565   -64.72
       3900   0.49111  -157.25    8.7041    75.93  0.052222    33.48   0.35992   -65.27
       4000   0.48939  -159.27    8.5055    74.68  0.052784    33.25   0.35306   -65.81
       4100   0.48707  -161.05    8.3154    73.49  0.053283    33.10   0.34611   -66.21
       4200    0.4853  -162.86    8.1368    72.29  0.053868    32.90   0.34071   -66.76
       4300   0.48386  -164.53    7.9661    71.13  0.054478    32.73   0.33609   -67.33
       4400   0.48195  -166.29    7.7988    69.95  0.055138    32.48   0.33095   -67.81
       4500   0.48102  -167.88    7.6387    68.82  0.055676    32.32   0.32583   -68.28
       4600   0.47984  -169.59     7.484    67.72  0.056222    32.11   0.32048   -68.85
       4700   0.47904  -171.14    7.3396    66.59  0.056778    31.94   0.31525   -69.45
       4800   0.47765  -172.90    7.1921    65.47  0.057366    31.71   0.31104   -70.05
       4900   0.47704  -174.47    7.0595    64.34   0.05795    31.53   0.30657   -70.53
       5000   0.47547  -176.00    6.9247    63.29   0.05855    31.39   0.30157   -70.93
       5200   0.47399  -178.96    6.6667    61.11  0.059721    31.08   0.29291   -72.12
       5400   0.47286   178.14    6.4387    59.08   0.06093    30.65   0.28556   -73.01
       5600   0.47203   175.27    6.2152    56.99  0.062083    30.31   0.27688   -74.18
       5800   0.47066   172.63    6.0079    55.02  0.063238    30.01   0.26996   -75.09
       6000   0.47087   170.10    5.8202    53.02  0.064471    29.67   0.26324   -76.25
       6200   0.47152   167.70     5.642    51.10  0.065723    29.41   0.25678   -77.21
       6400   0.47162   165.23    5.4744    49.18  0.067006    29.07   0.25063   -78.47
       6600   0.47238   162.68    5.3161    47.26  0.068352    28.72   0.24423   -79.37
       6800   0.47293   160.46     5.174    45.41  0.069765    28.26   0.23906   -80.87
       7000   0.47327   158.12     5.027    43.54  0.071057    28.07   0.23299   -81.90
       7200   0.47534   156.02    4.9035    41.71  0.072701    27.69   0.22845   -83.35
       7400   0.47735   153.74    4.7813    39.71  0.074146    27.05   0.22276   -84.95
       7600   0.48086   151.77    4.6732    37.84  0.075835    26.71   0.21886   -86.56
       7800   0.48084   149.14    4.5393    35.81  0.076977    25.90   0.20937   -88.49
       8000   0.48006   147.63     4.439    34.52  0.078456    26.11   0.20794   -88.37
       8200   0.48521   145.31    4.3421    32.25  0.080423    25.15   0.20107   -91.33
       8400   0.48645   143.23    4.2424    30.57  0.082054    24.87   0.19873   -92.49
       8600   0.48627   141.02    4.1258    28.72  0.083102    23.76   0.18841   -94.63
       8800   0.48576   139.25    4.0361    26.94  0.084782    23.49   0.18488   -96.22
       9000   0.48937   137.98    3.9639    25.44  0.086545    23.27   0.18216   -97.83
       9200    0.4911   136.02     3.878    23.67  0.088073    22.52   0.17461   -99.77
       9400   0.49503   134.16    3.8022    21.83   0.08955    21.87   0.17085  -101.92
       9600    0.5004   132.48    3.7291    20.23  0.091405    21.47   0.16447  -103.68
       9800   0.50303   130.66    3.6732    18.48    0.0931    21.06   0.16098  -105.09
      10000   0.50928   128.91    3.6081    16.64  0.095982    20.33   0.16052  -107.60
      10200   0.51176   126.77    3.5395    14.75  0.097656    19.21   0.15266  -111.07
      10400   0.51374   124.85    3.4645    12.97  0.099238    18.34   0.14865  -114.02
      10600   0.51542   123.09    3.3985    11.31   0.10094    17.56   0.14213  -116.48
      10800   0.51847   121.52    3.3458     9.66   0.10263    16.93   0.13743  -119.08
      11000    0.5244   119.75    3.2831     7.99   0.10468    16.20   0.13451  -121.07
      11200   0.52955   118.21    3.2548     6.24   0.10674    15.47   0.13268  -125.01
      11400    0.5323   116.32    3.1863     4.32    0.1087    14.32   0.12758  -129.15
      11600    0.5346   114.55    3.1324     2.79   0.11007    13.54    0.1226  -132.82
      11800   0.54062   112.87    3.0852     0.96   0.11236    12.60   0.11885  -136.17
      12000   0.54233   111.54    3.0478    -0.40   0.11342    11.90   0.11471  -140.04
      12200   0.55089   109.45    3.0124    -2.53    0.1162    11.10   0.11252  -143.02
      12400   0.55182   107.62    2.9575    -4.44   0.11836     9.97   0.11032  -149.06
      12600   0.55147   106.19    2.8995    -5.80   0.11925     9.20    0.1015  -152.46
      12800   0.55944   104.90    2.8802    -7.43   0.12245     8.56   0.10243  -153.96
      13000   0.55724   102.88    2.8355    -9.22   0.12338     7.20  0.099966  -159.92
      13200   0.56269   101.52    2.7793   -11.09   0.12539     6.21  0.099411  -164.97
      13400   0.56946   100.20    2.7554   -12.77   0.12807     5.16   0.10387  -170.59
      13600    0.5768    98.55    2.7267   -14.67   0.12961     4.25   0.10593  -175.41
      13800    0.5787    97.00    2.6746   -16.40   0.13188     3.17   0.10596   176.80
      14000   0.58575    95.45    2.6502   -17.76   0.13328     2.11   0.10787   170.74
      14200   0.59285    93.92    2.6167   -19.67   0.13523     1.35   0.10818   164.97
      14400   0.59494    91.77    2.5812   -21.44   0.13718     0.22   0.11425   157.47
      14600   0.60037    90.25    2.5551   -23.14   0.13961    -0.53   0.11244   153.20
      14800   0.60208    88.63    2.5247   -24.77    0.1419    -1.62   0.11575   147.14
      15000   0.60803    87.19    2.4935   -26.59   0.14416    -2.78     0.119   143.48
      15200   0.61209    85.78    2.4702   -28.20   0.14639    -4.03   0.12297   140.30
      15400   0.62282    84.28    2.4505   -30.03   0.14816    -5.05   0.12924   135.80
      15600   0.62713    83.10    2.4222   -31.92   0.15065    -6.28   0.13519   133.12
      15800    0.6347    81.45    2.4027   -33.54   0.15198    -7.52   0.14054   128.77
      16000   0.64633    80.00    2.3825   -35.81   0.15428    -8.56    0.1502   125.38
      16200   0.65395    78.14    2.3602   -37.85    0.1564    -9.63   0.15238   121.98
      16400   0.66008    76.31    2.3161   -40.00   0.15839   -10.53   0.15868   118.59
      16600   0.66289    74.59    2.2811   -41.58   0.16153   -11.91   0.16779   117.45
      16800   0.66722    72.88    2.2502   -43.06   0.16289   -12.94   0.17268   112.89
      17000   0.67102    71.03    2.2379   -44.80   0.16558   -14.30    0.1865   111.02
      17200   0.67466    69.27    2.2188   -46.77   0.16769   -15.38   0.19127   107.10
      17400   0.68118    67.13    2.2027   -49.06   0.16926   -16.61   0.20327   104.47
      17600    0.6804    65.66    2.1611   -50.85   0.17237   -17.46     0.208   100.69
      17800   0.68107    64.37    2.1455   -52.74   0.17558   -19.02   0.21202    98.18
      18000   0.69089    63.18    2.1082   -54.82   0.17785   -20.49   0.21845    97.29
      18200   0.69605    60.98    2.0916   -57.12   0.17998   -21.85   0.22978    95.26
      18400   0.70108    59.29    2.0484   -59.43    0.1823   -23.21   0.23415    93.65
      18600   0.69669    58.01    1.9894   -60.80   0.18319   -24.37   0.25061    92.10
      18800   0.70444    55.93     1.964   -62.47   0.18611   -25.63   0.25824    89.64
      19000   0.70152    54.83    1.9347   -63.81   0.18939   -26.81   0.26821    87.49
      19200   0.70716    53.42    1.9122   -65.64   0.19258   -28.55   0.27408    85.36
      19400   0.71139    52.31    1.8867   -66.85   0.19482   -29.95   0.27799    84.23
      19600   0.71603    51.11    1.8607   -68.47    0.1962   -32.31   0.29501    84.43
      19800   0.74163    50.11    1.8668   -69.81   0.19583   -33.03    0.3086    81.16
      20000   0.75575    47.30    1.8572   -72.09   0.19767   -33.79   0.31733    79.24

!  
! Device Noise Parameters
!  Freq-MHz   Fmin-dB  Gopt-mag  Gopt-arg   rn_normalized
	400	0.5674	0.33516	3.95	0.1225
	420	0.5681	0.33359	4.36	0.1225
	440	0.5689	0.33204	4.78	0.1226
	460	0.5697	0.33050	5.19	0.1226
	480	0.5705	0.32897	5.60	0.1226
	500	0.5713	0.32746	6.02	0.1227
	550	0.5733	0.32376	7.06	0.1227
	600	0.5753	0.32015	8.11	0.1227
	650	0.5773	0.31664	9.17	0.1228
	700	0.5793	0.31321	10.23	0.1228
	750	0.5813	0.30988	11.30	0.1228
	800	0.5834	0.30664	12.37	0.1228
	850	0.5854	0.30349	13.45	0.1227
	900	0.5875	0.30042	14.53	0.1227
	950	0.5895	0.29743	15.61	0.1227
	1000	0.5916	0.29453	16.70	0.1226
	1050	0.5937	0.29171	17.79	0.1225
	1100	0.5957	0.28897	18.89	0.1224
	1150	0.5978	0.28631	19.99	0.1223
	1200	0.5999	0.28372	21.09	0.1222
	1250	0.6020	0.28120	22.19	0.1221
	1300	0.6042	0.27876	23.29	0.1219
	1350	0.6063	0.27638	24.40	0.1218
	1400	0.6084	0.27407	25.50	0.1216
	1450	0.6106	0.27183	26.61	0.1214
	1500	0.6127	0.26966	27.72	0.1212
	1550	0.6149	0.26754	28.83	0.1210
	1600	0.6170	0.26549	29.93	0.1208
	1650	0.6192	0.26349	31.04	0.1206
	1700	0.6214	0.26156	32.15	0.1204
	1750	0.6236	0.25967	33.25	0.1202
	1800	0.6258	0.25784	34.36	0.1199
	1850	0.6280	0.25606	35.46	0.1196
	1900	0.6302	0.25433	36.56	0.1194
	1950	0.6325	0.25264	37.67	0.1191
	2000	0.6347	0.25101	38.77	0.1188
	2050	0.6369	0.24941	39.86	0.1185
	2100	0.6392	0.24786	40.96	0.1182
	2150	0.6415	0.24635	42.05	0.1179
	2200	0.6437	0.24487	43.14	0.1176
	2250	0.6460	0.24344	44.23	0.1173
	2300	0.6483	0.24204	45.32	0.1169
	2350	0.6506	0.24067	46.40	0.1166
	2400	0.6529	0.23933	47.48	0.1162
	2450	0.6552	0.23803	48.56	0.1159
	2500	0.6575	0.23675	49.63	0.1155
	2600	0.6622	0.23428	51.78	0.1147
	2700	0.6669	0.23191	53.91	0.1139
	2800	0.6716	0.22964	56.03	0.1131
	2900	0.6764	0.22744	58.15	0.1123
	3000	0.6812	0.22531	60.25	0.1114
	3100	0.6860	0.22325	62.34	0.1106
	3200	0.6909	0.22124	64.43	0.1097
	3300	0.6958	0.21928	66.51	0.1088
	3400	0.7007	0.21737	68.59	0.1078
	3500	0.7057	0.21550	70.66	0.1069
	3600	0.7107	0.21366	72.73	0.1059
	3700	0.7157	0.21186	74.80	0.1049
	3800	0.7208	0.21009	76.87	0.1039
	3900	0.7259	0.20834	78.95	0.1030
	4000	0.7311	0.20662	81.03	0.1019
	4100	0.7362	0.20493	83.11	0.1009
	4200	0.7415	0.20327	85.20	0.0999
	4300	0.7467	0.20163	87.31	0.0989
	4400	0.7520	0.20002	89.42	0.0979
	4500	0.7573	0.19845	91.55	0.0969
	4600	0.7626	0.19691	93.69	0.0958
	4700	0.7680	0.19541	95.85	0.0948
	4800	0.7734	0.19395	98.02	0.0938
	4900	0.7789	0.19254	100.22	0.0928
	5000	0.7843	0.19119	102.44	0.0918
	5200	0.7954	0.18866	106.93	0.0898
	5400	0.8066	0.18642	111.52	0.0879
	5600	0.8179	0.18452	116.21	0.0860
	5800	0.8294	0.18303	120.98	0.0842
	6000	0.8410	0.18200	125.84	0.0825
	6200	0.8527	0.18149	130.77	0.0808
	6400	0.8646	0.18157	135.75	0.0793
	6600	0.8766	0.18228	140.77	0.0779
	6800	0.8888	0.18366	145.78	0.0766
	7000	0.9010	0.18575	150.77	0.0754
	7200	0.9135	0.18855	155.71	0.0744
	7400	0.9260	0.19209	160.56	0.0736
	7600	0.9387	0.19634	165.31	0.0729
	7800	0.9515	0.20130	169.92	0.0725
	8000	0.9645	0.20693	174.38	0.0722
	8200	0.9776	0.21319	178.68	0.0721
	8400	0.9908	0.22004	182.81	0.0723
	8600	1.0042	0.22744	186.77	0.0727
	8800	1.0177	0.23532	190.56	0.0733
	9000	1.0313	0.24364	194.17	0.0742
	9200	1.0451	0.25234	197.63	0.0753
	9400	1.0590	0.26138	200.93	0.0768
	9600	1.0730	0.27069	204.08	0.0785
	9800	1.0872	0.28024	207.10	0.0805
	10000	1.1015	0.28997	210.00	0.0829
	10400	1.1305	0.30980	215.45	0.0886
	11000	1.1751	0.33990	222.95	0.0998
	11400	1.2055	0.35979	227.59	0.1092
	12000	1.2521	0.38882	234.21	0.1264
	12400	1.2838	0.40739	238.46	0.1401
	13000	1.3325	0.43378	244.74	0.1642
	13400	1.3656	0.45033	248.93	0.1827
	14000	1.4162	0.47369	255.32	0.2145
	14400	1.4507	0.48845	259.71	0.2385
	15000	1.5034	0.50997	266.59	0.2790
	15400	1.5392	0.52442	271.40	0.3091
	15800	1.5756	0.53951	276.42	0.3417
	16000	1.5939	0.54748	279.01	0.3591
	16800	1.6688	0.58439	289.90	0.4353
	17000	1.6879	0.59539	292.74	0.4562
	17800	1.7655	0.65001	304.40	0.5471
	18000	1.7852	0.66692	307.36	0.5718