!Keysight Technologies N9917A: A.08.15
!Date: Friday, 06 October 2017 10:04:01
!Timezone: (GMT-08:00) Pacific Time (US & Canada)
!Model: N9917A
!Serial: MY53102735
!GPS Latitude: 
!GPS Longitude: 
!GPS TimeStamp: 0001-01-01 00:00:00Z
!GPS Seconds Since Last Read: 0
!CHECKSUM:0928364548
!Correction: S11(ON U)S21(ON U)S12(ON U)S22(ON U)
!S2P File: Measurements:S11,S21,S12,S22:
# Hz S DB R 50
1000000000	-5.70791517812854	74.7234141660606	-6.17650175354476	-163.386687847798	-6.19887643165948	-163.345186820281	-5.80712809744214	16.1439088681404	
1013750000	-5.69780097170478	72.7989591357306	-6.1554012503487	-165.309485687279	-6.18371905904208	-165.562472281662	-5.72524606827084	13.3085227435892	
1027500000	-5.61799995535464	70.9945642262781	-6.15697414689836	-167.347899060684	-6.16052757273891	-167.320417661148	-5.59864081339351	11.110357544208	
1041250000	-5.55573852823771	69.4618966283639	-6.15270152791425	-169.588685759939	-6.16579493781159	-169.643745674785	-5.51405885791148	9.2469508568709	
1055000000	-5.54371625755487	67.9150958139697	-6.15136893799128	-171.989403659838	-6.16762350206776	-172.138210176481	-5.52810821154203	7.08258373083002	
1068750000	-5.62099991398941	66.6235073544361	-6.18333301544532	-174.504496005879	-6.20606339800288	-174.482850773301	-5.67555199646736	4.87588851610011	
1082500000	-5.6753208227028	64.9097099504866	-6.18780488005026	-176.803235178534	-6.19389110381353	-176.833384512021	-5.72045126626649	2.00323642377659	
1096250000	-5.72172543993997	62.9369053339051	-6.17859711899458	-178.98568600401	-6.19186638382704	-179.18690298246	-5.69632172012274	-1.01178106896422	
1110000000	-5.67982215041634	61.2414221499031	-6.16012345824574	179.295230340225	-6.16645072211194	179.203768304243	-5.58271709014074	-3.42703915146591	
1123750000	-5.59123356582165	59.6026895574519	-6.14452595172924	177.043044466549	-6.15052674195462	177.046417810908	-5.47495453499372	-5.5976451674397	
1137500000	-5.49965415159167	58.0870216900569	-6.120288052825	174.764613227417	-6.13698731908701	174.749745023127	-5.43455073245475	-7.64930528201997	
1151250000	-5.53838565359698	56.8935473562091	-6.15795688490963	172.353626661148	-6.16995647802324	172.535391408862	-5.54002285809454	-9.5506651222923	
1165000000	-5.6132293438402	55.2134559670182	-6.19228973433349	169.98602256796	-6.1842524688971	169.8174073155	-5.63593259046376	-12.1672048627431	
1178750000	-5.68194182210966	53.6353800201651	-6.18897066625173	167.733972183295	-6.18867838232773	167.498798201025	-5.68252401454097	-15.0457325048063	
1192500000	-5.69432435794265	51.6614114882317	-6.16452238067581	165.649532850823	-6.17207646361897	165.603665847853	-5.61983201692774	-18.0943387111942	
1206250000	-5.62429876173176	49.6697350952286	-6.13775210709113	163.551047966427	-6.15080979097345	163.59751924469	-5.48242098836726	-20.5344427024411	
1220000000	-5.53867614097872	48.1462911466793	-6.12403606237308	161.55609299046	-6.14514523145727	161.525159889184	-5.3810429060627	-22.5308768117327	
1233750000	-5.49956765589683	46.8143973070743	-6.12462522202362	159.194101907653	-6.13626958510795	159.183062431327	-5.36079271531026	-24.696798476801	
1247500000	-5.54387767066528	45.7081673743744	-6.14262247312769	156.801379661068	-6.14751073664664	156.930564609875	-5.47827070736054	-26.7998885765435	
1261250000	-5.60375270072077	43.9717732996336	-6.16549717811262	154.408343360874	-6.17075182327944	154.1828554176	-5.56850643281729	-29.3309282065121	
1275000000	-5.73825579219517	42.1103535716179	-6.17657048185589	152.254640458891	-6.17225115715807	151.978501372195	-5.60054858443712	-32.4724915223641	
1288750000	-5.68727581815732	40.0998919541282	-6.13395232231301	150.216460286185	-6.15316136913794	150.04524177392	-5.54543606407381	-35.2750454332146	
1302500000	-5.56435424795444	38.2802276617437	-6.10047953991035	148.244404777197	-6.1084852297613	148.318175835714	-5.37089851517669	-37.3415672440361	
1316250000	-5.50387247564023	36.4829783398723	-6.09121523768282	145.966330279051	-6.09798330431065	145.921267766106	-5.30278454194122	-39.2124421236813	
1330000000	-5.4996406414533	35.3634590312105	-6.09641518325005	143.74827621851	-6.11599526500293	143.63865811047	-5.35913378122943	-41.4037281530477	
1343750000	-5.55681097674861	34.1558681037434	-6.11874016680896	141.123546861237	-6.14409976742985	141.156115407452	-5.45988606630964	-43.854212041468	
1357500000	-5.69706983330493	32.5618789624642	-6.154386874085	138.90274391038	-6.16385549234592	138.869941146053	-5.55669269017224	-46.7279035722773	
1371250000	-5.72072140634378	30.5373914306365	-6.1432781605713	136.622093866327	-6.1619173576393	136.855249479926	-5.51888114438069	-49.7034175037181	
1385000000	-5.68295682982517	28.21082081843	-6.09850344302612	134.607140975748	-6.12012805697936	134.769775986111	-5.36837475961473	-52.1629182482276	
1398750000	-5.57226077320786	26.4486760895855	-6.08379391693721	132.622941477081	-6.08257728447643	132.555210857166	-5.28091313925133	-54.3127314614642	
1412500000	-5.48734508966481	25.4466286004649	-6.06509892506031	130.447471985175	-6.05421251169006	130.335860226369	-5.2469513558434	-56.5224605354129	
1426250000	-5.51077483024986	24.0507586270697	-6.07263722813552	127.953421352833	-6.09385031433482	128.0744593035	-5.38230497734195	-58.4255741888846	
1440000000	-5.59677234671671	22.5410667572865	-6.11636665502536	125.558992190954	-6.12227263931771	125.708968795928	-5.46723725880767	-61.1526693176772	
1453750000	-5.70606548290905	20.606150707089	-6.12034309320676	123.247324461417	-6.13790316184454	123.586961035808	-5.505920145152	-64.2031975443866	
1467500000	-5.74935934778515	18.3595421435062	-6.12292690155358	121.031288229723	-6.1334270117421	120.943516433777	-5.42916626207454	-67.0190453570574	
1481250000	-5.63231561839614	16.4298967650229	-6.06334962225146	119.222036276278	-6.07754420122715	119.12416370709	-5.29534823320812	-69.409002800193	
1495000000	-5.55435687007483	14.730476282364	-6.03047705983377	117.044940686664	-6.04335341776273	116.902382953596	-5.22720707045376	-71.2730690746539	
1508750000	-5.50094498700277	13.9009280323543	-6.02996742334865	114.717963875673	-6.0377425146519	115.031651628925	-5.26943340604561	-73.1572316090707	
1522500000	-5.52609781462944	12.1682765662362	-6.05389262053643	112.283304731998	-6.05799930935756	112.51224341489	-5.38228552572538	-75.4751501946485	
1536250000	-5.67892103273064	10.7513644679906	-6.07604957387807	109.885665681353	-6.09363993268203	109.885523550709	-5.47563387599622	-78.4076482797977	
1550000000	-5.76052372450167	8.58275109129379	-6.09038009205077	107.691467752922	-6.10741115296697	107.33815841093	-5.46777736398189	-81.555621803024	
1563750000	-5.74674363540692	6.42337225595642	-6.06434225264089	105.66286549048	-6.0834264088456	105.465884976145	-5.38712443924287	-84.1835154888096	
1577500000	-5.64997242434252	4.47667356940514	-6.01116797977649	103.433746725001	-6.02916575985259	103.490078248728	-5.2245919826582	-86.1995892757162	
1591250000	-5.52632941384002	3.26189417753214	-5.97495619784489	101.275561437896	-5.99231117757371	101.693016229822	-5.18850410432074	-88.1456585839959	
1605000000	-5.49855246846311	1.48333489519207	-5.97104624915917	98.9509500296496	-5.99620922962782	99.0667414459541	-5.28301643994789	-90.0934133759046	
1618750000	-5.58746878790201	0.633769288649251	-6.00997115249827	96.7994480676617	-5.99944854225329	96.7476636538431	-5.37487626029877	-92.6570394382268	
1632500000	-5.7004877113671	-1.17698572365328	-6.04166634191253	94.307187979007	-6.04711883061501	94.2014071163217	-5.45995456273045	-95.6592612347977	
1646250000	-5.78095467953052	-3.25431638897702	-6.06348529724848	92.1168705665635	-6.04537905695166	91.9979208683587	-5.42791562359446	-98.6194351455394	
1660000000	-5.7354873952087	-5.64078798563973	-6.00937719610857	90.1170392030727	-6.03252612237113	89.3353379964836	-5.31110052939172	-101.164905558088	
1673750000	-5.61611839381613	-7.43212722357641	-5.95702756926684	87.6313026326981	-5.97835797062217	87.8099545315862	-5.21734829502103	-103.262550576456	
1687500000	-5.56011793302012	-8.84894504546504	-5.92760661807816	85.5669817266609	-5.94722957034304	85.9469205970779	-5.20263078479947	-104.96768707971	
1701250000	-5.519811459809	-9.87184048241257	-5.92191610918511	83.3749261497312	-5.93999312749874	83.515459129784	-5.33241858704808	-107.112898959401	
1715000000	-5.63570567747478	-11.144654586844	-5.96140653902866	81.1204679579657	-5.96201871016825	80.9611112960397	-5.39473027104239	-109.870022284662	
1728750000	-5.76291272812664	-13.1673884638462	-5.99177960461031	78.5928826570388	-5.99718406410176	78.3933248723645	-5.44997978087124	-112.827073747135	
1742500000	-5.80719331036418	-15.4037553208287	-5.99718196053621	76.3392817046953	-6.01493551318176	76.2451644926355	-5.40209514380288	-115.653775975342	
1756250000	-5.75834278525196	-17.7336314225016	-5.9499354829131	74.2326517442885	-5.96146381441562	74.0373086409	-5.28614439919726	-118.21663519725	
1770000000	-5.60313278458743	-19.3916279424874	-5.90658023342475	71.9375850059579	-5.8999358163077	71.9995862077813	-5.19626917204527	-119.836895764084	
1783750000	-5.52133513261712	-20.2990444872324	-5.87639306134739	69.6744574769941	-5.88836649773311	70.167376268516	-5.25766603734849	-121.82689067753	
1797500000	-5.53460922855639	-22.0583873574463	-5.89192046825524	67.4922151391919	-5.88240762550283	67.5012842103509	-5.3636384309081	-124.303207458667	
1811250000	-5.69082527819418	-23.1100664926648	-5.90891314143658	65.4032534597623	-5.90734628050619	65.2992065309992	-5.41161943099255	-127.058753934314	
1825000000	-5.80789181990625	-25.2593478336124	-5.91315603343482	62.9728308360892	-5.94121911939631	62.8418306195929	-5.41838814142373	-129.938932649443	
1838750000	-5.84102305331827	-27.6663826036497	-5.93098659772938	60.6261742133949	-5.95260230842253	60.4095331593357	-5.35402570605245	-132.417478007321	
1852500000	-5.6902433204419	-29.8327858667197	-5.87082904016791	58.4635617518243	-5.8813908331511	58.4586383796839	-5.25356050458219	-134.737872376393	
1866250000	-5.58557997005278	-31.2257061190417	-5.8280135185298	56.2578561585353	-5.82812937538507	56.1474251418391	-5.21351949036335	-136.89942058521	
1880000000	-5.53067507097553	-32.6568333709658	-5.80442936131	54.1368254591344	-5.82224690300379	53.8801895551513	-5.31923986646914	-138.75159488385	
1893750000	-5.60092187103279	-33.6480269678362	-5.80954402232328	51.7159453123068	-5.82144604349053	51.9980228228293	-5.37238033213151	-141.346940949393	
1907500000	-5.69537745376454	-35.0860508014111	-5.84084164130791	49.3847720582555	-5.85791127376116	49.7196736044358	-5.43194341011359	-144.146241273884	
1921250000	-5.80664933110839	-37.4774186835521	-5.85591493203545	47.1456155299113	-5.87280440975982	47.1201185953504	-5.37734698265415	-146.717187317584	
1935000000	-5.81496818928857	-40.0318242606539	-5.83713259970129	44.8672577829485	-5.8436878103658	44.8908712397216	-5.28153704200948	-149.071968850539	
1948750000	-5.69879791031304	-42.2237042205819	-5.80933780550572	42.6736388853771	-5.80211439028113	42.5024072287065	-5.23481445598648	-151.262229164234	
1962500000	-5.56928385351953	-43.6088463505508	-5.75637801839051	40.4916863274174	-5.77308209232527	40.2617451715876	-5.28810912069232	-153.228115274436	
1976250000	-5.53237232555177	-44.0886399313453	-5.75046399183808	38.2792099513821	-5.7409719850498	38.2162648184288	-5.35916745409422	-155.676185080281	
1990000000	-5.62050212600943	-45.411636461408	-5.76207986770062	36.162398449727	-5.77390089131971	35.7474104808382	-5.44113226126192	-158.370736414605	
2003750000	-5.75523958874695	-47.4406171796215	-5.79188688187061	33.6052569205943	-5.79183448773163	33.2254273149591	-5.44313492692419	-161.371568778388	
2017500000	-5.81885368333907	-49.818586833311	-5.79767010761375	31.2008457690703	-5.79894931838975	31.3802425770293	-5.37439345685027	-163.935565009319	
2031250000	-5.75435950285636	-52.2935204303986	-5.78078424204184	28.8621283491956	-5.79011907652448	29.3286320446875	-5.31269323902222	-165.909075413044	
2045000000	-5.68781358751642	-54.3579393482751	-5.73016209525518	26.6981602044601	-5.73169341156004	26.7810955972013	-5.28192463035964	-167.590546667035	
2058750000	-5.54385647779957	-55.4189791700732	-5.68822578359341	24.5482382040788	-5.69194105972695	24.6787093696314	-5.36727678667914	-169.931036313526	
2072500000	-5.54251681287016	-56.1035316122519	-5.69402354138849	22.4508917662619	-5.68550320649804	22.5249985528239	-5.46989448486315	-172.585479004019	
2086250000	-5.64114547775884	-57.6216235053568	-5.70569810761198	20.0887490323022	-5.70518964171273	20.0558419208789	-5.49926539988651	-175.647686797816	
2100000000	-5.76373574209975	-59.6822959745971	-5.72769828093454	17.8146410164216	-5.73580103661842	17.759987479265	-5.4357869626815	-178.264637012086	
2113750000	-5.79256407559074	-62.272338571533	-5.73620566691978	15.4302203367614	-5.75003169619811	15.5025680322302	-5.38013114623813	179.314023809027	
2127500000	-5.67514786160803	-64.2367171193429	-5.69941406717699	13.2449597218698	-5.70654055449086	13.0255427176102	-5.313134543087	177.134974632847	
2141250000	-5.58014326230785	-66.2532336955801	-5.65509526586329	10.7834712846176	-5.68009642029792	10.57586046945	-5.31954852949233	175.106404778776	
2155000000	-5.51863080847675	-67.336445648119	-5.63928493474044	9.01105939055797	-5.6257241881694	8.00915269325582	-5.47301617900939	173.185061062712	
2168750000	-5.53686653662493	-68.5108103774181	-5.61244222798598	6.11363063076921	-5.63279420755035	6.41204389842933	-5.52755336918593	170.295323532743	
2182500000	-5.6388992580364	-69.85869402434	-5.64591376439061	3.83427927480404	-5.64544551842291	4.29130027478727	-5.52114409416595	167.357302000638	
2196250000	-5.74836573976585	-71.9624692518576	-5.66875212976926	1.64119415935068	-5.66785848482014	1.77214221187444	-5.43051312289279	164.832003794694	
2210000000	-5.75772561909249	-74.4762867025507	-5.65803969302478	-0.486341590138204	-5.68251986849444	-0.531833673299709	-5.35866695187747	162.773548592289	
2223750000	-5.64112288326366	-76.5617127849641	-5.62305881913393	-2.92764539772875	-5.62080263643028	-2.76228665962631	-5.35457219889822	160.93199864192	
2237500000	-5.5346232100941	-78.1417226166775	-5.58291691155832	-5.26934950908365	-5.59816057999521	-5.24462700412033	-5.40754147059533	158.715755490147	
2251250000	-5.47458222872318	-79.213376980995	-5.5625361034055	-7.4891591734055	-5.56937402171127	-7.65023187396602	-5.50567729258166	156.01802871359	
2265000000	-5.53652187809529	-80.4576932496974	-5.56243410481132	-9.55855346863655	-5.56950180354833	-9.78399430229488	-5.56893850049729	153.124015402057	
2278750000	-5.68924111969708	-81.9186029170853	-5.60549798610169	-11.8487912315056	-5.59900613015855	-11.7995161508943	-5.52928427200062	150.351255147627	
2292500000	-5.70580284228506	-84.4619028736015	-5.60456482317464	-14.0156298957598	-5.61396624480147	-14.3220092965068	-5.46636720903981	147.924393488697	
2306250000	-5.66411537876092	-86.8988342829347	-5.60506367096575	-16.4639261295072	-5.61632863586991	-16.7383024114521	-5.38794700359278	145.769116498436	
2320000000	-5.59039362400268	-89.0314996017089	-5.55809852518378	-19.0296640575476	-5.57563363409667	-19.1655117604057	-5.37772646074201	143.781642548636	
2333750000	-5.46264293765686	-90.3458806923477	-5.5341403822752	-21.2758034298652	-5.5410577534344	-21.4174931510329	-5.50480726587989	141.947910976231	
2347500000	-5.4330352114218	-91.3114176825972	-5.5081536229377	-23.8251550905102	-5.50845497032457	-23.4295077548734	-5.59554689511446	139.057759297132	
2361250000	-5.50742931130372	-92.4928366050189	-5.50296806855199	-25.9710801475207	-5.50811240279484	-25.5652464369899	-5.63029695981147	136.172597867194	
2375000000	-5.58365790100633	-94.355156433565	-5.51573350125297	-28.1518534393795	-5.52916627684833	-28.0779598186763	-5.55056453153096	133.275902174081	
2388750000	-5.65535327796087	-96.9023734210121	-5.53039942067113	-30.2532943909399	-5.55498387063397	-30.148401309038	-5.43572215871529	131.227265002769	
2402500000	-5.58924543856394	-98.9362529854443	-5.52238349668931	-32.615365691932	-5.53863102482617	-32.4279639112883	-5.39708019447557	129.458147555068	
2416250000	-5.47253663047318	-100.735518259507	-5.49707121950768	-35.0347586617299	-5.50445894877248	-34.9375408064778	-5.4511773741034	127.406881257942	
2430000000	-5.40655382221034	-101.949600545779	-5.46564850901792	-37.4349868955319	-5.45256933985888	-37.261287403933	-5.55157072322295	124.819625852483	
2443750000	-5.39298102930642	-103.079660450163	-5.43625596888592	-39.5008208180147	-5.44862095368808	-39.7683030028075	-5.61659753443339	121.902947237877	
2457500000	-5.47532958505935	-104.548826816987	-5.42942818967496	-41.6590063261445	-5.46449090811392	-41.7274192705195	-5.612649805758	118.93838714102	
2471250000	-5.57499109581848	-106.584330467018	-5.47062789953239	-43.8332622640352	-5.4765350004515	-43.828241862249	-5.5154774066867	116.432587626527	
2485000000	-5.56297822489653	-109.085416769224	-5.4748440586197	-46.1730449490731	-5.48402519147316	-46.4897546520554	-5.43265399153781	114.463652276605	
2498750000	-5.49124043033982	-111.460147546424	-5.46361385234752	-48.7620517965109	-5.46864320981248	-48.9942028515432	-5.43962518394362	112.227057261315	
2512500000	-5.41847339454726	-113.167933573694	-5.43658123841388	-51.2823468269425	-5.45875128533206	-51.3733938249403	-5.47302140220266	110.135980265525	
2526250000	-5.30932614653692	-114.339434448787	-5.39589358565261	-53.5443882089384	-5.41932311273394	-53.9037560614175	-5.5975765012255	107.370405116576	
2540000000	-5.32875815370968	-115.250304472097	-5.38473852915822	-55.8632496398751	-5.41120354208501	-56.0505952286323	-5.62555833505512	104.449692037273	
2553750000	-5.4249182991187	-117.068835758061	-5.40356171342125	-58.2469688614228	-5.402866594774	-57.7764475707603	-5.59844111179292	101.544853351086	
2567500000	-5.51985374100192	-119.157614934556	-5.38527781930155	-60.4251618451779	-5.41860021863259	-59.9334438554337	-5.51292403614123	99.4156023489161	
2581250000	-5.52038979704647	-121.47418795213	-5.40764083693454	-62.6715552832815	-5.42267323735034	-62.3356235547383	-5.44457784067644	97.6475271331166	
2595000000	-5.39516198239258	-123.386622856723	-5.39451326768866	-64.6655907929468	-5.38054727119347	-64.9662652964731	-5.45998070058317	95.368179891057	
2608750000	-5.26341455807554	-124.540138168065	-5.35738807620292	-67.2729922006571	-5.35842601356181	-67.1643710520938	-5.58020213848692	92.8234757474628	
2622500000	-5.23454368229547	-125.816955681778	-5.33078614378592	-69.534694273114	-5.349175392277	-69.4684257137038	-5.6316107735761	89.7796504836345	
2636250000	-5.31650584480994	-127.114789988158	-5.31437109500505	-71.7664400051518	-5.34084270336419	-71.6983432337543	-5.59160783963471	86.9463943935957	
2650000000	-5.37599370913995	-128.972126918662	-5.30281888919582	-73.7434858685795	-5.33519062942595	-73.6538649198086	-5.47658344352077	84.5269468527979	
2663750000	-5.43514305744363	-131.458809288653	-5.35112011015087	-76.2981425273331	-5.35428716374281	-76.4920462813224	-5.45692709943198	82.2046619759725	
2677500000	-5.36888682892769	-133.547656487453	-5.34345697612341	-78.5430214061633	-5.34903163577502	-78.7329703460118	-5.4290000005205	80.2236044832592	
2691250000	-5.21339011801763	-134.833126420272	-5.3085333785696	-81.0045341367628	-5.32363573459055	-80.7658777382088	-5.50854914021206	78.0307953466098	
2705000000	-5.16177293913178	-136.453601139208	-5.27895932762977	-83.3565583510258	-5.28592597377903	-83.4061671866497	-5.59422111969719	75.1849261143953	
2718750000	-5.22879176632126	-138.13284488568	-5.28704426598383	-85.9274668469633	-5.29689028336679	-85.8748586511266	-5.65066649020253	72.3127413448534	
2732500000	-5.23041335570383	-139.732108112379	-5.27837905678191	-88.2003352742625	-5.28983132784053	-88.2726023875972	-5.61978992274994	69.3175059233561	
2746250000	-5.29746644642053	-141.5679190676	-5.26033853435055	-90.4161115908474	-5.27919091520326	-90.3327419149846	-5.55381547178655	66.6046664357618	
