!Keysight Technologies N9917A: A.08.15
!Date: Friday, 06 October 2017 10:02:19
!Timezone: (GMT-08:00) Pacific Time (US & Canada)
!Model: N9917A
!Serial: MY53102735
!GPS Latitude: 
!GPS Longitude: 
!GPS TimeStamp: 0001-01-01 00:00:00Z
!GPS Seconds Since Last Read: 0
!CHECKSUM:1883445916
!Correction: S11(ON U)S21(ON U)S12(ON U)S22(ON U)
!S2P File: Measurements:S11,S21,S12,S22:
# Hz S DB R 50
1000000000	-5.69550076017259	74.6061171744474	-6.52936710095251	-155.638791180788	-6.56734128580647	-155.82498623038	-5.76133706465157	16.0942824080773	
1013750000	-5.68578743025286	72.7916129526606	-6.53054495685207	-157.636260749144	-6.56923570755851	-157.635680945047	-5.69550007484822	13.3382161482915	
1027500000	-5.60678075563104	71.0048295292745	-6.53091629913895	-159.36328654227	-6.54545231460097	-159.265183306063	-5.5551509425667	11.1834746524851	
1041250000	-5.54636563276743	69.4864607899892	-6.53477661314914	-161.551970608554	-6.5544787522293	-161.507686443204	-5.4814893647122	9.3358196496404	
1055000000	-5.53442486938931	67.9324699693331	-6.54622274721023	-163.857484152659	-6.55810411376131	-164.014740000863	-5.49555259885322	7.08846838923425	
1068750000	-5.61847148198029	66.5758499086004	-6.58289759165999	-166.179660249589	-6.60599159523802	-166.201524466562	-5.62113548917102	4.86209120147045	
1082500000	-5.67033208814899	64.7926908082754	-6.59883804409834	-168.399304276444	-6.6048395621851	-168.421687836543	-5.68134415833043	1.96165778969427	
1096250000	-5.70850453030907	62.97348488684	-6.59612121044492	-170.481532695043	-6.63017335498026	-170.576474845193	-5.64354520812781	-0.944949572028988	
1110000000	-5.66613373015332	61.237725928106	-6.59722560720695	-172.091268815817	-6.59150622109532	-172.107923405955	-5.55533964380403	-3.33581511442984	
1123750000	-5.58532914215847	59.6602053527598	-6.57001623964986	-174.084708946564	-6.58731213935336	-174.066715362751	-5.45331933552456	-5.44112433997272	
1137500000	-5.50019141746189	58.0412467766249	-6.58245359102989	-176.244335694286	-6.58175365813128	-176.305611426678	-5.39654529908315	-7.55266002307788	
1151250000	-5.53918315787047	56.9140140680576	-6.6201402468315	-178.527028255719	-6.6224220953711	-178.374921583841	-5.49895962315698	-9.42054263900009	
1165000000	-5.61172811820697	55.2111908516995	-6.63764226122964	179.257882568258	-6.6527872983105	179.092966861865	-5.59422725590576	-12.2119792774422	
1178750000	-5.66156467781619	53.5598698111601	-6.65849836242734	177.113764848543	-6.67511019774719	176.965255693397	-5.64058232675929	-14.9535039560776	
1192500000	-5.66751158467443	51.5466864260543	-6.64546796033173	175.116172730325	-6.64336794187732	175.133363247666	-5.57724021023227	-18.0826808211416	
1206250000	-5.6276405695457	49.6843946029503	-6.63029006398904	173.149998745011	-6.63444983840738	173.252894184719	-5.44662198864642	-20.3412637247377	
1220000000	-5.54805054406783	48.1664098622324	-6.61178793640862	171.267022712534	-6.63829920971692	171.290326610439	-5.36292194841549	-22.3386238380911	
1233750000	-5.50595356653081	46.8674737549613	-6.633265982177	169.046642776576	-6.64305620616898	169.069896764429	-5.34097630769534	-24.5731299503634	
1247500000	-5.54630742696465	45.5970134656853	-6.66895789805058	166.77840094437	-6.67926595322838	166.918996179258	-5.45281008171908	-26.7129992137029	
1261250000	-5.61097646475631	43.9165030269725	-6.69024441949381	164.5501573282	-6.70641651787308	164.267079911683	-5.51407293638801	-29.0732060025619	
1275000000	-5.73576503381222	42.1459627086353	-6.7040753125955	162.507426100565	-6.70800365182628	162.356437400251	-5.53667713848702	-32.3322726972164	
1288750000	-5.68208348538957	39.9940916094055	-6.68202077799647	160.530199458765	-6.68886433295525	160.516238861898	-5.50486711427577	-35.0142497273206	
1302500000	-5.56613251697642	38.2949133939908	-6.65376441208414	158.75830812919	-6.66453414529491	158.86241173399	-5.35351992697648	-37.116151658328	
1316250000	-5.51640734507391	36.5229627330533	-6.63885399858435	156.696080682663	-6.64992724480789	156.714502792766	-5.29013201988308	-38.9883333762331	
1330000000	-5.51187195944166	35.3500689874497	-6.66729857578781	154.466418325157	-6.68918215208282	154.41049830997	-5.34303500601624	-41.1695688638037	
1343750000	-5.54431065996629	34.0231878540243	-6.67996184684477	152.096381536047	-6.69429458579442	152.067947769771	-5.41781173958617	-43.633528962445	
1357500000	-5.68945922112676	32.4150057114699	-6.73235432121892	149.923549935787	-6.74145316292241	149.826201286784	-5.51496556027267	-46.591888248235	
1371250000	-5.71331788160823	30.366442766011	-6.7123361163905	147.848260047531	-6.7561539460047	147.954090372905	-5.47534336090132	-49.4526796088987	
1385000000	-5.70566212756402	28.2357384738234	-6.70362916717877	145.891562081507	-6.71648612492206	146.049106722991	-5.33287255913428	-51.9457619860801	
1398750000	-5.57106113208302	26.5289189379773	-6.66918428327257	144.098544033013	-6.68315552750949	143.947707290309	-5.2662481816548	-53.9308303526444	
1412500000	-5.49074774648191	25.3429648333314	-6.67996870028494	142.070030386955	-6.68775321007852	141.81738897595	-5.25422336317565	-56.2374158385239	
1426250000	-5.51037200244279	23.982112813328	-6.71423556029473	139.66280609339	-6.69853400133703	139.722257121865	-5.34994299673308	-58.132381105627	
1440000000	-5.59267916585197	22.4756424850994	-6.75051095919861	137.48994099361	-6.76208091507481	137.554140100282	-5.43094462197995	-60.8682415709624	
1453750000	-5.71685063400843	20.5207565742989	-6.77898957599313	135.287376195035	-6.77116177064562	135.481077758117	-5.47516245196129	-63.801327396349	
1467500000	-5.75526850505606	18.2147479301481	-6.76712913211557	133.29984077903	-6.77928637190517	133.140927436308	-5.41211252192837	-66.7069046360766	
1481250000	-5.64847712107252	16.4666206534613	-6.73310532978869	131.301081244476	-6.71070172720422	131.283581919601	-5.28216431429214	-69.1212941926741	
1495000000	-5.55144189233415	14.7717460795497	-6.70338773019188	129.442988394063	-6.70155444297856	129.183743423303	-5.2203341107237	-70.7844497672351	
1508750000	-5.51271933631244	13.8920535840005	-6.71330218487997	127.274693451341	-6.7210680444095	127.501543212082	-5.25405009636997	-72.7678740240603	
1522500000	-5.54114359577287	12.1188548056982	-6.73883399078862	125.000566117762	-6.74490551632579	125.149483772926	-5.3573082781692	-75.066809330742	
1536250000	-5.68888844204993	10.6637670539661	-6.78404707067003	122.686900925428	-6.80432692866346	122.629869347671	-5.45547758366627	-78.0213885803141	
1550000000	-5.77296617903591	8.6052442313228	-6.778050340976	120.512652528385	-6.81220674430266	120.448817903524	-5.42464817160826	-81.0056962875183	
1563750000	-5.74733849297862	6.5052953710225	-6.79423259294619	118.646934022589	-6.80589562524629	118.464344302061	-5.37602865902203	-83.8062673183734	
1577500000	-5.65137644445306	4.41330044583886	-6.73286150145896	116.551035300352	-6.74829731984367	116.588881866336	-5.21483805176258	-85.7386992659066	
1591250000	-5.530855059913	3.29045698327164	-6.71045576927654	114.614917404768	-6.73242826984196	114.963545038335	-5.17416705967468	-87.5758558981758	
1605000000	-5.5115771320986	1.59397646510246	-6.72074239461746	112.398365764305	-6.73467563363727	112.371357893696	-5.27548765355214	-89.4767237193895	
1618750000	-5.5912572155609	0.625322104703941	-6.76051283953858	110.374396923175	-6.76275048888075	110.362867750978	-5.36534366426824	-92.1087197048151	
1632500000	-5.71596311631946	-1.15922994646348	-6.80286802668155	107.959787280951	-6.81608063050208	107.878017157213	-5.44453963340501	-95.1643076214399	
1646250000	-5.79940576722201	-3.30350125876821	-6.81332409284509	105.970421240795	-6.83496622669375	105.729570352938	-5.41895285906882	-98.0810749524672	
1660000000	-5.7668332154586	-5.63471243418304	-6.79941795201103	103.971385844477	-6.81443181916406	103.262577270286	-5.30663261784087	-100.578414431969	
1673750000	-5.65572093584844	-7.47069825044401	-6.74602961744199	101.645327866753	-6.76462901170717	101.836123431632	-5.20394934282126	-102.537708380874	
1687500000	-5.57560940984126	-8.70398540970566	-6.7274841293321	99.711506226461	-6.74236078640696	100.095760308374	-5.19188523204409	-104.221416824353	
1701250000	-5.55302417447335	-9.85358348953136	-6.7508097846941	97.6845282056076	-6.74774589752588	97.7121769771778	-5.31648246169337	-106.428597805992	
1715000000	-5.65076703311308	-11.1471454551628	-6.77951214907688	95.4511507974931	-6.78372737691337	95.3971074670871	-5.39224176842804	-109.149037683656	
1728750000	-5.78425529089801	-13.2286594860408	-6.81422318839744	93.1498666336383	-6.81152413531063	92.9059239522312	-5.42914515102617	-112.221348809256	
1742500000	-5.82974453602813	-15.3898172432748	-6.83912739071906	91.062561769553	-6.8617163097982	90.9778818740542	-5.38747873035864	-115.012896506091	
1756250000	-5.76683794399323	-17.7068069255576	-6.78384204449699	89.044374764301	-6.80757518942576	88.700034763337	-5.27520463895594	-117.528960885557	
1770000000	-5.6366804609673	-19.2430859799003	-6.7657700850658	86.8249996096059	-6.7598734514093	86.9206435761528	-5.20605177647974	-119.126426449805	
1783750000	-5.57158633136468	-20.166904138766	-6.75230957491785	84.7392096971082	-6.74914067672762	85.261338868162	-5.24931144513371	-121.029118412067	
1797500000	-5.56512402162252	-21.9618042368387	-6.75854272701553	82.6699590167612	-6.76759357568667	82.6488727397572	-5.33530394301453	-123.501430666505	
1811250000	-5.71099708361278	-23.1402702634004	-6.78248627190242	80.5688520566699	-6.79880789281828	80.5777904895469	-5.38512177862164	-126.284604838913	
1825000000	-5.83351300714825	-25.2583318783241	-6.81680700876545	78.2753294197727	-6.83936958542724	78.1723700342822	-5.40477224622902	-129.133685586563	
1838750000	-5.85376203394036	-27.6891426456175	-6.85511834541208	76.2599905208555	-6.85922232686722	75.9566414087442	-5.34702363977756	-131.679513327535	
1852500000	-5.72444143918878	-29.7019411302281	-6.80996912022914	74.1806284094208	-6.79726942783777	74.041052790806	-5.24306953797494	-133.926360669394	
1866250000	-5.59628622980436	-31.0907424955586	-6.76101005930336	72.0914162338085	-6.7646917207971	71.9482795553808	-5.20809224125802	-135.992529625945	
1880000000	-5.56565902549331	-32.4588452523275	-6.74433847981511	70.0078109595344	-6.7648546890321	69.7054560801179	-5.29960161516256	-137.844098624043	
1893750000	-5.61777799976988	-33.4596120314315	-6.7582329801923	67.6875401116127	-6.77045791532384	67.9033542772952	-5.36435696304262	-140.400632472303	
1907500000	-5.74093137162622	-35.0673662878237	-6.81623930990765	65.4752785144692	-6.82288338343317	65.8185164563025	-5.40634971763803	-143.328283779321	
1921250000	-5.83976181993201	-37.2791833300721	-6.81117017787016	63.4570990658963	-6.85526412896502	63.4159902788062	-5.37692824631128	-145.86602257876	
1935000000	-5.8455071212891	-39.8613182225543	-6.83841236519173	61.2485753228437	-6.81196578594466	61.2352466282766	-5.26954975022928	-148.194797372363	
1948750000	-5.71460224188527	-41.9509853635019	-6.78801912700529	59.1031057388033	-6.80563796740268	58.9589722993867	-5.23616621300308	-150.231768868887	
1962500000	-5.60404625856749	-43.3189625698795	-6.77329124963432	57.0125289775872	-6.78066812784575	56.7771138847961	-5.28428577433989	-152.178769931924	
1976250000	-5.55876842589708	-43.9235117281004	-6.77232574220823	54.9703660786445	-6.76810797160667	54.8838414381593	-5.35133071049449	-154.679498207983	
1990000000	-5.65616509339315	-45.2729405845651	-6.80138413285811	52.9180029519945	-6.79830879061208	52.5914851812596	-5.43431959918215	-157.207901750989	
2003750000	-5.79469786863112	-47.3671419737713	-6.83712153970237	50.3879914843187	-6.82226631347888	50.1280396336	-5.44276044482022	-160.514285328072	
2017500000	-5.85368170464546	-49.6680239313308	-6.84967957785794	48.1895745616392	-6.86679569091917	48.3258783708034	-5.38262315830337	-162.878955176267	
2031250000	-5.78407115196453	-51.9960784964535	-6.84383515418519	45.9996972132745	-6.8559405139172	46.4615692414053	-5.3023430086654	-164.911619150294	
2045000000	-5.70349635511358	-54.102433695845	-6.8135059772847	43.958927741279	-6.82588888642967	44.0169510081982	-5.28327814021767	-166.657781130041	
2058750000	-5.55612804912869	-55.2010132360676	-6.78173247344657	41.8846744672864	-6.78903096154191	41.898388102824	-5.35387849906883	-168.870097901417	
2072500000	-5.56353310633618	-55.8783500209239	-6.78946240535191	39.9537511734561	-6.7937890774517	40.0451759958739	-5.44429822612369	-171.381524043014	
2086250000	-5.65722190760768	-57.4519970943812	-6.81743584994356	37.6587926626401	-6.82622709337456	37.69118693808	-5.46344026438506	-174.465996703168	
2100000000	-5.77842511497672	-59.6043912009298	-6.85171527709675	35.5198380033508	-6.86191191119685	35.4365092999673	-5.424692979686	-177.101558198551	
2113750000	-5.81743817311792	-61.8895234195646	-6.87316424146684	33.2574511366481	-6.88836153942374	33.2786549809851	-5.36226713712173	-179.658702093999	
2127500000	-5.69675964355372	-63.9743751242143	-6.84353670931892	31.1167659655524	-6.86511072165375	30.9304355200974	-5.29425140372711	178.247200534119	
2141250000	-5.61916296427221	-65.968218010177	-6.83392403445494	28.8504685194274	-6.83921850933032	28.6543323211141	-5.29794769445951	176.181957249933	
2155000000	-5.54228489045171	-67.1021602852531	-6.81052632176913	27.0313380331745	-6.81103049581612	26.1624210367114	-5.45716573513666	174.35762709952	
2168750000	-5.55164146566128	-68.2309711072567	-6.80483838323334	24.3193242695874	-6.82099827356149	24.6007571529712	-5.47807701600847	171.40308370715	
2182500000	-5.66318179574529	-69.7025994906198	-6.85492070553207	22.243755275625	-6.8394869505377	22.5522702847226	-5.49402580887112	168.49788130108	
2196250000	-5.74987251211307	-71.6987976641548	-6.87963753503003	19.9479394804605	-6.8999236568274	20.1191787501543	-5.41240249543193	165.966377438065	
2210000000	-5.78465887901769	-74.218197316394	-6.90264811712807	18.0191359663359	-6.92247144965349	17.9653573054132	-5.35523318694574	163.815034618082	
2223750000	-5.66413277788476	-76.2284529556283	-6.88712391877335	15.7237403235481	-6.88520672435885	15.8720264393803	-5.3366826848074	162.040044161771	
2237500000	-5.5535351025647	-77.7996735138668	-6.86499264618386	13.4746334030517	-6.87283585868168	13.6092168879313	-5.38415195074044	159.684342606497	
2251250000	-5.52576083520701	-78.9488123728974	-6.87073108785305	11.2918001234147	-6.86723352764617	11.2113432505435	-5.46839450710861	157.128614336866	
2265000000	-5.55501433633781	-80.264282279257	-6.87133927600455	9.34634809508098	-6.8651978522279	9.19409283464626	-5.5503886661062	154.204534842375	
2278750000	-5.71355289434972	-81.6309097653452	-6.92915443575131	7.30702915188216	-6.92840500750634	7.46770754504839	-5.50211186773533	151.538935939485	
2292500000	-5.73813114555633	-84.2078383828238	-6.94669257439405	5.16363849211583	-6.95369373815271	4.905955910892	-5.45137875524801	149.070480025571	
2306250000	-5.7003409328239	-86.5194388170933	-6.95827901614807	2.78129104319686	-6.9702272450848	2.61899003568613	-5.37708666176377	146.806306627625	
2320000000	-5.59162264051603	-88.4878549461431	-6.93619654091107	0.393894856047428	-6.95222479864367	0.316583730660312	-5.35993773564793	144.794934730639	
2333750000	-5.47960641376353	-90.0005941733707	-6.92821897397645	-1.76090095410577	-6.94386716422683	-2.0840311879582	-5.47202910087549	142.984420703011	
2347500000	-5.44709524949065	-90.9575897634917	-6.89539729920317	-4.18495615619453	-6.90494620450119	-3.81190550068661	-5.54200687519044	140.209927719329	
2361250000	-5.52873724886604	-92.2142281698113	-6.90353635179714	-6.3334467492464	-6.94021572695349	-5.94926200192163	-5.57704834133431	137.132208816481	
2375000000	-5.58836037307201	-94.0280242939923	-6.95628380800407	-8.36776876294901	-6.96434302140117	-8.29661379755475	-5.50827877707355	134.398300877095	
2388750000	-5.65688491441476	-96.4134156327112	-6.99012611864953	-10.2748923719909	-6.99991444632816	-10.2334932937962	-5.4239581279647	132.326626276645	
2402500000	-5.59946918379233	-98.628525298426	-7.01191825956392	-12.6331136246377	-7.0148961795914	-12.4710289856057	-5.38307987345999	130.54939437402	
2416250000	-5.48958693191668	-100.335000420439	-6.9936108334144	-14.8517272430415	-7.01888436492531	-14.8078969108391	-5.43450520480096	128.444062690646	
2430000000	-5.40382056432599	-101.505471063655	-6.98295203817215	-17.2152989320239	-6.96587921864035	-17.015772879329	-5.50960120775991	125.840201410197	
2443750000	-5.40007835423433	-102.763943883249	-6.98700092782836	-19.21031312461	-6.99462061671207	-19.406912534691	-5.56366685567456	123.034283626477	
2457500000	-5.49550195185819	-104.2419592052	-6.98535322736678	-21.3028863894524	-7.00250429126975	-21.3734995911801	-5.56120132557953	120.04925961689	
2471250000	-5.56735271668189	-106.217191313532	-7.02931928704297	-23.2978042957574	-7.05390298544426	-23.2784337053796	-5.48594665942472	117.60585967709	
2485000000	-5.56527141839972	-108.620071793837	-7.05481293271182	-25.5732264671384	-7.0657864287703	-25.7215276313195	-5.42683914109259	115.343515723448	
2498750000	-5.49074952368304	-110.886629116464	-7.06242378679111	-27.9872699329856	-7.08226007284559	-28.1512189152714	-5.41906796875881	113.176167202818	
2512500000	-5.40441636794834	-112.744230037716	-7.0681034252627	-30.3807341591462	-7.07884704458415	-30.6109444892297	-5.46320590741336	110.988000462165	
2526250000	-5.30775162749326	-113.925033867563	-7.04102807894435	-32.5699426447155	-7.06993747576106	-32.8610065454593	-5.54228873762872	108.464915631314	
2540000000	-5.32156308663466	-114.982838681699	-7.04523242121672	-34.7258244036093	-7.08020923724108	-34.8945581556886	-5.59009980133274	105.356931816459	
2553750000	-5.40439219972375	-116.583334765336	-7.06976520536622	-37.0003823537286	-7.09803158550912	-36.6711380690339	-5.54901740953766	102.600038357839	
2567500000	-5.4876030674128	-118.754961177434	-7.10060901765238	-39.0662399638423	-7.13745766843225	-38.6432588918462	-5.47377025593613	100.44638162087	
2581250000	-5.49305266982135	-120.965159772013	-7.13573286035523	-41.2026983817036	-7.15316140889937	-40.9642340259193	-5.42586150060472	98.4504001438002	
2595000000	-5.37455731977149	-122.940903394422	-7.14137465060428	-43.3063975447194	-7.13076978626631	-43.3871858650542	-5.45923822086828	96.3506154809551	
2608750000	-5.24229327633076	-124.184730240178	-7.12210569529163	-45.6300932501088	-7.14688563936608	-45.5914237508777	-5.52736801139984	93.7218560921447	
2622500000	-5.23396073351606	-125.329726122589	-7.13206686741708	-47.8672458785565	-7.14733765702636	-47.8193656956388	-5.59158634900903	90.6633690377254	
2636250000	-5.27170330830756	-126.82872722546	-7.14798166769476	-49.988299771918	-7.16227362951052	-49.8105351475136	-5.53993267701522	87.7853510946976	
2650000000	-5.35030758704124	-128.631278356116	-7.16223009492175	-51.7896556370033	-7.17308877248078	-51.7412482645651	-5.43940752749834	85.4123377520554	
2663750000	-5.37720432716576	-130.983259336236	-7.21092580034281	-54.2396997560882	-7.21895090070433	-54.5516815496759	-5.43961785421137	82.9971795218174	
2677500000	-5.35041991766796	-133.018363718197	-7.2449168310882	-56.3680766875553	-7.24496028333552	-56.4795475446924	-5.43095650797925	81.0388988027599	
2691250000	-5.18849847776132	-134.424850910184	-7.23036219523606	-58.7596148930228	-7.22806900642089	-58.5431528225406	-5.46645444512526	78.7801552581688	
2705000000	-5.13676284059772	-136.165793084832	-7.21115235322875	-61.091228553734	-7.21303049525037	-61.0935307174941	-5.53339189846106	76.0482402884572	
2718750000	-5.19415585647252	-137.850938873382	-7.24458564642712	-63.2891303545071	-7.25356275557488	-63.439424808248	-5.58926027971346	73.1011745809026	
2732500000	-5.19708726745098	-139.506333737277	-7.26519633195783	-65.6757880562686	-7.27196171500558	-65.6737829881075	-5.56024629561257	70.0556152808229	
2746250000	-5.23729327587708	-141.149984535975	-7.26832293393765	-67.6688657811842	-7.30255309171118	-67.7938569008084	-5.48251754286236	67.4898012237377	
