!Keysight Technologies N9917A: A.08.15
!Date: Friday, 06 October 2017 10:06:40
!Timezone: (GMT-08:00) Pacific Time (US & Canada)
!Model: N9917A
!Serial: MY53102735
!GPS Latitude: 
!GPS Longitude: 
!GPS TimeStamp: 0001-01-01 00:00:00Z
!GPS Seconds Since Last Read: 0
!CHECKSUM:0068943528
!Correction: S11(ON U)S21(ON U)S12(ON U)S22(ON U)
!S2P File: Measurements:S11,S21,S12,S22:
# Hz S DB R 50
1000000000	-5.72102418782933	74.4709047965635	-6.5755917278842	-152.935807123426	-6.60053419576655	-153.144381412719	-5.79643630735552	16.3105105520924	
1013750000	-5.71925051965881	72.6953312066609	-6.56950554354673	-154.661686538207	-6.60451997632439	-154.959504930257	-5.72840990098188	13.5756520813559	
1027500000	-5.61235759374237	70.8551766532296	-6.57207726165288	-156.555077799071	-6.59421579257501	-156.434694417134	-5.57377848893144	11.3846675386487	
1041250000	-5.56002805325463	69.2604753757197	-6.58084358175997	-158.716670826825	-6.5997897612342	-158.671393515619	-5.4932053166019	9.59796226843714	
1055000000	-5.53493476245124	67.8137815182941	-6.58900677211993	-160.949125107514	-6.61535435695919	-161.213840191802	-5.49988601940941	7.45027301732314	
1068750000	-5.62546357642862	66.5225431106333	-6.61826627931495	-163.189146326283	-6.64513868635993	-163.279588259867	-5.65520768541129	5.17880131747793	
1082500000	-5.6874669876614	64.9125234565534	-6.64996364335412	-165.42651700195	-6.6610041500497	-165.50688821549	-5.71306515037581	2.30762010367468	
1096250000	-5.74024373352282	63.0749149039273	-6.63404905584881	-167.46491562659	-6.64507959728085	-167.635284023602	-5.68834114145278	-0.766008939168876	
1110000000	-5.67733814886225	61.4116320117349	-6.63247811554687	-169.102876010435	-6.64383460175538	-169.044226239621	-5.60087298431032	-3.05528255707507	
1123750000	-5.57741450985341	59.6702244493912	-6.6116428103552	-170.964548154544	-6.60847752803559	-170.906840919999	-5.45952536628684	-5.12149995087854	
1137500000	-5.49945343661239	58.1959976891207	-6.60201053076073	-173.156365768378	-6.6104715681173	-173.186642634704	-5.4100237007011	-7.21620337789472	
1151250000	-5.52920068348452	57.0497170859397	-6.65343664624842	-175.45909235225	-6.64762961876615	-175.314188050136	-5.52016716170385	-8.98726728053645	
1165000000	-5.607548023013	55.3539097277774	-6.67605951987751	-177.733444751084	-6.66139055504186	-177.796065709346	-5.61837297714749	-11.7967527305375	
1178750000	-5.68602508630931	53.8817012917153	-6.67953091965097	-179.876611943314	-6.69257592205115	-179.957339428701	-5.66033551473062	-14.5830503652349	
1192500000	-5.69409068223195	51.7324093916187	-6.65673231744847	178.244014814209	-6.6750506669509	178.211444767108	-5.60936161212223	-17.7287714718148	
1206250000	-5.63967529962799	49.7622946246705	-6.65327718358623	176.346107078732	-6.65939163627931	176.523097395455	-5.45954673754371	-20.0998220733676	
1220000000	-5.53737456501126	48.3502414084097	-6.64991489367172	174.519614542235	-6.64812287397404	174.439169202472	-5.37018642697958	-22.0536592893407	
1233750000	-5.48870543074598	46.9558041247025	-6.66174162625781	172.293628342001	-6.67563282412504	172.25053227044	-5.33258617917835	-24.2975094603504	
1247500000	-5.53788213491005	45.9102193846561	-6.67134234149514	170.046822969893	-6.68157964346206	170.16873648391	-5.45589597517178	-26.3143377142929	
1261250000	-5.60567386512863	44.0714931145099	-6.70494445668828	167.790726918102	-6.71131774386703	167.559484805148	-5.54594535236881	-29.0155423231974	
1275000000	-5.73907694895193	42.3486774055867	-6.72550161063216	165.811108235624	-6.72711001773727	165.596494707043	-5.57511025857928	-32.1814905013929	
1288750000	-5.7115306541373	40.2851617246915	-6.69478695486996	163.837587476987	-6.69604540745825	163.693502122263	-5.5266568082209	-35.0617618278695	
1302500000	-5.55831476362021	38.4366876232955	-6.67694544662574	161.99849803134	-6.68869976431726	162.202472988977	-5.36701037726833	-37.1236053919466	
1316250000	-5.51097954351744	36.6458943731891	-6.65453453106058	159.974278956601	-6.66316948385102	160.009437573868	-5.30024026002162	-38.8567948645477	
1330000000	-5.50487865868766	35.6231477684126	-6.6870908550532	157.855850553586	-6.69632025825007	157.644059385044	-5.35370911323563	-41.091247451675	
1343750000	-5.54594514362907	34.3533306097677	-6.70012323434929	155.383230677801	-6.71925323467823	155.381964307689	-5.43246451846883	-43.5345948633267	
1357500000	-5.72086025275065	32.8211659009112	-6.74654216662954	153.283217132527	-6.76118238581935	153.221133314161	-5.53823874040743	-46.5351751842531	
1371250000	-5.74601795219427	30.6843255742213	-6.75923064486704	151.206123494754	-6.76100186165664	151.249810456391	-5.49909758273324	-49.5068994699974	
1385000000	-5.74006051502419	28.4537476037749	-6.72249125921646	149.295049508695	-6.73400820642006	149.352477976982	-5.35036481351195	-52.001633989745	
1398750000	-5.58679959168509	26.7052664701943	-6.6930843508321	147.536560075491	-6.68973100402329	147.424830233448	-5.26356105499579	-53.9708408826555	
1412500000	-5.50344207984969	25.6130548454323	-6.70257964745619	145.533974218443	-6.69587087819427	145.278229439372	-5.23182173742095	-56.180205285826	
1426250000	-5.52524294558685	24.3654406795619	-6.72202787454335	143.105370355986	-6.71472665825272	143.180612997611	-5.35314545965872	-58.0454778605739	
1440000000	-5.60978762927364	22.7560369011357	-6.76955544842486	140.942074417438	-6.76829103599743	141.021493976279	-5.45692370214226	-60.8141250144385	
1453750000	-5.75969038585838	20.8770182048972	-6.79917789212028	138.738867128493	-6.80180357462349	138.940618681006	-5.48605299357608	-63.8115878038631	
1467500000	-5.80033814089006	18.5583447139069	-6.78231252603837	136.812319951324	-6.79124639384079	136.57206466533	-5.42898478321982	-66.5906965318208	
1481250000	-5.70677058329831	16.697513347918	-6.74992435203134	134.932855298088	-6.75933032104819	134.778240615817	-5.29740218405152	-68.9055233835427	
1495000000	-5.58086957047867	15.091026920943	-6.71287652493586	132.912931814152	-6.72091525156348	132.829747192851	-5.22011924200687	-70.5636780338089	
1508750000	-5.53900998944773	14.1777631661632	-6.72588636537762	130.757756765978	-6.7312188327509	131.081081151433	-5.25122423267048	-72.4763233678823	
1522500000	-5.55471198096484	12.5714191183733	-6.73891188085328	128.564948833008	-6.76740237130827	128.678660072314	-5.36283844253795	-74.8372661314835	
1536250000	-5.73060273969871	11.0893811070431	-6.79640405525815	126.266576195487	-6.80866027849759	126.108474242043	-5.46591555182799	-77.8537809213627	
1550000000	-5.81822169976393	9.06844894200838	-6.80392270490334	124.170892139296	-6.81325589082931	123.910031708756	-5.44016881816438	-80.913413379468	
1563750000	-5.81613887901948	6.92331702223862	-6.8065267249926	122.270596074533	-6.80258381782587	122.010688755289	-5.37616463814896	-83.7469629217477	
1577500000	-5.70218528764375	4.8620269515058	-6.73190548948731	120.195392967338	-6.75317221989666	120.218479527627	-5.18653792965093	-85.4680878396258	
1591250000	-5.57616005660508	3.68068220543867	-6.7081999124268	118.098046350973	-6.71981160009397	118.592104905966	-5.16295820972863	-87.3419636420545	
1605000000	-5.56453728096815	2.00790823513623	-6.73882102310255	115.956164662359	-6.73227756001867	115.980980261087	-5.25955780731492	-89.2583996349233	
1618750000	-5.6479270024354	1.11785941764108	-6.76753889956446	114.085202611807	-6.77109277036743	113.849114064116	-5.35397052969644	-91.9462506704893	
1632500000	-5.76973284815596	-0.698406880277077	-6.80926634946339	111.643360284193	-6.79371330533582	111.44949536994	-5.44406038682628	-95.013192700575	
1646250000	-5.8827946064443	-2.75721115473104	-6.81547748004443	109.487237200689	-6.84583268225452	109.381631706406	-5.40395386495737	-98.0610973095616	
1660000000	-5.8305350452801	-5.06924141245223	-6.812478986068	107.695746275296	-6.8053086434378	106.786087975982	-5.2787725126617	-100.57016654796	
1673750000	-5.71130472939168	-6.9616476743926	-6.74236481461914	105.24963309344	-6.75551594434555	105.527107377858	-5.16061684371192	-102.467735746531	
1687500000	-5.6314992566698	-8.34736279197392	-6.72365219275782	103.335178096487	-6.73426290786067	103.827286357559	-5.15847140684511	-104.053302224185	
1701250000	-5.59651384209797	-9.21110487861877	-6.74078928722885	101.327767687817	-6.75427089260637	101.361342701947	-5.26141936665154	-106.303371139423	
1715000000	-5.7139390710648	-10.4740545525536	-6.78643306410162	99.0878486816272	-6.79278053877416	98.9955519440294	-5.34492815489415	-109.170196556462	
1728750000	-5.84524760005349	-12.4621438842489	-6.82925487093649	96.8221943958224	-6.84678422657977	96.5365316396388	-5.39038964537102	-112.167509495525	
1742500000	-5.90881443573827	-14.7104080076367	-6.83444389335845	94.6481547139906	-6.85159414094124	94.619784892044	-5.34358399269378	-115.108700729449	
1756250000	-5.84746802715665	-16.984082208359	-6.82417994096394	92.7415374024707	-6.81140661809629	92.4638433780242	-5.22520782238647	-117.450181468356	
1770000000	-5.69301690711409	-18.675394750195	-6.76175084831216	90.607252377275	-6.77553056495163	90.6367506124912	-5.13778804935681	-118.922250484238	
1783750000	-5.59707896138007	-19.4987125950182	-6.75539296117686	88.5232909605676	-6.76266312522882	88.9836583736714	-5.1996877069159	-120.873764218258	
1797500000	-5.61128298462464	-21.2516129495533	-6.76859818310027	86.3357337889459	-6.76556892383163	86.4133958210169	-5.29923022023985	-123.272653187714	
1811250000	-5.76125172111103	-22.1842879638721	-6.79468359361816	84.3791962017759	-6.80945918385168	84.3230473581745	-5.34934725462698	-126.168481206176	
1825000000	-5.91509009278507	-24.4246759550036	-6.83035040707591	82.1414740671446	-6.84069833444222	81.9367111406598	-5.36283676708907	-129.09768144348	
1838750000	-5.94312899020539	-26.8686296140944	-6.8495548035639	79.9964618839002	-6.84872646821606	79.6073423831599	-5.28400619598559	-131.518912627749	
1852500000	-5.79478669823077	-28.9670483928561	-6.8013260253956	77.9821657593905	-6.79177652801629	77.7345067385341	-5.17447206721376	-133.713177011505	
1866250000	-5.66974180253531	-30.3489708003261	-6.75902324321843	75.7796850410395	-6.76636072428291	75.6562355145214	-5.13079204239458	-135.800491919789	
1880000000	-5.6266743290566	-31.6933847149478	-6.75525097872708	73.8385791526662	-6.7548077751826	73.481200122028	-5.24518953650478	-137.514131721886	
1893750000	-5.67872068008034	-32.597769384185	-6.76234571700172	71.4312413003595	-6.77730475884907	71.6561866312618	-5.32101110954691	-139.966159654657	
1907500000	-5.80200470700969	-34.1847079522419	-6.81406048537663	69.1373385001936	-6.82165182680781	69.505418260746	-5.37148398668834	-143.024042897012	
1921250000	-5.93933893025614	-36.3970366757789	-6.83893432057506	67.262355867933	-6.83938526429773	67.1574063398443	-5.31118833194413	-145.677318596001	
1935000000	-5.95001340650665	-39.0869413591447	-6.84236958823419	65.0059166832689	-6.81942333336054	65.0242594210219	-5.20851886705848	-147.975597090898	
1948750000	-5.82548189119625	-41.0754670570918	-6.80150758487044	62.9401899443068	-6.807290903226	62.7557984985719	-5.15284093509655	-150.02018174874	
1962500000	-5.70267763158956	-42.5022258192776	-6.76597067471102	60.7884244418678	-6.77180516942365	60.5760969189913	-5.20418536388938	-151.880245435426	
1976250000	-5.65506851790451	-43.0275759957458	-6.77030352159707	58.7936626146966	-6.77257238760534	58.7501716883826	-5.26611370631296	-154.270356894042	
1990000000	-5.75629957864074	-44.4214274021709	-6.79369042101725	56.649436226216	-6.80494789207015	56.2968227911626	-5.34088791404553	-156.808536382192	
2003750000	-5.88803562664393	-46.3762392317012	-6.8178055034752	54.3170248932676	-6.82528521971515	53.9195866665758	-5.36292773357885	-160.026204059763	
2017500000	-5.96972342948217	-48.7517202054708	-6.8565217468549	51.965008036332	-6.89032145287235	52.1528801389852	-5.30195403546881	-162.46685513392	
2031250000	-5.9131428549937	-51.1505974343722	-6.84366322779735	49.734614250897	-6.85641010003452	50.2533700219771	-5.20509200037495	-164.559420306392	
2045000000	-5.83329668439828	-53.4641288557534	-6.80995666210782	47.6650403856467	-6.82643355858503	47.8374262482067	-5.18674974030882	-166.179643605396	
2058750000	-5.67452793362626	-54.4112028571461	-6.77501022526931	45.6952554285052	-6.77681299825732	45.7318963052324	-5.26315675366197	-168.400964210571	
2072500000	-5.67315003902588	-54.9100349628259	-6.79767471609024	43.7267120322617	-6.79741568436971	43.7716083319971	-5.3625689297489	-171.01510858772	
2086250000	-5.78933245877308	-56.4846314176985	-6.80701051718827	41.4694481946692	-6.83320389006619	41.4689921771472	-5.40342660989674	-174.169189594998	
2100000000	-5.93355043028638	-58.5562315499917	-6.84475037011213	39.3867374050569	-6.86504848606956	39.1433729079052	-5.34867897302418	-176.893269394135	
2113750000	-5.96495730760385	-61.1344148166804	-6.87145240683954	37.0500136503911	-6.90337248951374	37.0400708218009	-5.29450172843303	-179.437285236993	
2127500000	-5.83033676458281	-63.2111639562975	-6.85750864999833	35.0994751771108	-6.86775546863084	34.6776481469006	-5.20158859373356	178.503747381189	
2141250000	-5.73852785118236	-65.2433272725789	-6.84524922614845	32.629104318128	-6.84861552175996	32.4887531339315	-5.20090511653644	176.554281742264	
2155000000	-5.66401323327388	-66.3922633426366	-6.81214244124881	30.8763574291998	-6.81207108153174	30.0578239601041	-5.38081914357685	174.719211929036	
2168750000	-5.69279943980966	-67.3952575909192	-6.82571709991465	28.1766185728361	-6.83768236290774	28.4478302545447	-5.39133786434635	171.747077091601	
2182500000	-5.80866108589364	-68.7836712413307	-6.84566622217919	26.0079371853725	-6.85328745750714	26.4076629646945	-5.43499201399884	168.69343500182	
2196250000	-5.91848222708684	-71.049534277676	-6.89623319816866	23.8909731510205	-6.89112287053511	24.0481475828884	-5.32773581555114	166.11881838356	
2210000000	-5.93480545910774	-73.5757587524442	-6.89653932100845	21.8970068175308	-6.9231057056421	21.8515008090884	-5.2782632360882	163.963551718079	
2223750000	-5.78428768956149	-75.8217807899145	-6.89381922618527	19.5833209862506	-6.89194428675131	19.7098886496471	-5.23579964547346	162.259460532966	
2237500000	-5.67482248975699	-77.3000101222778	-6.87155316827529	17.3178664856563	-6.88395593345872	17.3753525951471	-5.28759753024978	160.00696029519	
2251250000	-5.62764259287565	-78.460617945869	-6.86927472715988	15.1716765569327	-6.86857423938377	15.0235522379798	-5.38706382963216	157.485221379264	
2265000000	-5.689565123571	-79.6762844849545	-6.8713935340764	13.2077186695209	-6.87791909606793	12.9943544687189	-5.45778850926074	154.510730561883	
2278750000	-5.85685651766443	-81.070657217997	-6.95359532260629	11.1352965422345	-6.94340087911215	11.1518612193099	-5.43203516458956	151.779233957534	
2292500000	-5.89049668041351	-83.6895018905999	-6.97175716981521	9.03471649220739	-6.96338645917599	8.7238959069257	-5.3783631225392	149.098021982872	
2306250000	-5.82964542159698	-86.1346183517683	-6.96556963991246	6.61186241250229	-6.98277219139952	6.33092163988997	-5.30408946925044	147.009998496501	
2320000000	-5.73341320209868	-88.3788770493182	-6.95688596114475	4.22088060362636	-6.95986894463888	4.15708689866931	-5.26728330565159	144.984846668648	
2333750000	-5.59478528232124	-89.71972317649	-6.93480365951832	2.15102152529781	-6.94827244734049	1.86125989442673	-5.39902128093804	143.250215905412	
2347500000	-5.58279547857504	-90.7982415975416	-6.92211448106506	-0.251221957256566	-6.93021399229924	0.190575936450297	-5.48224471950535	140.387643596529	
2361250000	-5.6579549771843	-91.978739310118	-6.93498169840787	-2.51258734411562	-6.95194710261559	-2.08321934727079	-5.49889594301793	137.306823215408	
2375000000	-5.75181425640326	-93.8462780164843	-6.97469757965452	-4.46504679448028	-6.98406979357375	-4.36477954867122	-5.42898111005862	134.528735342355	
2388750000	-5.8216471652884	-96.3612608058396	-7.01064255807172	-6.40714703013768	-7.01961234936884	-6.31806778592587	-5.3381301886097	132.358234038995	
2402500000	-5.73791970506599	-98.622343308487	-7.01075413134469	-8.57390600374653	-7.02535393168228	-8.40258450612292	-5.30902482237827	130.528699033763	
2416250000	-5.6269576690588	-100.512331516907	-7.01393383233432	-10.9306683525911	-7.02675602407938	-10.8084739129011	-5.35836420117334	128.484791430626	
2430000000	-5.52156799810892	-101.756629509046	-6.98149017470211	-13.2122500331004	-7.0003525062358	-13.042325355961	-5.43555965960115	125.897603413431	
2443750000	-5.52354677475615	-102.839108864335	-6.99107221104751	-15.3221237017232	-7.01136599765843	-15.5660106306021	-5.50723073106089	122.774396304451	
2457500000	-5.64553719433374	-104.437637929227	-7.00532249317971	-17.304432900713	-7.03321614148121	-17.414645432207	-5.4988824011719	119.933958501738	
2471250000	-5.7377675726235	-106.511134768424	-7.05382175757202	-19.3241179885663	-7.06284291492203	-19.361503160679	-5.41350316619574	117.391832025994	
2485000000	-5.72837365267795	-109.208278483407	-7.06169869181202	-21.5145221529586	-7.09216749290023	-21.840186352137	-5.35294136940115	115.159006225376	
2498750000	-5.64132934423512	-111.484780858278	-7.08630449836181	-23.9319362506752	-7.09173088681232	-24.1742027066269	-5.34438312477893	113.033801137705	
2512500000	-5.52519083072834	-113.299037147499	-7.09509831783281	-26.4002186908791	-7.10388483873025	-26.5836420377012	-5.39430246811796	110.790945599024	
2526250000	-5.41634086860434	-114.341194725843	-7.06559513122341	-28.5843929337287	-7.09830428109833	-28.9102160583806	-5.48035743998775	108.125101733798	
2540000000	-5.45300058906057	-115.525098434784	-7.09633217421151	-30.7716546214411	-7.11081827118547	-30.9198868653922	-5.54311049937214	105.069610549806	
2553750000	-5.5584303308661	-117.16273219002	-7.10547163306487	-32.8870662962695	-7.12353229370542	-32.6551653010773	-5.5084772647567	102.153424611787	
2567500000	-5.63609181702449	-119.322584219125	-7.14410135488893	-35.1179685629799	-7.16957488851494	-34.5551665336606	-5.40658407748032	99.8569534196353	
2581250000	-5.64468380620913	-121.661239675453	-7.16594773793133	-37.1162781691744	-7.19476400663011	-36.9527679846111	-5.35188397323201	98.187865765876	
2595000000	-5.49629571777851	-123.647816766391	-7.17764384679589	-39.1715695159913	-7.16802129545655	-39.3941689841033	-5.3914866220853	95.9787596093582	
2608750000	-5.37571630075986	-124.937616992351	-7.17833571720366	-41.4838633094155	-7.18921503892551	-41.4803342024589	-5.48002815693907	93.4692067773411	
2622500000	-5.34261141870172	-126.04271556648	-7.16395528858121	-43.6675477492015	-7.19250706167222	-43.6788084022319	-5.53879155450302	90.2859104978643	
2636250000	-5.42925145706211	-127.580713104801	-7.18898316010945	-45.6706765537017	-7.19294939276619	-45.7467525720153	-5.49107043774705	87.3337238961616	
2650000000	-5.48854555641968	-129.541085801907	-7.19488270430937	-47.6594764871139	-7.22402755126107	-47.658280666963	-5.40895426757605	84.938159157771	
2663750000	-5.55022654915477	-131.986099082923	-7.24633882361907	-50.0804257028988	-7.25476601968898	-50.226351307036	-5.38759840342327	82.3279196368874	
2677500000	-5.47004572351445	-134.080256934772	-7.28313026273799	-52.0571857688035	-7.28985335747455	-52.3473301765318	-5.37057214151938	80.5408254112503	
2691250000	-5.28818004930928	-135.326737661004	-7.27289690422628	-54.5217493321069	-7.28948847105499	-54.3072154264433	-5.43249989023454	78.3115002466524	
2705000000	-5.23393191676751	-137.11001484182	-7.28021908485634	-56.6598698460578	-7.29079670788106	-56.8000731595241	-5.51832491114138	75.637507494208	
2718750000	-5.29076076351264	-138.78763356341	-7.30401539811946	-59.1167873221356	-7.30835868432254	-59.1305489260903	-5.55730429549065	72.5696788140217	
2732500000	-5.32336650929175	-140.530631634955	-7.31490357063974	-61.1534299168687	-7.3117958542875	-61.3607976216534	-5.53315544097313	69.4814608242728	
2746250000	-5.3923610895133	-142.331513060888	-7.31107778751268	-63.2585983036201	-7.35110891990835	-63.3353934242221	-5.47169993522011	66.7549112974169	
