! Data Taken on a HP 8720C VNA using a series-through fixture with TRL* de-embedding
#	mhz	s	ma	r	50
50	0.00684	15.31401	0.98266	-0.97693	0.98266	-0.97693	0.00684	15.31401
70	0.00795	49.40132	0.98835	-0.80594	0.98835	-0.80594	0.00795	49.40132
90	0.01178	56.68139	0.99116	-0.71983	0.99116	-0.71983	0.01178	56.68139
110	0.01371	53.05493	0.99193	-0.83984	0.99193	-0.83984	0.01371	53.05493
130	0.01335	49.64394	0.99219	-1.13556	0.99219	-1.13556	0.01335	49.64394
150	0.01456	52.79169	0.99408	-1.42489	0.99408	-1.42489	0.01456	52.79169
170	0.01613	54.26447	0.99383	-1.14366	0.99383	-1.14366	0.01613	54.26447
190	0.01825	55.26882	0.98968	-1.39784	0.98968	-1.39784	0.01825	55.26882
210	0.01999	56.33136	0.98734	-1.59868	0.98734	-1.59868	0.01999	56.33136
230	0.02106	57.80107	0.98816	-1.61819	0.98816	-1.61819	0.02106	57.80107
250	0.02183	59.84933	0.98922	-1.78908	0.98922	-1.78908	0.02183	59.84933
270	0.02294	60.15715	0.98747	-1.85181	0.98747	-1.85181	0.02294	60.15715
290	0.02471	60.49803	0.98861	-1.98438	0.98861	-1.98438	0.02471	60.49803
310	0.02697	60.71891	0.98909	-2.03729	0.98909	-2.03729	0.02697	60.71891
330	0.02952	61.09593	0.98825	-2.01426	0.98825	-2.01426	0.02952	61.09593
350	0.03207	62.33447	0.98826	-2.07231	0.98826	-2.07231	0.03207	62.33447
370	0.03337	65.61673	0.98989	-2.42089	0.98989	-2.42089	0.03337	65.61673
390	0.03456	68.04231	0.98912	-2.61411	0.98912	-2.61411	0.03456	68.04231
410	0.03576	69.5864	0.9878	-2.79906	0.9878	-2.79906	0.03576	69.5864
430	0.03689	70.28533	0.98752	-2.89566	0.98752	-2.89566	0.03689	70.28533
450	0.03765	70.23663	0.98954	-2.59662	0.98954	-2.59662	0.03765	70.23663
470	0.03901	69.52708	0.98936	-2.95527	0.98936	-2.95527	0.03901	69.52708
490	0.04339	72.87122	0.98991	-3.30304	0.98991	-3.30304	0.04339	72.87122
510	0.04725	75.30892	0.98752	-3.58908	0.98752	-3.58908	0.04725	75.30892
530	0.04914	75.72872	0.9837	-3.74894	0.9837	-3.74894	0.04914	75.72872
550	0.0497	76.86776	0.98524	-3.70464	0.98524	-3.70464	0.0497	76.86776
570	0.05052	77.42957	0.98662	-3.8628	0.98662	-3.8628	0.05052	77.42957
590	0.05172	77.08356	0.98596	-3.82204	0.98596	-3.82204	0.05172	77.08356
610	0.05308	76.39286	0.98568	-3.89778	0.98568	-3.89778	0.05308	76.39286
630	0.05475	75.5975	0.98642	-4.13371	0.98642	-4.13371	0.05475	75.5975
650	0.05728	74.61437	0.987	-4.30183	0.987	-4.30183	0.05728	74.61437
670	0.05999	74.75366	0.98718	-4.34369	0.98718	-4.34369	0.05999	74.75366
690	0.06294	75.9274	0.98407	-4.44316	0.98407	-4.44316	0.06294	75.9274
710	0.06573	77.33337	0.98304	-4.53251	0.98304	-4.53251	0.06573	77.33337
730	0.06779	78.71784	0.98476	-4.61726	0.98476	-4.61726	0.06779	78.71784
750	0.06845	80.37547	0.9852	-4.77617	0.9852	-4.77617	0.06845	80.37547
770	0.06839	81.93449	0.9883	-5.1118	0.9883	-5.1118	0.06839	81.93449
790	0.06855	82.42919	0.98701	-5.16603	0.98701	-5.16603	0.06855	82.42919
810	0.06852	82.00337	0.9848	-5.11421	0.9848	-5.11421	0.06852	82.00337
830	0.06848	80.9413	0.98316	-5.08281	0.98316	-5.08281	0.06848	80.9413
850	0.06927	79.66778	0.98162	-5.14944	0.98162	-5.14944	0.06927	79.66778
870	0.07126	79.80409	0.98715	-5.40053	0.98715	-5.40053	0.07126	79.80409
890	0.07365	79.4185	0.98645	-5.62895	0.98645	-5.62895	0.07365	79.4185
910	0.0757	79.05648	0.98417	-5.71604	0.98417	-5.71604	0.0757	79.05648
930	0.07718	78.98177	0.98242	-5.74541	0.98242	-5.74541	0.07718	78.98177
950	0.07837	79.1763	0.98078	-6.00294	0.98078	-6.00294	0.07837	79.1763
970	0.07955	79.55652	0.98275	-6.07243	0.98275	-6.07243	0.07955	79.55652
990	0.08098	78.99129	0.98309	-6.17557	0.98309	-6.17557	0.08098	78.99129
1010	0.08253	78.13273	0.98294	-6.2982	0.98294	-6.2982	0.08253	78.13273
1030	0.08434	77.40801	0.98265	-6.415	0.98265	-6.415	0.08434	77.40801
1050	0.08683	77.01934	0.98179	-6.48947	0.98179	-6.48947	0.08683	77.01934
1070	0.08998	77.03186	0.98084	-6.69393	0.98084	-6.69393	0.08998	77.03186
1090	0.09264	77.40291	0.98183	-6.80538	0.98183	-6.80538	0.09264	77.40291
1110	0.09477	77.91059	0.9837	-6.80038	0.9837	-6.80038	0.09477	77.91059
1130	0.09625	78.43655	0.98428	-6.8002	0.98428	-6.8002	0.09625	78.43655
1150	0.09693	78.96602	0.98026	-7.07081	0.98026	-7.07081	0.09693	78.96602
1170	0.09843	79.0767	0.97997	-7.2298	0.97997	-7.2298	0.09843	79.0767
1190	0.09942	78.7584	0.98062	-7.28893	0.98062	-7.28893	0.09942	78.7584
1210	0.10053	78.30695	0.98101	-7.3629	0.98101	-7.3629	0.10053	78.30695
1230	0.10213	77.90231	0.98067	-7.49535	0.98067	-7.49535	0.10213	77.90231
1250	0.1043	77.60871	0.97981	-7.65891	0.97981	-7.65891	0.1043	77.60871
1270	0.10738	77.70141	0.9796	-7.73697	0.9796	-7.73697	0.10738	77.70141
1290	0.10996	77.69538	0.97887	-8.03797	0.97887	-8.03797	0.10996	77.69538
1310	0.11185	77.96339	0.97956	-8.13178	0.97956	-8.13178	0.11185	77.96339
1330	0.1132	78.51101	0.98093	-8.06915	0.98093	-8.06915	0.1132	78.51101
1350	0.11456	78.97669	0.97958	-8.38178	0.97958	-8.38178	0.11456	78.97669
1370	0.11648	78.97432	0.97776	-8.52192	0.97776	-8.52192	0.11648	78.97432
1390	0.1175	79.03834	0.97932	-8.52521	0.97932	-8.52521	0.1175	79.03834
1410	0.11871	79.12177	0.98013	-8.60263	0.98013	-8.60263	0.11871	79.12177
1430	0.12025	79.18989	0.97908	-8.77155	0.97908	-8.77155	0.12025	79.18989
1450	0.12127	79.22025	0.97809	-8.85571	0.97809	-8.85571	0.12127	79.22025
1470	0.12279	79.15525	0.97837	-8.84155	0.97837	-8.84155	0.12279	79.15525
1490	0.12416	79.05508	0.97913	-9.16365	0.97913	-9.16365	0.12416	79.05508
1510	0.12499	79.06689	0.97868	-9.33667	0.97868	-9.33667	0.12499	79.06689
1530	0.1257	79.09609	0.9778	-9.31207	0.9778	-9.31207	0.1257	79.09609
1550	0.12749	78.8064	0.97981	-9.47816	0.97981	-9.47816	0.12749	78.8064
1570	0.12914	78.29248	0.97479	-9.67761	0.97479	-9.67761	0.12914	78.29248
1590	0.13081	77.99942	0.97476	-9.75543	0.97476	-9.75543	0.13081	77.99942
1610	0.13272	77.95255	0.97618	-9.80153	0.97618	-9.80153	0.13272	77.95255
1630	0.13481	78.04009	0.97669	-9.89086	0.97669	-9.89086	0.13481	78.04009
1650	0.13665	78.01315	0.97524	-10.08338	0.97524	-10.08338	0.13665	78.01315
1670	0.13771	77.8985	0.97667	-10.25902	0.97667	-10.25902	0.13771	77.8985
1690	0.13857	77.91705	0.97522	-10.33105	0.97522	-10.33105	0.13857	77.91705
1710	0.13985	77.86399	0.97442	-10.34908	0.97442	-10.34908	0.13985	77.86399
1730	0.14175	77.64642	0.9754	-10.39681	0.9754	-10.39681	0.14175	77.64642
1750	0.14408	77.28328	0.97688	-10.59206	0.97688	-10.59206	0.14408	77.28328
1770	0.14541	77.08902	0.97449	-10.73087	0.97449	-10.73087	0.14541	77.08902
1790	0.14708	77.20315	0.97606	-10.70657	0.97606	-10.70657	0.14708	77.20315
1810	0.14896	77.14853	0.97509	-10.80755	0.97509	-10.80755	0.14896	77.14853
1830	0.1506	76.87164	0.97189	-11.00208	0.97189	-11.00208	0.1506	76.87164
1850	0.15124	76.7426	0.9735	-10.93831	0.9735	-10.93831	0.15124	76.7426
1870	0.15232	76.49863	0.97387	-11.14914	0.97387	-11.14914	0.15232	76.49863
1890	0.15371	76.21632	0.97353	-11.28065	0.97353	-11.28065	0.15371	76.21632
1910	0.15547	75.86498	0.97226	-11.33731	0.97226	-11.33731	0.15547	75.86498
1930	0.15756	75.43234	0.97191	-11.39635	0.97191	-11.39635	0.15756	75.43234
1950	0.15978	74.9246	0.9763	-11.60779	0.9763	-11.60779	0.15978	74.9246
1970	0.16157	74.82247	0.97315	-11.76195	0.97315	-11.76195	0.16157	74.82247
1990	0.16418	75.00654	0.9714	-11.86541	0.9714	-11.86541	0.16418	75.00654
2010	0.16634	75.17514	0.97075	-11.88736	0.97075	-11.88736	0.16634	75.17514
2030	0.16786	75.20945	0.97101	-11.9168	0.97101	-11.9168	0.16786	75.20945
2050	0.16959	75.17352	0.97208	-12.1626	0.97208	-12.1626	0.16959	75.17352
2070	0.17046	74.92908	0.97007	-12.30925	0.97007	-12.30925	0.17046	74.92908
2090	0.17218	74.86385	0.96825	-12.37519	0.96825	-12.37519	0.17218	74.86385
2110	0.1741	74.62077	0.96953	-12.6136	0.96953	-12.6136	0.1741	74.62077
2130	0.17571	74.30384	0.972	-12.88836	0.972	-12.88836	0.17571	74.30384
2150	0.17665	74.47814	0.96892	-12.67405	0.96892	-12.67405	0.17665	74.47814
2170	0.17867	74.41867	0.96761	-12.67816	0.96761	-12.67816	0.17867	74.41867
2190	0.18122	74.22684	0.96877	-12.82142	0.96877	-12.82142	0.18122	74.22684
2210	0.18345	74.03438	0.96828	-13.0241	0.96828	-13.0241	0.18345	74.03438
2230	0.18497	73.93037	0.96651	-13.20373	0.96651	-13.20373	0.18497	73.93037
2250	0.18587	73.96124	0.96832	-13.27505	0.96832	-13.27505	0.18587	73.96124
2270	0.18823	73.86269	0.96673	-13.36123	0.96673	-13.36123	0.18823	73.86269
2290	0.19061	73.65936	0.96656	-13.60956	0.96656	-13.60956	0.19061	73.65936
2310	0.1921	73.55613	0.96649	-13.69326	0.96649	-13.69326	0.1921	73.55613
2330	0.19309	73.51954	0.96563	-13.64285	0.96563	-13.64285	0.19309	73.51954
2350	0.19526	73.27781	0.96355	-13.84611	0.96355	-13.84611	0.19526	73.27781
2370	0.1965	73.20017	0.96448	-13.9729	0.96448	-13.9729	0.1965	73.20017
2390	0.19818	73.18462	0.96473	-14.03229	0.96473	-14.03229	0.19818	73.18462
2410	0.19977	73.06328	0.96402	-14.03913	0.96402	-14.03913	0.19977	73.06328
2430	0.2011	72.85922	0.96313	-14.10169	0.96313	-14.10169	0.2011	72.85922
2450	0.20238	72.78643	0.96397	-14.42163	0.96397	-14.42163	0.20238	72.78643
2470	0.20495	72.73028	0.96367	-14.34675	0.96367	-14.34675	0.20495	72.73028
2490	0.206	72.66164	0.96257	-14.48892	0.96257	-14.48892	0.206	72.66164
2510	0.20717	72.66796	0.96284	-14.62201	0.96284	-14.62201	0.20717	72.66796
2530	0.20892	72.67822	0.963	-14.69861	0.963	-14.69861	0.20892	72.67822
2550	0.21061	72.46297	0.95796	-14.84994	0.95796	-14.84994	0.21061	72.46297
2570	0.21216	72.36067	0.96309	-14.85159	0.96309	-14.85159	0.21216	72.36067
2590	0.21397	72.06602	0.96183	-15.08477	0.96183	-15.08477	0.21397	72.06602
2610	0.21478	71.76625	0.96041	-15.23235	0.96041	-15.23235	0.21478	71.76625
2630	0.21531	71.62157	0.96001	-15.26312	0.96001	-15.26312	0.21531	71.62157
2650	0.21827	71.76518	0.95673	-15.43176	0.95673	-15.43176	0.21827	71.76518
2670	0.22058	71.64608	0.95729	-15.5029	0.95729	-15.5029	0.22058	71.64608
2690	0.22218	71.34886	0.95631	-15.56212	0.95631	-15.56212	0.22218	71.34886
2710	0.22426	71.29905	0.9561	-15.65981	0.9561	-15.65981	0.22426	71.29905
2730	0.22644	71.45522	0.95681	-15.80208	0.95681	-15.80208	0.22644	71.45522
2750	0.22679	71.30905	0.95647	-15.95067	0.95647	-15.95067	0.22679	71.30905
2770	0.22622	71.02176	0.95501	-16.0169	0.95501	-16.0169	0.22622	71.02176
2790	0.22853	70.77486	0.95483	-16.08399	0.95483	-16.08399	0.22853	70.77486
2810	0.23143	70.57581	0.9541	-16.34138	0.9541	-16.34138	0.23143	70.57581
2830	0.23373	70.42398	0.95318	-16.68325	0.95318	-16.68325	0.23373	70.42398
2850	0.23541	70.3107	0.95458	-16.70854	0.95458	-16.70854	0.23541	70.3107
2870	0.2372	70.16467	0.95226	-16.58622	0.95226	-16.58622	0.2372	70.16467
2890	0.2395	70.61338	0.95291	-16.60261	0.95291	-16.60261	0.2395	70.61338
2910	0.24196	70.94365	0.95321	-16.72539	0.95321	-16.72539	0.24196	70.94365
2930	0.24365	70.92318	0.95178	-16.86155	0.95178	-16.86155	0.24365	70.92318
2950	0.24304	70.80061	0.94924	-16.85733	0.94924	-16.85733	0.24304	70.80061
2970	0.2442	70.42783	0.94919	-17.03068	0.94919	-17.03068	0.2442	70.42783
2990	0.24572	70.09582	0.95035	-17.18523	0.95035	-17.18523	0.24572	70.09582
3010	0.24777	69.8604	0.95089	-17.19975	0.95089	-17.19975	0.24777	69.8604
3030	0.25028	69.72069	0.94989	-17.22825	0.94989	-17.22825	0.25028	69.72069
3050	0.25294	69.61912	0.94725	-17.70002	0.94725	-17.70002	0.25294	69.61912
3070	0.25256	69.3856	0.94511	-17.94985	0.94511	-17.94985	0.25256	69.3856
3090	0.25464	69.57635	0.94833	-17.89603	0.94833	-17.89603	0.25464	69.57635
3110	0.25695	69.8145	0.94848	-17.81675	0.94848	-17.81675	0.25695	69.8145
3130	0.25849	69.87467	0.94524	-17.7936	0.94524	-17.7936	0.25849	69.87467
3150	0.25946	69.68295	0.94635	-17.71159	0.94635	-17.71159	0.25946	69.68295
3170	0.25911	69.2797	0.94536	-18.13536	0.94536	-18.13536	0.25911	69.2797
3190	0.26026	68.92874	0.94302	-18.11192	0.94302	-18.11192	0.26026	68.92874
3210	0.26284	68.72302	0.94221	-18.18445	0.94221	-18.18445	0.26284	68.72302
3230	0.26578	68.70333	0.94236	-18.42616	0.94236	-18.42616	0.26578	68.70333
3250	0.26699	68.85834	0.93951	-18.44025	0.93951	-18.44025	0.26699	68.85834
3270	0.27009	68.8345	0.94654	-18.87915	0.94654	-18.87915	0.27009	68.8345
3290	0.2711	69.0011	0.94486	-18.86912	0.94486	-18.86912	0.2711	69.0011
3310	0.27159	69.11669	0.94112	-18.89087	0.94112	-18.89087	0.27159	69.11669
3330	0.27234	69.09028	0.94021	-19.00655	0.94021	-19.00655	0.27234	69.09028
3350	0.27338	68.98132	0.94522	-18.85965	0.94522	-18.85965	0.27338	68.98132
3370	0.27477	68.42689	0.94099	-19.135	0.94099	-19.135	0.27477	68.42689
3390	0.27568	68.11203	0.93898	-19.28701	0.93898	-19.28701	0.27568	68.11203
3410	0.27762	68.03973	0.93758	-19.32075	0.93758	-19.32075	0.27762	68.03973
3430	0.28023	68.1096	0.93671	-19.32038	0.93671	-19.32038	0.28023	68.1096
3450	0.28135	68.11781	0.93779	-19.44914	0.93779	-19.44914	0.28135	68.11781
3470	0.2819	67.5147	0.93702	-19.90999	0.93702	-19.90999	0.2819	67.5147
3490	0.28274	67.72543	0.93506	-19.8651	0.93506	-19.8651	0.28274	67.72543
3510	0.2845	67.68768	0.93571	-19.83807	0.93571	-19.83807	0.2845	67.68768
3530	0.28693	67.16543	0.93825	-19.99122	0.93825	-19.99122	0.28693	67.16543
3550	0.28897	66.74897	0.93749	-20.12556	0.93749	-20.12556	0.28897	66.74897
3570	0.2898	66.85616	0.93189	-20.1367	0.93189	-20.1367	0.2898	66.85616
3590	0.29188	66.76635	0.93281	-20.18782	0.93281	-20.18782	0.29188	66.76635
3610	0.29441	66.65657	0.93501	-20.31667	0.93501	-20.31667	0.29441	66.65657
3630	0.29658	66.69059	0.93472	-20.46225	0.93472	-20.46225	0.29658	66.69059
3650	0.29757	67.01899	0.92958	-20.4649	0.92958	-20.4649	0.29757	67.01899
3670	0.29918	66.70269	0.93268	-20.79108	0.93268	-20.79108	0.29918	66.70269
3690	0.29955	66.52517	0.92955	-20.96457	0.92955	-20.96457	0.29955	66.52517
3710	0.3006	66.29331	0.92684	-21.04624	0.92684	-21.04624	0.3006	66.29331
3730	0.30254	66.01288	0.92712	-21.1237	0.92712	-21.1237	0.30254	66.01288
3750	0.30382	65.8885	0.92887	-21.31133	0.92887	-21.31133	0.30382	65.8885
3770	0.30549	65.93853	0.9262	-21.26893	0.9262	-21.26893	0.30549	65.93853
3790	0.30831	66.0861	0.92643	-21.34587	0.92643	-21.34587	0.30831	66.0861
3810	0.31086	65.98538	0.92577	-21.45626	0.92577	-21.45626	0.31086	65.98538
3830	0.31196	65.69501	0.92387	-21.5568	0.92387	-21.5568	0.31196	65.69501
3850	0.31069	65.67808	0.92392	-21.64678	0.92392	-21.64678	0.31069	65.67808
3870	0.31166	65.34996	0.92224	-21.80261	0.92224	-21.80261	0.31166	65.34996
3890	0.31415	65.17012	0.92193	-21.77268	0.92193	-21.77268	0.31415	65.17012
3910	0.31629	64.86387	0.9228	-21.87356	0.9228	-21.87356	0.31629	64.86387
3930	0.31777	64.47415	0.92405	-22.15447	0.92405	-22.15447	0.31777	64.47415
3950	0.31985	64.36156	0.92428	-22.39722	0.92428	-22.39722	0.31985	64.36156
3970	0.32095	64.41682	0.92163	-22.49145	0.92163	-22.49145	0.32095	64.41682
3990	0.32319	64.37833	0.91972	-22.42862	0.91972	-22.42862	0.32319	64.37833
4010	0.32499	64.28447	0.91849	-22.4225	0.91849	-22.4225	0.32499	64.28447
4030	0.32581	64.13394	0.91818	-22.57295	0.91818	-22.57295	0.32581	64.13394
4050	0.32614	63.88571	0.91935	-22.86594	0.91935	-22.86594	0.32614	63.88571
4070	0.3279	63.71372	0.91668	-22.97285	0.91668	-22.97285	0.3279	63.71372
4090	0.33002	63.26501	0.91527	-23.01824	0.91527	-23.01824	0.33002	63.26501
4110	0.33191	62.82181	0.91547	-23.15236	0.91547	-23.15236	0.33191	62.82181
4130	0.33316	62.56085	0.91513	-23.36334	0.91513	-23.36334	0.33316	62.56085
4150	0.3335	62.55329	0.90959	-23.47726	0.90959	-23.47726	0.3335	62.55329
4170	0.33925	62.55166	0.9139	-23.40006	0.9139	-23.40006	0.33925	62.55166
4190	0.3412	62.60615	0.91505	-23.56381	0.91505	-23.56381	0.3412	62.60615
4210	0.34168	62.5598	0.91287	-23.75933	0.91287	-23.75933	0.34168	62.5598
4230	0.34245	62.44519	0.91016	-23.84747	0.91016	-23.84747	0.34245	62.44519
4250	0.34475	62.48453	0.91275	-23.75903	0.91275	-23.75903	0.34475	62.48453
4270	0.3456	62.29507	0.91009	-23.84793	0.91009	-23.84793	0.3456	62.29507
4290	0.34779	61.90357	0.90975	-24.1173	0.90975	-24.1173	0.34779	61.90357
4310	0.35013	61.39887	0.90901	-24.36691	0.90901	-24.36691	0.35013	61.39887
4330	0.35242	60.97049	0.90884	-24.57667	0.90884	-24.57667	0.35242	60.97049
4350	0.35545	60.90861	0.91392	-24.90663	0.91392	-24.90663	0.35545	60.90861
4370	0.356	61.05668	0.90914	-24.67317	0.90914	-24.67317	0.356	61.05668
4390	0.35741	61.13413	0.9072	-24.7178	0.9072	-24.7178	0.35741	61.13413
4410	0.35851	61.10992	0.90739	-24.80914	0.90739	-24.80914	0.35851	61.10992
4430	0.35939	60.926	0.90765	-24.88912	0.90765	-24.88912	0.35939	60.926
4450	0.36137	60.49728	0.90464	-25.07294	0.90464	-25.07294	0.36137	60.49728
4470	0.36117	60.20674	0.90416	-25.1829	0.90416	-25.1829	0.36117	60.20674
4490	0.36358	60.03284	0.9042	-25.25318	0.9042	-25.25318	0.36358	60.03284
4510	0.36665	59.83731	0.90416	-25.41717	0.90416	-25.41717	0.36665	59.83731
4530	0.36898	59.65649	0.90288	-25.59418	0.90288	-25.59418	0.36898	59.65649
4550	0.36971	59.70135	0.89863	-25.48945	0.89863	-25.48945	0.36971	59.70135
4570	0.37317	59.65544	0.90155	-25.54008	0.90155	-25.54008	0.37317	59.65544
4590	0.37383	59.26296	0.90388	-25.96415	0.90388	-25.96415	0.37383	59.26296
4610	0.37333	59.2184	0.90138	-26.14321	0.90138	-26.14321	0.37333	59.2184
4630	0.3736	59.36613	0.89674	-26.06135	0.89674	-26.06135	0.3736	59.36613
4650	0.37683	58.70043	0.89965	-26.30516	0.89965	-26.30516	0.37683	58.70043
4670	0.37775	57.95415	0.8966	-26.7931	0.8966	-26.7931	0.37775	57.95415
4690	0.37889	57.82468	0.89371	-26.69875	0.89371	-26.69875	0.37889	57.82468
4710	0.38136	57.83251	0.89284	-26.68999	0.89284	-26.68999	0.38136	57.83251
4730	0.38473	57.68615	0.89347	-26.90779	0.89347	-26.90779	0.38473	57.68615
4750	0.3871	57.28214	0.89265	-26.96627	0.89265	-26.96627	0.3871	57.28214
4770	0.38731	57.25957	0.89419	-27.27258	0.89419	-27.27258	0.38731	57.25957
4790	0.38761	57.15802	0.89239	-27.49908	0.89239	-27.49908	0.38761	57.15802
4810	0.38854	56.92877	0.89187	-27.47573	0.89187	-27.47573	0.38854	56.92877
4830	0.39046	56.54182	0.89342	-27.4119	0.89342	-27.4119	0.39046	56.54182
4850	0.39361	55.9859	0.89399	-27.89646	0.89399	-27.89646	0.39361	55.9859
4870	0.39478	55.89945	0.89094	-27.67327	0.89094	-27.67327	0.39478	55.89945
4890	0.39731	55.86714	0.89122	-27.84987	0.89122	-27.84987	0.39731	55.86714
4910	0.39937	55.57173	0.88753	-28.09898	0.88753	-28.09898	0.39937	55.57173
4930	0.40106	55.15472	0.88309	-28.21483	0.88309	-28.21483	0.40106	55.15472
4950	0.40442	55.21625	0.89167	-28.11309	0.89167	-28.11309	0.40442	55.21625
4970	0.40398	54.80476	0.88745	-28.42408	0.88745	-28.42408	0.40398	54.80476
4990	0.40343	54.51096	0.88386	-28.5952	0.88386	-28.5952	0.40343	54.51096
5010	0.40566	54.32914	0.88224	-28.65339	0.88224	-28.65339	0.40566	54.32914
5030	0.40971	54.05541	0.88294	-28.77316	0.88294	-28.77316	0.40971	54.05541
5050	0.4108	53.28759	0.8854	-29.27653	0.8854	-29.27653	0.4108	53.28759
5070	0.41131	53.2092	0.87954	-29.35956	0.87954	-29.35956	0.41131	53.2092
5090	0.41401	53.34418	0.87846	-29.32509	0.87846	-29.32509	0.41401	53.34418
5110	0.41735	53.13111	0.8816	-29.43282	0.8816	-29.43282	0.41735	53.13111
5130	0.41928	52.63456	0.88394	-29.73138	0.88394	-29.73138	0.41928	52.63456
5150	0.41726	52.5451	0.87602	-30.05831	0.87602	-30.05831	0.41726	52.5451
5170	0.41759	52.80211	0.87639	-29.84379	0.87639	-29.84379	0.41759	52.80211
5190	0.42217	52.51331	0.87684	-29.94637	0.87684	-29.94637	0.42217	52.51331
5210	0.42458	51.9013	0.87517	-30.27665	0.87517	-30.27665	0.42458	51.9013
5230	0.42374	51.44211	0.87127	-30.56572	0.87127	-30.56572	0.42374	51.44211
5250	0.42388	51.86525	0.86715	-30.36515	0.86715	-30.36515	0.42388	51.86525
5270	0.43023	51.41788	0.87417	-30.59097	0.87417	-30.59097	0.43023	51.41788
5290	0.43086	50.8695	0.8708	-31.09693	0.8708	-31.09693	0.43086	50.8695
5310	0.431	50.82023	0.86682	-31.20809	0.86682	-31.20809	0.431	50.82023
5330	0.43374	51.1077	0.86712	-30.95082	0.86712	-30.95082	0.43374	51.1077
5350	0.43999	50.80706	0.87176	-31.05285	0.87176	-31.05285	0.43999	50.80706
5370	0.43738	50.01841	0.86887	-31.47926	0.86887	-31.47926	0.43738	50.01841
5390	0.43799	49.84986	0.86763	-31.51445	0.86763	-31.51445	0.43799	49.84986
5410	0.44094	49.80656	0.86778	-31.65426	0.86778	-31.65426	0.44094	49.80656
5430	0.44432	49.66898	0.86816	-31.93087	0.86816	-31.93087	0.44432	49.66898
5450	0.44517	49.49286	0.86676	-31.91279	0.86676	-31.91279	0.44517	49.49286
