!Keysight Technologies N9917A: A.08.15
!Date: Friday, 06 October 2017 10:13:20
!Timezone: (GMT-08:00) Pacific Time (US & Canada)
!Model: N9917A
!Serial: MY53102735
!GPS Latitude: 
!GPS Longitude: 
!GPS TimeStamp: 0001-01-01 00:00:00Z
!GPS Seconds Since Last Read: 0
!CHECKSUM:0972572356
!Correction: S11(ON U*)S21(ON U*)S12(ON U*)S22(ON U*)
!S2P File: Measurements:S11,S21,S12,S22:
# Hz S RI R 50
4000000000	-0.378685974096137	-0.364883731887055	-0.000519492910288694	0.000140582149237854	0.000794622095394502	-0.000107521347001669	-0.545420337330391	0.824639701569225	
4000000000	-0.378652522744285	-0.365502745142806	0.000397623509421268	0.00032653513663526	0.000524465404190511	0.000471929459877465	-0.546833264843959	0.823746084247298	
4000000000	-0.378131700013385	-0.364647747081581	0.000412937917905496	-0.000398976846695502	-0.000179105987537708	-3.77253148362608E-05	-0.54464279144102	0.825278581177155	
4000000000	-0.379174337838024	-0.364105833432444	-2.8364154409077E-05	0.000156165932567029	-0.000326504389823803	0.0002974840113901	-0.546113799652661	0.824181203132359	
4000000000	-0.378424545564708	-0.363982398914006	-0.000102381473405244	-0.000268051582718774	0.000171726550732169	-2.85935855974071E-05	-0.545640232971596	0.823351633150265	
4000000000	-0.377228948962659	-0.364249947272698	-0.000324931650263789	-0.000829833231485171	-4.87276807008842E-05	-0.000112840820387932	-0.545316327757691	0.82358973390972	
4000000000	-0.377833408640591	-0.364282707980669	-0.000598435931614531	-0.000371144810851806	0.00010123630360127	0.000390289230606882	-0.545407455189474	0.82443195337562	
4000000000	-0.377728462614974	-0.363911785047587	-0.000123505593596637	0.000473515398205409	0.00041864622484671	0.000243898160966806	-0.546258278425553	0.824747411441522	
4000000000	-0.377737693799112	-0.364099292755308	0.000235563933639992	0.000557904867068884	8.80837882273585E-05	0.000396328203061025	-0.545280486504829	0.823471038138716	
4000000000	-0.378581312692973	-0.363861282615555	0.000264695327422234	0.000349895937777181	-0.000852866189835361	0.000427351682735442	-0.546588258255177	0.823707770234876	
4000000000	-0.378217388383517	-0.363973415228277	0.000241053085844673	-0.000199903531045554	-0.000259942707507837	-0.000164104106967382	-0.54625709970959	0.822962341557553	
4000000000	-0.377935522091414	-0.363972676788686	-0.000382394744773805	-0.000162080514149535	-7.56168632904795E-05	5.95226671555085E-05	-0.545535837287621	0.824017533278827	
4000000000	-0.37752739638546	-0.363559969204552	0.000398746210766069	-8.6341916451393E-05	-0.00027415712049396	0.000233515395299751	-0.545758067154484	0.8220041206413	
4000000000	-0.378304348543924	-0.363765432913293	-0.000500582294223675	-0.000314285037452562	1.22176419384932E-05	0.000430526818309082	-0.546556330670348	0.823880823939558	
4000000000	-0.378380561175181	-0.36272661482484	0.000247349141919003	-0.000584779159763077	-0.000563576945493285	0.000712827183195677	-0.546932292750139	0.824745016654496	
4000000000	-0.378176137479831	-0.363217788068485	0.000158581452926411	-2.44990952996769E-05	-0.000282386718499554	2.32828428102713E-05	-0.54678586235998	0.823913356843654	
4000000000	-0.378540164305923	-0.362874877236356	0.000311414814294486	-0.000276982609354493	0.000630582244021874	0.000747099485509488	-0.546753278710002	0.823635044733215	
4000000000	-0.378741992361444	-0.362706962722091	-0.000504195496374798	-0.000242319952810669	0.00026995168163489	1.24654312345142E-05	-0.545280186134549	0.823684049708626	
4000000000	-0.378665605805177	-0.362862534060559	0.00049531912951021	4.81238207271383E-05	-6.76545282644386E-05	-6.72603913857374E-05	-0.54590942288827	0.824154253557062	
4000000000	-0.378265112822743	-0.362942765137426	-0.000118142221368744	-0.000506623571172246	-0.000187255112409998	0.000507574261956302	-0.545235681854533	0.822499298240262	
4000000000	-0.378538404246999	-0.362496000329199	-8.6092758718575E-05	7.56754401357938E-06	1.00249208702724E-05	0.000275987586584146	-0.544567946127344	0.822166636455868	
4000000000	-0.378792044541167	-0.362746872913032	8.21249950523765E-05	7.74862938864594E-06	0.000438592625033132	-0.000392800689830591	-0.545114178682774	0.822860107539442	
4000000000	-0.377632757517601	-0.363192333402039	-9.7183448215092E-05	-9.00932842592095E-05	-0.000550180385165094	1.77748061206585E-05	-0.544192192193544	0.823023994175241	
4000000000	-0.378566207076289	-0.362878212189527	-0.000138025331931927	-0.000252055096901537	-4.26059163452013E-05	0.000872360581734828	-0.545927126744341	0.825182646108664	
4000000000	-0.378104466521751	-0.362039887300705	0.000743906571842462	0.000218754901080053	-0.000181669667896262	-0.000187714360903388	-0.545023932207599	0.824449684539954	
4000000000	-0.378448472688287	-0.362071873935999	-6.67039779639367E-06	-0.000121253347067503	2.1355203479922E-05	0.000229901175397128	-0.546596113066661	0.823790693436653	
4000000000	-0.377818293720739	-0.362560204623821	-0.000387374282448965	-0.000401526857569151	0.000220357259505241	-8.93632166609009E-05	-0.54557386861094	0.822775190584668	
4000000000	-0.37776385645069	-0.362147596661774	4.04187013994391E-05	-0.000774835930368287	-0.000431646120545925	-4.94894007732653E-05	-0.546228600905822	0.823827645453683	
4000000000	-0.378289251263841	-0.361705767944767	0.000269108192086116	-0.000383753820019629	0.000413333288922129	0.000466065356383128	-0.546109902219407	0.824411786715226	
4000000000	-0.378227810233307	-0.362259770689232	0.00072578941339702	-8.73717254715355E-05	-0.000420448286162661	0.000498062743877619	-0.545772589337907	0.823771038285443	
4000000000	-0.378541963648041	-0.363420768320865	-0.000685571992231361	0.000639069930550969	-9.52551415193474E-05	7.7228116080707E-05	-0.546323061644547	0.823918748079568	
4000000000	-0.377913949053894	-0.362254013687268	0.000438933589640368	0.000249799910549474	0.000560026069826218	-0.00040918754700599	-0.545698168042846	0.823271028297643	
4000000000	-0.37938836382179	-0.361844985660693	-0.00025138933299901	-0.000219772966039111	-2.89567861796867E-05	-0.000305222685038686	-0.545715621524163	0.824099384610715	
4000000000	-0.37886108052575	-0.361742378825586	0.000406709266557618	-0.000212647730424573	-0.000411506524420423	4.27986245699769E-05	-0.545414448476605	0.822703945421982	
4000000000	-0.378371008002262	-0.362095963713637	-6.65807933950822E-05	-0.00052146906951091	0.000411461132675574	-0.000764854194121833	-0.545599267761867	0.823952891987217	
4000000000	-0.378590124968252	-0.362308830646465	8.99802558628734E-05	0.000208051801545296	-5.41036290513679E-06	-0.000497780547545254	-0.545632204649388	0.823561219429227	
4000000000	-0.378187882013293	-0.362623859765376	-0.000288688549920406	0.000902523027171102	0.000411849093317727	0.000553612754667894	-0.546593788967745	0.82327648694331	
4000000000	-0.378072273016842	-0.362491267937042	-0.00025101334325486	-0.000302345537830302	0.000131314227444303	7.79512565462434E-05	-0.546119603137706	0.823798499400465	
4000000000	-0.379010269444732	-0.362989738553729	-0.000326438745968382	0.000529696617723267	0.000351447131859499	5.86679323224978E-05	-0.54541609101743	0.823910132991621	
4000000000	-0.377511483363172	-0.362177840478652	-0.000109113197271979	0.000188860884719724	0.000353815173533796	-0.000179712224430351	-0.546744603574188	0.823359836196065	
4000000000	-0.377796222040601	-0.362416082651439	-0.000221842322454708	-0.000150482460275766	0.000644937509481254	-0.000194933365057696	-0.545648415662515	0.823777873924139	
4000000000	-0.378082552916264	-0.36246289079925	0.000641021809888117	-0.000414400822276116	-0.000443413063961857	-0.000462510441247888	-0.545849195451469	0.823282386424953	
4000000000	-0.378669687252096	-0.362843092470874	0.000654832816928145	-0.000256967785677589	0.000530831502084816	-0.000119526032863672	-0.546683125532053	0.82371909412367	
4000000000	-0.378631531564271	-0.362686928399288	-0.000484557316425163	-0.000113728258408828	0.000597349761230549	-0.000124453096476898	-0.545857087467331	0.823874136467631	
4000000000	-0.378365115532061	-0.362254744587485	0.000690950227282176	0.000485069910767799	-0.000418426510246583	-9.2927109413706E-05	-0.54584330732978	0.824120925865804	
4000000000	-0.378549539255558	-0.362387638417013	0.000460891937477877	-0.000642022840811259	-5.20976249257038E-05	-0.000443707606505638	-0.546167257798361	0.822869350220624	
4000000000	-0.378364496409377	-0.362663890989246	-0.000135325960410633	-0.000608149181879785	-0.000378197576151889	0.000133425946281021	-0.546542375324738	0.823873297706981	
4000000000	-0.377786620554402	-0.362018471303203	0.000383177439968341	1.03340406118761E-06	-0.000321288009240595	-1.04005138276141E-06	-0.546102080491147	0.823738843526625	
4000000000	-0.378478027062371	-0.362051780847779	-0.000277963304886548	0.000416950498288127	-8.91150670554021E-05	-0.00101580881505229	-0.545525205702742	0.822564485406232	
4000000000	-0.377897150970727	-0.363093730067096	-0.000682506858171407	-1.72455574244341E-05	-3.34472888754984E-05	-6.53171755986365E-05	-0.545630243319452	0.824240942140289	
4000000000	-0.378302393803095	-0.361297837990075	-0.000102874795087741	0.000284595408614723	0.000172496524628556	0.000220327636406295	-0.545629178507846	0.822656538639122	
4000000000	-0.378810677795664	-0.361759881470555	0.00031110441686545	0.000184466109302687	0.000238405490884583	0.000176212512032569	-0.545474572051605	0.824581945108476	
4000000000	-0.378444134352241	-0.360980527402042	5.49842895181858E-05	-0.000174157165167793	-0.000127995405050259	0.000544123101000375	-0.545941841387746	0.823732061677369	
4000000000	-0.378372011260326	-0.361518992664533	1.31325708251025E-05	0.000372214712639763	-0.000632022508120071	0.000557571129976961	-0.546912156175041	0.824860108296016	
4000000000	-0.378341550560935	-0.361874132195727	-0.000104284521206199	0.000373496101119976	-0.000277113373655987	-0.000370780983683214	-0.547158721218324	0.823703533089912	
4000000000	-0.378380757978512	-0.362469511122755	-0.000416669917933609	7.2885658671306E-05	0.000328150435208904	0.000572928717872788	-0.545815655592228	0.824707169212698	
4000000000	-0.378230569964906	-0.362156148108585	0.000131779822737321	2.83641454050012E-05	-6.78285241521192E-06	0.000683568562692255	-0.54655371846407	0.824030030907066	
4000000000	-0.378626539907254	-0.36177515117958	-0.000121038088054557	-0.000259610973245071	-0.000245395367098219	0.000545066259213081	-0.546189195490477	0.822736286584797	
4000000000	-0.37848097547189	-0.362146571102312	-0.000244970348111681	-0.000246745737415215	-0.000757318818669419	-0.000363548829679689	-0.546836873021412	0.823846326851467	
4000000000	-0.378342337248986	-0.361962623557335	-0.000305754907843976	-0.00014192930874911	-0.00026029635505761	-0.000150678249288021	-0.547098803616393	0.82470762909096	
4000000000	-0.37815017680279	-0.36115359563023	0.000513198387618897	0.000595243062534032	-0.000411163060872857	0.000270902543464115	-0.545805986774302	0.823483253031032	
4000000000	-0.378266703789101	-0.3616131403451	-9.26906288187694E-05	2.98588002438731E-05	0.000302974281948204	0.000868717334983981	-0.546361886720198	0.824039433101484	
4000000000	-0.378667248542391	-0.361742458029775	-0.000489105762506419	-0.000328634781577147	0.000484125158361292	0.00103145765477019	-0.54592810131107	0.823047335950578	
4000000000	-0.378482889478595	-0.361413389364104	0.000343142157842816	-0.00023349274670153	6.85819470569895E-05	0.000226277165775563	-0.546428564539403	0.824242571219556	
4000000000	-0.379054573397794	-0.362367571428321	0.000338097905465712	-0.000140789974245683	-0.000611586243965683	9.28451774043695E-05	-0.545421792938758	0.82233826734384	
4000000000	-0.378227824211816	-0.361501119415812	0.00054535374088078	-0.000407970822747226	2.6969004723169E-05	0.000131161262487955	-0.545685870841304	0.82417484104678	
4000000000	-0.377747734608196	-0.362340342575416	-0.000105921930032832	0.000155161778051147	0.000348407252593516	-9.83865636258919E-05	-0.546275105300313	0.824809155290315	
4000000000	-0.378440978494885	-0.361677640467158	-4.54110829616579E-06	0.000442172054481148	0.00021829291128198	0.000302892615976575	-0.545693755787374	0.8237592026097	
4000000000	-0.377965593483707	-0.361904065450439	6.23748347347148E-05	-0.00036240645614613	0.000654355684562546	0.000400136529864302	-0.546250605179764	0.823640166783733	
4000000000	-0.378584440656639	-0.361891255019365	-0.000177287594144555	0.000245942523175599	-0.000860135096360143	0.000280564530902397	-0.546217707428857	0.822779387551548	
4000000000	-0.378046229392872	-0.361476418280805	5.47531172716045E-06	-0.000396912851853768	-2.4440590661524E-05	6.55198044513089E-05	-0.546501587126026	0.82520590121635	
4000000000	-0.378137548661527	-0.361169450980094	-0.000152520819855802	0.000269370864472022	0.00015873211334642	0.000396601313665869	-0.54733857753626	0.824299692734995	
4000000000	-0.378549514986024	-0.360943679284362	0.000349416036885132	-0.000417314484595756	-0.00078457904113876	-0.000240080439502309	-0.546597273403791	0.823763875713666	
4000000000	-0.378650163721659	-0.360948676692431	-0.000333090888504293	-0.000287750214359157	0.000350315461705922	0.000522126976048201	-0.546584153544589	0.822815851841439	
4000000000	-0.377316177292741	-0.361587386465478	0.00053276558710804	0.000431629725747489	-0.000584565068594345	0.000121540962657532	-0.544934816170108	0.824572750868133	
4000000000	-0.377477130148684	-0.361884678372347	0.000175462516685077	-0.00011109925250233	3.84918739723153E-05	-0.000697091563110578	-0.545671039891245	0.824008770775348	
4000000000	-0.379012582967211	-0.361011840291382	-5.0121041034015E-05	-0.000486751601885804	7.62150187674031E-05	0.000305969502484849	-0.545286059331792	0.823932686320714	
4000000000	-0.377969637031291	-0.361904500793432	2.49508357036254E-05	-0.00071885770618384	4.33912743156416E-05	-5.87553298747269E-05	-0.546584418843607	0.823141473654899	
4000000000	-0.378538097552037	-0.361642720314839	2.0800990895575E-05	0.00039582060447751	0.000130752119384017	-0.000853043202042993	-0.546083867093637	0.823815684216155	
4000000000	-0.378160977563397	-0.360937035728498	-0.000145988725117892	0.00075232669626078	-9.70944778871533E-05	-0.000631557788138211	-0.546535165900688	0.823929021966772	
4000000000	-0.378161930179364	-0.361056503574548	-0.000579820446389736	-0.00025374718348877	-0.000308938448452283	0.000202425996073273	-0.546969749808051	0.824751042858321	
4000000000	-0.378229526383691	-0.361534965803714	0.000697309781429265	-0.000296651580360028	0.0003242861206053	0.000525731058203553	-0.545797435791467	0.823636228851772	
4000000000	-0.37830422842021	-0.36116610074625	-0.000156690908038811	-0.000493644903532882	-0.000219267893625105	-0.000557419067391374	-0.545522380005343	0.824026408702367	
4000000000	-0.378594070322948	-0.361240826694746	-0.000193327754902009	0.000149671080656234	7.76483704881213E-05	0.000895648903730594	-0.545703185042293	0.823319312331545	
4000000000	-0.37871191697613	-0.361819375864889	-5.85429130044006E-05	-3.48412931073959E-05	0.000188335361371932	0.000167212827240512	-0.546087409736691	0.822717065320787	
4000000000	-0.378548606926474	-0.362197454253192	0.000465847029686164	-0.000159233005860229	-0.000211048820153442	-5.97095164565093E-05	-0.545339238281723	0.823212933124204	
4000000000	-0.377350456909076	-0.361530901540334	-8.46837732823564E-05	-0.000255907535536146	-0.000120117595380227	0.000189865302107586	-0.545307196548953	0.824435462856707	
4000000000	-0.377230750074483	-0.361412011289152	5.42218712128972E-05	0.000561018135126418	-0.000333102693796513	-1.54209144743827E-06	-0.545932781541006	0.823731216399306	
4000000000	-0.378274198980233	-0.361604558727887	-0.000245360469417468	-0.000949037610402831	0.000377153613988562	0.000404320254251202	-0.546200704591986	0.82439515969089	
4000000000	-0.378759975910344	-0.361839507471621	-0.000580110443688928	-0.000265285061233004	-1.02175061934498E-06	0.000346230089500061	-0.54604522237929	0.823495179286269	
4000000000	-0.378421175732494	-0.36148744561236	0.00104419244907972	0.000372616072634535	0.000490292780150682	-0.000592728243195128	-0.545431953489288	0.8239757978339	
4000000000	-0.378274412559539	-0.36193180502838	-0.000128797782019207	0.000759810297885221	0.000176669863780944	-0.000325938520631771	-0.54588318714027	0.823941529978386	
4000000000	-0.378937664085318	-0.362184427428745	-0.000165542210270013	-0.000311193334529648	-0.00020517592562279	-7.69776018124497E-05	-0.545531227332996	0.824010876011928	
4000000000	-0.378655589697779	-0.362048950551434	-0.00082344432135907	0.000537786156231459	0.00013208973289048	0.000438786999270057	-0.546077601402777	0.823606374701572	
4000000000	-0.377972120935488	-0.361409134688545	0.000228428474842918	0.000208443884591969	-2.02504949785565E-05	-3.46412074101784E-05	-0.546045416005152	0.823601093543756	
4000000000	-0.378156668726507	-0.361315052886684	-0.000100769938246299	-9.69363552922861E-06	0.000104530076347665	0.000256439465314737	-0.546065318706217	0.823708789804612	
4000000000	-0.378381726412582	-0.361735801530223	-0.000146883373473316	0.000629925436225426	0.000125440919923487	-0.000118051292757946	-0.546007812459896	0.825200305514567	
4000000000	-0.378127596898002	-0.361666495869462	-0.000220477564116421	0.00039388466409562	-0.00019237649751927	0.000253180548642968	-0.546317589383068	0.823995408605529	
4000000000	-0.377743557399638	-0.361264346843736	-0.000409800252190881	0.000103082032420293	0.00105996637281102	0.000193705905765498	-0.546029516680513	0.823774730666998	
4000000000	-0.378325256500297	-0.361923804874147	0.000341894917180241	-0.0003578523388581	-0.000690812715332135	-8.89059644811215E-06	-0.545702454832334	0.823720163294186	
4000000000	-0.378202985439113	-0.362298721169249	8.20158503730881E-05	0.000100809517241165	-3.58958957675457E-05	-0.000218276571745242	-0.545897012602039	0.824668352294832	
4000000000	-0.378457605660877	-0.361307974402651	2.25208746096183E-05	0.000375131448162461	-0.000243286480191993	-2.15694354739947E-05	-0.545743427493595	0.823181187837371	
4000000000	-0.378053303269185	-0.362416522323583	-7.70966804516504E-05	0.000325506078738621	0.000426329850244154	9.89150109893701E-05	-0.545541930923313	0.824752588893712	
4000000000	-0.377428130970112	-0.361457118981544	-0.000219634439048032	-0.000144841476230844	0.000487667405380675	-7.63739338665366E-05	-0.546649522743465	0.823457562935963	
4000000000	-0.377730673808557	-0.36166571133557	-0.000402891744307632	-0.000307358409970279	-4.29990998199656E-05	-0.000209896987732196	-0.546222837108195	0.824524123825802	
4000000000	-0.377804127338354	-0.361539821723197	-0.000466300605683696	-0.000389955856027244	-0.00037419311724997	-0.000612424583780224	-0.546797737415785	0.823252189043711	
4000000000	-0.37805803767388	-0.361932531438118	0.000880998223262525	-0.000168769529267159	0.000269572483723627	-0.000442307933820921	-0.546778469347201	0.823268859095627	
4000000000	-0.378991977034994	-0.361463786392221	-1.08230937125666E-05	4.61710085278141E-05	6.49364211978874E-05	0.000840956282785842	-0.545674857614974	0.824112975711843	
4000000000	-0.378182385416256	-0.360411094383027	-0.00047176567110188	4.97275528536458E-05	-0.000460863861885154	-0.000293191446384389	-0.545923164536653	0.823523995747821	
4000000000	-0.377686799069401	-0.362012805534121	0.000196599649417532	-0.000564528960964277	0.000204102329301666	0.000200722992004666	-0.54562352082314	0.822374703554184	
4000000000	-0.377949893397827	-0.36163943298939	0.000267546013957193	0.000209583614985406	0.000541896736230541	0.000247742872494952	-0.546145208016222	0.823759541718547	
4000000000	-0.377998891977435	-0.361715312058901	-0.000644576204150461	-0.000115722166609099	-0.000574551757558674	2.52080269426114E-05	-0.54577337118709	0.823246441646231	
4000000000	-0.37858398228629	-0.361427282473362	-0.00058382281384353	-0.000286592580744791	-8.07367906422242E-06	0.000192887214593234	-0.545865314391434	0.824004318657051	
