!Keysight Technologies N9917A: A.08.15
!Date: Sunday, 08 October 2017 10:39:42
!Timezone: (GMT-08:00) Pacific Time (US & Canada)
!Model: N9917A
!Serial: MY53102735
!GPS Latitude: 
!GPS Longitude: 
!GPS TimeStamp: 0001-01-01 00:00:00Z
!GPS Seconds Since Last Read: 0
!CHECKSUM:0560674840
!Correction: S11(ON U*)S21(ON U*)S12(ON U*)S22(ON U*)
!S2P File: Measurements:S11,S21,S12,S22:
# Hz S RI R 50
3000000000	-0.309357286469116	0.324226155764205	4.97119483404202E-05	8.29784578120416E-05	-9.96023537162664E-05	-0.000217626282459046	-0.670278584543418	-0.704437331646819	
3010000000	0.172272545784171	0.419210805128359	-0.000603866984095627	3.20429282745835E-05	-8.35270377874012E-05	0.000251050856085298	-0.929921251150584	0.306531860195714	
3020000000	0.46211792708644	0.00823689009775394	-0.000525777140885017	0.00030864033499285	-0.000343498598002583	-5.67452297087866E-05	-0.127729159995163	0.980278559574509	
3030000000	0.198306195567111	-0.426657477881739	-0.000119346779735887	2.02057353162483E-05	5.42715280246898E-06	3.68150972072651E-05	0.842662391854376	0.531375373698869	
3040000000	-0.299461843939722	-0.364314739757896	0.000217093039414481	0.000104941571021698	0.00033428794998631	0.000294530941039306	0.826990700437146	-0.552118851157468	
3050000000	-0.448537589619209	0.114786452461478	0.000605488964461507	-0.000701466452439479	0.000348624759196535	0.000201218133792975	-0.165204030140613	-0.972756099816128	
3060000000	-0.0733056259834467	0.444342306181511	-0.000337320132600386	0.000737632882749358	-0.000523644268178976	-0.000813350319754924	-0.940402975803395	-0.250242160808783	
3070000000	0.372471388386559	0.239300776869157	-0.000848170086391969	-0.000204849067162184	0.000277959320187582	-7.98798863632376E-05	-0.618543130030527	0.738514450426578	
3080000000	0.369967277505172	-0.249186562039252	0.000380575303401787	0.000219968740681001	-4.99960281340076E-06	-0.000787987023282566	0.41761400088343	0.866028021043239	
3090000000	-0.0832094059371487	-0.451165647704204	0.000871442657209229	-0.00029588528988954	-0.000577328683970668	0.000461548032266795	0.974063827627957	-0.0253631476003487	
3100000000	-0.443299916917772	-0.117037435768941	-0.0004109894246787	-0.000294515877238591	0.000280293698370919	-0.000468852655345364	0.370876674561859	-0.915061170006087	
3110000000	-0.296939126205372	0.355270125653205	-0.000451958462819186	0.000858675938306667	8.1495811575066E-05	0.000510645904327992	-0.687185790420713	-0.708151766191818	
3120000000	0.203717425212339	0.420182290966534	0.000611405904153741	-0.000189071028050084	-0.000380055151593068	0.000123029578802738	-0.926362867433075	0.32101979731915	
3130000000	0.466500219042006	-0.0198151827406849	0.000172547694741636	0.000420862316281891	6.70000656996958E-05	-4.8748334637629E-05	-0.121126760527561	0.975801957520649	
3140000000	0.173720502246097	-0.427849538414849	-0.000240955959996041	-0.000771205823829144	-0.000193703881206101	-0.000237071486227323	0.835536548786615	0.527711370822318	
3150000000	-0.323165667137829	-0.33419704579912	0.000213829195172792	0.000128805459054777	-7.52551823303123E-05	0.000118414315670228	0.818876574824256	-0.546716366934677	
3160000000	-0.426363236018423	0.150760216497336	0.000100260742500898	-0.000408822431023229	0.000126424658565136	3.62156358232941E-05	-0.163539201501335	-0.961621925350594	
3170000000	-0.0331868015848854	0.445121932584975	-0.000430296240641026	-3.2132384340935E-05	-3.27160300822087E-05	0.00055088425376762	-0.938598880283779	-0.24070158657268	
3180000000	0.398623741831417	0.209346563263416	-0.00066721935524626	0.000139278793917744	-0.000192703446351312	-0.000212185079483582	-0.605078466705943	0.752558670147566	
3190000000	0.362721521078909	-0.289806314205505	-1.08216553567445E-05	-0.000188469828965636	-0.00125100520851884	0.000208335093016358	0.432786546731539	0.868727926560768	
3200000000	-0.117211154144471	-0.465608762685736	0.00104977508086762	0.000389439097817781	0.000537457410071055	0.000236979342555515	0.985733870345752	-0.0275244778809499	
3210000000	-0.476469142456955	-0.0900261098993811	-0.00010326750172484	-0.00011722405048925	-0.000123204847895775	1.68788384396112E-05	0.378708319777942	-0.92261143933461	
3220000000	-0.286836827422854	0.393397501922273	-0.000289748038846178	0.000153342687811469	-0.000136650827152934	0.000534536729478047	-0.68068717269164	-0.724217389160351	
3230000000	0.234575067272733	0.422838196998442	-0.00035466859320342	-0.000175046833356847	-0.000366302655461467	5.22808413444854E-05	-0.940737334305616	0.296844498915685	
3240000000	0.474113238796588	-0.0396136559422366	0.000199868967257975	-9.61592689234348E-05	-0.000384274942369647	-0.000362764189596221	-0.136228501979055	0.967193545484499	
3250000000	0.150742558904497	-0.444054448837803	0.000533687650963339	-0.000540717921756381	6.30772535523835E-05	0.000396717676203195	0.821022653616636	0.5200392499508	
3260000000	-0.339962201848526	-0.312464657306762	-0.000278518572598065	-0.000121091462190112	-0.000605061823160282	-0.000184828164760804	0.80445858814656	-0.543035328163833	
3270000000	-0.417532574028028	0.181849420803444	-3.77611458567167E-05	0.000991052436333678	-0.000368776848396479	-0.000420187367698526	-0.178515378384282	-0.960013731069005	
3280000000	0.00255332685672069	0.459270818368665	0.000400892823144235	-0.000817257390263606	1.59414722677534E-05	9.02206424753935E-05	-0.948945150429471	-0.230983233230411	
3290000000	0.432078437767778	0.189107990927516	-0.000361198486890739	5.17155348531251E-05	-1.21276217472768E-05	-4.28370969626655E-05	-0.614478121001017	0.760789486328451	
3300000000	0.366648289123734	-0.318375503201644	0.000182058484188626	0.000543276877771114	5.07893596857312E-05	0.000106182765736305	0.426820491707762	0.887807482191169	
3310000000	-0.119119473497819	-0.479782137461376	0.000400256519083152	-5.55220977362179E-06	-0.000140707983193158	7.14678426989243E-05	0.997779688313087	-0.0150672255308729	
3320000000	-0.465805020411549	-0.100009388591474	-0.000259334284044794	-0.000362813628756793	-0.000107676774935917	0.000767150466625875	0.397374966810939	-0.920974777721127	
3330000000	-0.269194323279866	0.372331370971142	0.000293647148753991	9.06443271906771E-05	-0.000222341216483171	-0.000430510780301082	-0.673493089067075	-0.7356130510262	
3340000000	0.240892047164599	0.386896130297922	0.000428235180684603	-8.14435033832367E-05	-0.00031184844432162	-8.40449172579472E-05	-0.928478239893646	0.300489578533909	
3350000000	0.456185887224485	-0.0799512233265977	-0.000868452301982557	0.000254174832455814	0.000207368149585834	0.00039507476096685	-0.117584078313535	0.952565333796614	
3360000000	0.110586765031057	-0.460051509231341	0.000484558352134489	9.71704940374038E-05	0.000467307793577143	0.000437585755438374	0.819511320289098	0.50156835010641	
3370000000	-0.375776688675912	-0.292348824361636	-1.14202041758595E-05	0.000346519228616895	-0.000333594223897492	1.72112685031551E-05	0.795043742666701	-0.552978590442769	
3380000000	-0.420267587948232	0.230498173748003	-0.000299097672584553	0.000119462987927671	0.000197836875809056	7.45945110639494E-05	-0.176098641060455	-0.958728434577697	
3390000000	0.0437880063451012	0.481641630853987	-0.000604901069346904	0.000557681156405074	-0.000402617726983524	-0.000273292854396202	-0.952685486617312	-0.248804325976305	
3400000000	0.459919625297369	0.164251294581008	-6.40850350031225E-05	-9.39211490453472E-05	-0.000804483625588455	-0.000753449993317227	-0.636430631058277	0.760964924593081	
3410000000	0.351513377278106	-0.343967195096273	-0.000196812092140997	3.44951741398279E-05	-8.39433081651192E-05	-0.000175369618470365	0.421505545483495	0.900808392434178	
3420000000	-0.156043641500053	-0.464531105150005	0.000187870275881642	-0.000276259590458616	7.87835430416033E-05	0.000127020459440501	0.990109412587178	-0.00616105340610235	
3430000000	-0.473740962919765	-0.0495762399566206	-0.000359203528408038	-0.000230643024250977	-0.000361185405849987	0.000111485046955531	0.391896790865453	-0.902576853842056	
3440000000	-0.227634711556955	0.411286651494152	0.000471226086302138	-5.7118145302846E-05	0.000198998603929163	0.000184783128864697	-0.663028443809745	-0.705897989078559	
3450000000	0.295498482182045	0.367669447367124	4.6696761770053E-05	0.000141541707285081	-0.00019298680921636	-0.000360690607398426	-0.897833311287978	0.300157446946579	
3460000000	0.463144419917449	-0.128165563794586	0.000387494387651773	0.000181185423534722	0.000619507721694826	0.000193029436360101	-0.107525346921233	0.941698620571636	
3470000000	0.0777999035345763	-0.482864667116135	0.00074707879461553	0.000218051201460436	0.00078830197462862	-0.000197462880958936	0.827248554850606	0.499430671688019	
3480000000	-0.410746751385475	-0.281813983505911	-0.00034137468375927	-0.00056114305429673	-0.00029840682196818	-0.000109734504095934	0.803005022764792	-0.557559275954017	
3490000000	-0.430024562633522	0.25334320085732	-0.000249404698554996	0.000443498991450307	-0.000561815901352284	-0.000126525764687656	-0.171794146180595	-0.977102281157661	
3500000000	0.0508665157647577	0.494532871206766	-0.000460587264156704	-3.90471016607812E-05	0.00042824155445265	0.00051230447021508	-0.968681412889765	-0.26042572463163	
3510000000	0.466769345781606	0.163850912547042	0.000240586368543299	0.000343521997114453	-0.000310637470867675	-2.00383001582433E-05	-0.633897553832882	0.768091268430619	
3520000000	0.331759850340436	-0.36202529297223	-3.94339134204872E-05	0.000473701628361362	-0.000326714296949173	0.00031385021565091	0.42381812898195	0.882940435368867	
3530000000	-0.190454604088819	-0.443123236854294	-0.000278057110893503	-0.000448139962907271	0.000335084535841755	0.000149538073482753	0.977034291381418	-0.0141658639354582	
3540000000	-0.482526259023333	0.00256521638341975	0.00017336647371083	-0.000331200609701846	5.84626269714057E-05	-0.000420511033113309	0.363158515705907	-0.893855982728993	
3550000000	-0.192034237628497	0.449301615296683	-0.000282045246514633	0.000396432586231403	-0.00020680851061066	0.000234551597100841	-0.657571859107233	-0.684556990865849	
3560000000	0.335241400438098	0.368762254087693	0.000955739894789522	9.32349530893621E-05	-0.000184634363866407	0.000191032705233365	-0.896724208459748	0.299562794171829	
3570000000	0.485256611106159	-0.152576235182884	-0.000589171885821113	0.000786848794145865	-6.97498793304838E-05	0.000177666285843425	-0.117947685303178	0.951913515278146	
3580000000	0.0680228700770101	-0.51051525747491	0.000340102835743242	0.000273642028602989	-0.000413250627014202	-0.000148828266354483	0.836202492534287	0.512556379416745	
3590000000	-0.431522065772246	-0.275723192049921	0.000402800666920528	3.56128898534777E-05	0.000358480219902813	0.000218033665228452	0.824681059523108	-0.557988343379991	
3600000000	-0.419451583538312	0.275693065974316	0.000315850601745834	-0.000199504592188225	-0.000230814924872276	-0.000338727307623352	-0.162796550413711	-0.989252550095914	
3610000000	0.0852860428593467	0.481957395498051	-0.000148541879332515	3.1699878043692E-05	0.000145375795899136	1.97847504304359E-05	-0.960517298252625	-0.253624037410062	
3620000000	0.469056498593757	0.11266956700778	0.000133386427782068	0.000227122465118518	-0.000209317272405564	0.000306295814894014	-0.620250531292579	0.753176050027648	
3630000000	0.294091142630465	-0.384938031036864	9.23596322880096E-05	0.000224479484910056	8.06292899268135E-05	-0.000479609840579382	0.41532128244268	0.867259982374974	
3640000000	-0.237408587278342	-0.433085241000947	0.000137934622484643	-0.000506903889181875	0.000126521324219708	0.000335461993168692	0.965430234262189	-0.021403610828462	
3650000000	-0.498946099753164	0.0445985662841751	-0.000594011108831592	0.00039037868811389	8.45455397729139E-05	0.00127985661357266	0.364651019745896	-0.899750510441867	
3660000000	-0.172143067154377	0.482078294810995	-7.42166957915993E-05	-1.31648094301247E-05	0.000287741341817644	-0.000389355496084097	-0.675268045451956	-0.706112548521346	
3670000000	0.367906268826878	0.366710629597933	4.83838981151876E-05	-0.000524508218190758	-0.000221174931437098	-0.000560839223339958	-0.932585631528068	0.313056200946723	
3680000000	0.488397177698472	-0.177215662499528	0.000382880532798435	0.000539149907519824	0.000340030011368131	0.000247039560386174	-0.115650719105889	0.981092751378941	
3690000000	0.0458142151360878	-0.510282931649204	-0.000355610719358236	-0.00051370968670728	0.000338551809838762	0.000377057816382252	0.84540052969379	0.519436530882994	
3700000000	-0.438804679805581	-0.2425047938675	0.000153920296784791	-0.000360154907082078	0.0002119683143298	0.000156973516822894	0.824755569918751	-0.556827758139688	
3710000000	-0.380311848483975	0.305901784658905	-0.000432378679855222	0.00085756402469882	-0.000143218512226782	-0.000298819067296555	-0.166674665321998	-0.973909802941449	
3720000000	0.136181698421147	0.467077934040094	0.00015957244337839	-0.000345464343434724	-0.000143138096786375	-0.000622747081410262	-0.943837883708268	-0.247318518936823	
3730000000	0.491708066137483	0.0668991038891779	3.82614843250206E-06	-0.000362963189404159	0.000213827259746444	-0.000732791948715892	-0.612539743715678	0.746928578923934	
3740000000	0.273738818628729	-0.430225918419994	0.000393509995201298	-0.000415721227407654	0.000110935556687069	0.000668691819954077	0.425311446743689	0.864147068131896	
3750000000	-0.28278841348031	-0.434660332968346	-0.000255742225295725	-0.000267048596055226	-4.93845166910298E-05	0.000109882695076686	0.966955405672224	-0.033936615880347	
3760000000	-0.514706426865919	0.0761514883945461	0.000708483570203419	-0.000430689625091414	-3.95983734847628E-05	-0.000188584120932395	0.361718998218741	-0.914470920118644	
3770000000	-0.1435111895131	0.503545502696889	0.000166431680029763	0.000566560034312304	-0.000163210307380369	0.000220344647328957	-0.693866355504685	-0.706179903152615	
3780000000	0.399582952680425	0.33690368392315	0.000938039845612883	-0.000296048300515228	-8.52523023712691E-05	0.000423460297104507	-0.930718358159699	0.329054429229333	
3790000000	0.46973434739148	-0.218243302102471	-0.000154878660191543	0.000244874607658283	-0.000393340791231489	-0.0005253250988888	-0.110498982286051	0.978801042060793	
3800000000	0.00138205703190203	-0.508164580181416	9.92144067410134E-05	-0.000514022240077164	0.000244622890767372	-6.2136227747317E-05	0.838467700193173	0.521214710598856	
3810000000	-0.45594119182118	-0.196017683392098	0.000778897848637233	-0.000731766456288894	0.00020978834257247	0.00016517873823131	0.815161700490825	-0.546628696225547	
3820000000	-0.350588389463509	0.347021514502463	-0.000194423054435539	0.000210382003575658	-0.00068325899307209	-0.000352248981634427	-0.161253564397978	-0.959464709314023	
3830000000	0.183102922215539	0.47028092121802	0.000224591688349015	8.65656247217506E-05	-0.000645449597759223	-0.00028836497325294	-0.942151329280622	-0.244628108147036	
3840000000	0.522837278730506	0.0371053898329176	-8.41706644484104E-05	-2.36781102437083E-05	-7.92308213167642E-05	0.000251636066638702	-0.607084518264347	0.762262170602144	
3850000000	0.268958783208027	-0.467428896544012	-7.63424175894014E-06	-0.000642061604190804	0.000523030800216461	0.000163668111580134	0.441279673072606	0.869436626685553	
3860000000	-0.304201012722795	-0.443727700757463	-9.54333427042199E-05	-0.000346447716918757	0.000369999250694489	1.20565034957527E-05	0.982276489054754	-0.0323141997660239	
3870000000	-0.517544178751835	0.0959018095414434	6.14670451900726E-05	-9.69118663988649E-05	-0.00024241120449972	1.18404724167763E-05	0.370222799988687	-0.919831590486491	
3880000000	-0.111039382729972	0.507700060519605	-8.04711897083048E-05	0.000190956524132917	0.000174064315907793	-7.8418262384192E-05	-0.682656979840329	-0.721744296239302	
3890000000	0.421603266782392	0.304733663722475	-0.000694772125449971	-0.000154642662421487	0.000147898863488594	1.17904460590505E-05	-0.941825876744542	0.30206472717701	
3900000000	0.454761637405129	-0.257732391598535	0.000541763962734801	5.54942899270805E-05	0.000180059261559069	-0.000348609870612831	-0.124845386453197	0.980029343186981	
3910000000	-0.0461732718693377	-0.51711784126521	0.000164548054542026	0.00027825476196573	0.000703587625274258	-0.000383945468732795	0.824608534799804	0.521994050926212	
3920000000	-0.49196535529325	-0.156868274418356	-1.777517736353E-05	0.000253583798155985	-0.000633346651956975	-0.000326248887280068	0.801844450349185	-0.547082875731446	
3930000000	-0.342500929519033	0.399770438069612	-0.000330174954477257	-0.00043628144528114	-0.00010683287382023	-5.43454227915796E-05	-0.180047542493611	-0.95002994061155	
3940000000	0.229744091778874	0.488778106399236	3.84448913909776E-05	0.000668627495900583	-0.000116452622111432	0.00016187926998656	-0.935623683434426	-0.224162680456915	
3950000000	0.550160401735256	0.00311058979816253	-0.000145340573356314	0.000345282588304676	0.00036451599579907	1.86494994097131E-05	-0.594993128429593	0.755655738982348	
3960000000	0.246492264000934	-0.495010170997079	-0.000420953929675487	-0.000140940886200304	0.000245086347567029	-8.35078080650052E-05	0.435358678087249	0.874575843384785	
3970000000	-0.339600192497627	-0.428012204549356	0.000107889082778317	-0.000745951368710265	0.000777758221735298	0.000177340810347485	0.995448757745008	-0.0217356431865869	
3980000000	-0.509326613341205	0.138812172060559	-0.000480495408708767	9.2731328912386E-05	0.000199595809318194	6.31780881061458E-05	0.391453708780734	-0.914677225651867	
3990000000	-0.0621554703320755	0.514967422095169	-7.28845470660544E-05	5.12853219000223E-05	0.00053282520624732	-2.22728364905808E-05	-0.670727320410946	-0.731407654998028	
4000000000	0.460277123362546	0.258964716590487	-0.000249584017309399	-0.000198600964978675	-5.23933212368894E-05	0.000513647955442423	-0.936055388504268	0.299543698485224	
4010000000	0.443686619782284	-0.315915855361918	-9.71261599211798E-05	0.000453552586083637	-0.000353022454824753	-0.000308631289263615	-0.121706204922721	0.962112944530906	
4020000000	-0.090589296118666	-0.542562389229624	0.000691495027644359	0.000990469023855833	-0.000155507388458881	0.000162913845633846	0.823451523113443	0.503509407381843	
4030000000	-0.531146165231833	-0.13693112489844	-0.000303014927238886	0.000548037289438678	0.000123442203233401	-0.000202475671237847	0.786335623746982	-0.558324739134381	
4040000000	-0.336396473777026	0.4382113039576	1.56629953166978E-05	-0.000275099843451785	0.000996343711599667	0.000396749412223886	-0.188145736771686	-0.943024830677068	
4050000000	0.258955166424092	0.493134434638888	-0.000159836282230464	0.000517762364584781	-0.000194517529563658	-0.000233997793265755	-0.938510009418993	-0.234517106702823	
4060000000	0.557262670736893	-0.017033854885404	0.000421573964602237	-6.31194823360382E-05	0.000111683465904125	-0.000147985441997415	-0.625165247133901	0.759716254582043	
4070000000	0.222591720797971	-0.501663432146187	-0.000197250332346241	-1.04831925407604E-05	0.000167325596574559	0.000291634917908441	0.426962537087405	0.898373522238005	
4080000000	-0.360136459307402	-0.39102740830624	0.000169250175196397	-7.81195170386762E-05	5.91946853386241E-05	9.6349278386641E-05	0.993099257555128	-0.0167948496378633	
4090000000	-0.494302231535494	0.186381035084562	-7.73393431275877E-05	0.000312619621018416	-0.000264899648732309	0.000348847573633037	0.383464362553081	-0.913386985006195	
4100000000	-0.0184074645958281	0.534599237414171	0.000640581904365443	-0.000436870588171649	-0.000146866202687612	0.000252546459475458	-0.671671578596623	-0.703704237392276	
4110000000	0.490840551334907	0.243780461110397	0.000431766928041985	0.000156788311847089	0.000248365762340064	-0.000137228061330908	-0.897825991645415	0.309200378998229	
4120000000	0.439690122091511	-0.346240739217795	-0.000502544127814367	-0.000265334924253598	-0.000482408874558723	-9.34091418632337E-05	-0.105594815523115	0.937928028414731	
4130000000	-0.125871609873899	-0.552381848466139	0.00071371606973163	-0.000105639813521728	0.00023620681207852	-0.000173426463763571	0.823017534236879	0.495796395777761	
