!Keysight Technologies N9917A: A.08.15
!Date: Sunday, 08 October 2017 11:47:47
!Timezone: (GMT-08:00) Pacific Time (US & Canada)
!Model: N9917A
!Serial: MY53102735
!GPS Latitude: 
!GPS Longitude: 
!GPS TimeStamp: 0001-01-01 00:00:00Z
!GPS Seconds Since Last Read: 0
!CHECKSUM:1504876975
!Correction: S11(Rdy)S21()S12()S22()
!S2P File: Measurements:S11,S21,S12,S22:
# Hz S DB R 50
1000000000	-7.97745272735137	-151.036837945893	0	0	0	0	0	0	
1055000000	-7.14961215277893	21.8581032047225	0	0	0	0	0	0	
1110000000	-7.67014042476374	-163.738498462661	0	0	0	0	0	0	
1165000000	-7.08958000492868	12.6125742913397	0	0	0	0	0	0	
1220000000	-7.10870022041937	-173.352846360939	0	0	0	0	0	0	
1275000000	-6.94935704796026	3.5168732907501	0	0	0	0	0	0	
1330000000	-6.92133671593158	178.671563408024	0	0	0	0	0	0	
1385000000	-6.6951050607331	-6.81385777517976	0	0	0	0	0	0	
1440000000	-6.87529519994222	170.501532526085	0	0	0	0	0	0	
1495000000	-6.26979230470267	-15.6058211480105	0	0	0	0	0	0	
1550000000	-6.85676496565473	161.158082972767	0	0	0	0	0	0	
1605000000	-6.24372816473745	-23.0236002652485	0	0	0	0	0	0	
1660000000	-6.65092758938671	150.777689021211	0	0	0	0	0	0	
1715000000	-6.18346217481611	-31.2568275266626	0	0	0	0	0	0	
1770000000	-6.30474992193992	142.096579986527	0	0	0	0	0	0	
1825000000	-6.27104834900378	-40.050397759686	0	0	0	0	0	0	
1880000000	-6.04054552653847	133.612777218831	0	0	0	0	0	0	
1935000000	-6.10105602961053	-48.8591155872984	0	0	0	0	0	0	
1990000000	-6.09586340717337	126.876034296342	0	0	0	0	0	0	
2045000000	-5.98400154945608	-56.4689830208075	0	0	0	0	0	0	
2100000000	-6.24396197409781	118.569637436876	0	0	0	0	0	0	
2155000000	-5.7619783324886	-65.0415791667683	0	0	0	0	0	0	
2210000000	-6.14608983963776	111.252631996926	0	0	0	0	0	0	
2265000000	-5.95749440290429	-72.5319367176371	0	0	0	0	0	0	
2320000000	-5.99495397427163	103.020299617751	0	0	0	0	0	0	
2375000000	-6.11194702000877	-80.0142311804515	0	0	0	0	0	0	
2430000000	-5.86470204154064	95.9203522357415	0	0	0	0	0	0	
2485000000	-6.22371913032024	-89.1869470737282	0	0	0	0	0	0	
2540000000	-6.02303224124975	89.5819691791412	0	0	0	0	0	0	
2595000000	-6.1569481205512	-98.2604135675547	0	0	0	0	0	0	
2650000000	-6.28929205938743	82.2138330812162	0	0	0	0	0	0	
2705000000	-6.17340506302449	-104.956901687652	0	0	0	0	0	0	
2760000000	-6.54479498085864	76.3113761354425	0	0	0	0	0	0	
2815000000	-6.48158854382523	-111.803405863547	0	0	0	0	0	0	
2870000000	-6.69496020728839	68.407885726238	0	0	0	0	0	0	
2925000000	-6.98092117396602	-119.943617637651	0	0	0	0	0	0	
2980000000	-6.99906164258581	61.637877329572	0	0	0	0	0	0	
3035000000	-7.36468656743998	-127.868137155883	0	0	0	0	0	0	
3090000000	-7.53719179664936	55.4014281140952	0	0	0	0	0	0	
3145000000	-7.59639922539544	-137.57494561218	0	0	0	0	0	0	
3200000000	-8.13535716175859	50.0675359730798	0	0	0	0	0	0	
3255000000	-8.24811965281221	-142.787984682631	0	0	0	0	0	0	
3310000000	-9.11691383785318	42.3886510204879	0	0	0	0	0	0	
3365000000	-8.87663549366694	-147.834144011594	0	0	0	0	0	0	
3420000000	-10.0104952034802	36.8518175199256	0	0	0	0	0	0	
3475000000	-9.75338143436739	-150.724437039965	0	0	0	0	0	0	
3530000000	-10.8238648396035	36.2371180408543	0	0	0	0	0	0	
3585000000	-10.7905285648496	-152.024906631981	0	0	0	0	0	0	
3640000000	-11.6278969623334	41.8177169094857	0	0	0	0	0	0	
3695000000	-11.330367507604	-148.790958159538	0	0	0	0	0	0	
3750000000	-11.3406493537687	48.8837360432391	0	0	0	0	0	0	
3805000000	-10.5147024163837	-141.262488666665	0	0	0	0	0	0	
3860000000	-10.0482396640179	54.1988433553529	0	0	0	0	0	0	
3915000000	-8.69183675414668	-136.849725667175	0	0	0	0	0	0	
3970000000	-8.21208534241316	50.6787392016354	0	0	0	0	0	0	
4025000000	-6.79407492275015	-140.134941733	0	0	0	0	0	0	
4080000000	-6.26330734798776	41.4043730480172	0	0	0	0	0	0	
4135000000	-5.28939325517155	-148.859907061064	0	0	0	0	0	0	
4190000000	-4.78286311800424	30.1222884399638	0	0	0	0	0	0	
4245000000	-4.16787810285381	-159.377907472229	0	0	0	0	0	0	
4300000000	-3.83823805481892	18.4901650976394	0	0	0	0	0	0	
4355000000	-3.36147163400907	-171.736429320561	0	0	0	0	0	0	
4410000000	-3.33299849920703	7.16180471609285	0	0	0	0	0	0	
4465000000	-2.87654833522998	177.9002243726	0	0	0	0	0	0	
4520000000	-3.03014781330724	-4.01195982524542	0	0	0	0	0	0	
4575000000	-2.5936592797503	169.294430433402	0	0	0	0	0	0	
4630000000	-2.77220219827893	-17.0138636072955	0	0	0	0	0	0	
4685000000	-2.56364922006053	159.313806277796	0	0	0	0	0	0	
4740000000	-2.60539618414078	-26.5806554405079	0	0	0	0	0	0	
4795000000	-2.58249609415645	149.382281212798	0	0	0	0	0	0	
4850000000	-2.54996840928292	-34.9884743541103	0	0	0	0	0	0	
4905000000	-2.59711792741394	140.462901093181	0	0	0	0	0	0	
4960000000	-2.55397022324748	-44.6070136625963	0	0	0	0	0	0	
5015000000	-2.60088842224582	132.061624060555	0	0	0	0	0	0	
5070000000	-2.62096930144974	-53.3907148866346	0	0	0	0	0	0	
5125000000	-2.62864659242087	123.331548351103	0	0	0	0	0	0	
5180000000	-2.63131492721751	-61.6822905646812	0	0	0	0	0	0	
5235000000	-2.74084447182981	114.047275884324	0	0	0	0	0	0	
5290000000	-2.64341027112136	-70.6739227900928	0	0	0	0	0	0	
5345000000	-2.83052108922476	105.293625039536	0	0	0	0	0	0	
5400000000	-2.61158292562143	-78.4227460151411	0	0	0	0	0	0	
5455000000	-2.88109508053311	94.9107310409957	0	0	0	0	0	0	
5510000000	-2.70332992999421	-87.3200852332289	0	0	0	0	0	0	
5565000000	-2.89294635129008	85.7664579999214	0	0	0	0	0	0	
5620000000	-2.78552671033339	-95.9874133818623	0	0	0	0	0	0	
5675000000	-2.89105273609268	78.3792180577049	0	0	0	0	0	0	
5730000000	-2.93359464809657	-105.235932620731	0	0	0	0	0	0	
5785000000	-2.88424865378291	65.3719513073856	0	0	0	0	0	0	
5840000000	-2.86536404366686	-112.671418130623	0	0	0	0	0	0	
5895000000	-2.90015783542865	57.57586588563	0	0	0	0	0	0	
5950000000	-2.91817075106588	-120.228864555774	0	0	0	0	0	0	
6005000000	-2.92274772111587	49.0182592451311	0	0	0	0	0	0	
6060000000	-2.97005459097483	-128.225231142373	0	0	0	0	0	0	
6115000000	-2.82222637537641	40.5957350442627	0	0	0	0	0	0	
6170000000	-3.11004689669096	-135.77543082401	0	0	0	0	0	0	
6225000000	-2.77789255925121	33.148357119639	0	0	0	0	0	0	
6280000000	-3.16789744039965	-144.965086985529	0	0	0	0	0	0	
6335000000	-2.72462640168618	25.7477926768314	0	0	0	0	0	0	
6390000000	-3.1612265398361	-152.341628535794	0	0	0	0	0	0	
6445000000	-2.71968134082636	19.6135120478358	0	0	0	0	0	0	
6500000000	-3.19041155124197	-158.92205547346	0	0	0	0	0	0	
6555000000	-2.75785749494004	13.9336762341604	0	0	0	0	0	0	
6610000000	-3.18247154497089	-166.172921508256	0	0	0	0	0	0	
6665000000	-2.6536577460187	7.21546302272909	0	0	0	0	0	0	
6720000000	-3.26983025667836	-173.295145496359	0	0	0	0	0	0	
6775000000	-2.61171905961614	2.26902149932203	0	0	0	0	0	0	
6830000000	-3.30900414830566	-179.331128971515	0	0	0	0	0	0	
6885000000	-2.6025350857027	-2.59935863897726	0	0	0	0	0	0	
6940000000	-3.32596683217277	174.219874928557	0	0	0	0	0	0	
6995000000	-2.59655967089133	-7.71474257359867	0	0	0	0	0	0	
7050000000	-3.31035839784818	168.459677873001	0	0	0	0	0	0	
7105000000	-2.6155424819418	-11.0309389737453	0	0	0	0	0	0	
7160000000	-3.33194790665584	163.25004888348	0	0	0	0	0	0	
7215000000	-2.64669753381506	-15.6370060103275	0	0	0	0	0	0	
7270000000	-3.30263488035692	159.320026083784	0	0	0	0	0	0	
7325000000	-2.71889964493751	-19.852482712537	0	0	0	0	0	0	
7380000000	-3.31736349563198	152.53445448368	0	0	0	0	0	0	
7435000000	-2.76845181618614	-24.4060472691383	0	0	0	0	0	0	
7490000000	-3.34164476101109	148.989780294072	0	0	0	0	0	0	
7545000000	-2.82285563890232	-28.4232920992215	0	0	0	0	0	0	
7600000000	-3.33877456948305	143.53479153285	0	0	0	0	0	0	
7655000000	-2.89894106365297	-33.1382393774587	0	0	0	0	0	0	
7710000000	-3.32808322318545	136.331469309674	0	0	0	0	0	0	
7765000000	-2.94123933408981	-37.7674387476085	0	0	0	0	0	0	
7820000000	-3.3194063005027	131.093302982543	0	0	0	0	0	0	
7875000000	-3.06129758874929	-43.3799788463637	0	0	0	0	0	0	
7930000000	-3.26566249176165	124.788599649694	0	0	0	0	0	0	
7985000000	-3.19079638297901	-49.7736672927195	0	0	0	0	0	0	
8040000000	-3.23665331691481	119.288028890264	0	0	0	0	0	0	
8095000000	-3.30376711601974	-56.3985726789576	0	0	0	0	0	0	
8150000000	-3.28364944027551	112.454576728641	0	0	0	0	0	0	
8205000000	-3.32842022911387	-63.9554469239746	0	0	0	0	0	0	
8260000000	-3.30785287883417	106.247412168895	0	0	0	0	0	0	
8315000000	-3.36435651317545	-70.513755069007	0	0	0	0	0	0	
8370000000	-3.31555978654859	99.4947476634199	0	0	0	0	0	0	
8425000000	-3.46615660608114	-77.1680363016915	0	0	0	0	0	0	
8480000000	-3.26913070656645	92.0090872108366	0	0	0	0	0	0	
8535000000	-3.55016115624514	-85.8129717251478	0	0	0	0	0	0	
8590000000	-3.268537923189	85.8223026590836	0	0	0	0	0	0	
8645000000	-3.63963483753762	-95.4190970608112	0	0	0	0	0	0	
8700000000	-3.22274599364086	80.010123294332	0	0	0	0	0	0	
8755000000	-3.66997918717902	-103.480534342484	0	0	0	0	0	0	
8810000000	-3.25195939028901	73.756792074661	0	0	0	0	0	0	
8865000000	-3.62447466817214	-110.05280594007	0	0	0	0	0	0	
8920000000	-3.44399808291162	65.5836435717508	0	0	0	0	0	0	
8975000000	-3.50904082425916	-120.050737451285	0	0	0	0	0	0	
9030000000	-3.39065782961572	60.9179591715116	0	0	0	0	0	0	
9085000000	-3.5673805430562	-125.930211854757	0	0	0	0	0	0	
9140000000	-3.3408623783861	55.1401102699626	0	0	0	0	0	0	
9195000000	-3.63791401314335	-132.046261892439	0	0	0	0	0	0	
9250000000	-3.32750239707452	49.6409258069789	0	0	0	0	0	0	
9305000000	-3.63168665032202	-138.877796176329	0	0	0	0	0	0	
9360000000	-3.31683801438799	45.8775923761169	0	0	0	0	0	0	
9415000000	-3.61768201074647	-141.222365674849	0	0	0	0	0	0	
9470000000	-3.56926036870019	40.3866989405039	0	0	0	0	0	0	
9525000000	-3.50687386911624	-148.225046281181	0	0	0	0	0	0	
9580000000	-3.66346650454615	37.3197509585528	0	0	0	0	0	0	
9635000000	-3.52751112824622	-153.79316124611	0	0	0	0	0	0	
9690000000	-3.72066150170467	31.1368100409155	0	0	0	0	0	0	
9745000000	-3.50201655476405	-158.781185762463	0	0	0	0	0	0	
9800000000	-3.71641683700449	27.4289421521709	0	0	0	0	0	0	
9855000000	-3.62621712691708	-163.069171202594	0	0	0	0	0	0	
9910000000	-3.79011456992733	23.0178767262945	0	0	0	0	0	0	
9965000000	-3.69439492413278	-167.265783548318	0	0	0	0	0	0	
10020000000	-3.86918726321672	19.6945381362936	0	0	0	0	0	0	
10075000000	-3.73891768427011	-171.674606119033	0	0	0	0	0	0	
10130000000	-4.02509210991746	15.8160813776185	0	0	0	0	0	0	
10185000000	-3.79171058628711	-175.764807616185	0	0	0	0	0	0	
10240000000	-4.16585129339722	11.6057600287848	0	0	0	0	0	0	
10295000000	-3.92164883707508	-178.877693646768	0	0	0	0	0	0	
10350000000	-4.33980316605599	4.84264555925039	0	0	0	0	0	0	
10405000000	-4.03058449273964	177.147107391505	0	0	0	0	0	0	
10460000000	-4.4891988991477	0.28901599060286	0	0	0	0	0	0	
10515000000	-4.24391688589264	174.277934029616	0	0	0	0	0	0	
10570000000	-4.75876813908127	-4.62082387222207	0	0	0	0	0	0	
10625000000	-4.44025583296327	168.408240422119	0	0	0	0	0	0	
10680000000	-5.07632834281182	-9.92421985997816	0	0	0	0	0	0	
10735000000	-4.77319462459724	162.642019718586	0	0	0	0	0	0	
10790000000	-5.39670868289895	-16.1381615722014	0	0	0	0	0	0	
10845000000	-5.174004138049	157.365711866012	0	0	0	0	0	0	
10900000000	-6.05710372054575	-22.8210261902121	0	0	0	0	0	0	
10955000000	-5.61198289252274	150.556215386842	0	0	0	0	0	0	
11010000000	-6.82246911339894	-30.1846888715111	0	0	0	0	0	0	
11065000000	-6.55444355411243	143.045042694981	0	0	0	0	0	0	
11120000000	-8.32912074814009	-44.1110975452065	0	0	0	0	0	0	
11175000000	-7.87189674604579	131.215795655893	0	0	0	0	0	0	
11230000000	-10.4170728716052	-61.0540161884571	0	0	0	0	0	0	
11285000000	-10.6514526455518	118.118547411635	0	0	0	0	0	0	
11340000000	-14.9853780970341	-84.9728281985092	0	0	0	0	0	0	
11395000000	-16.6127498595584	110.228586607534	0	0	0	0	0	0	
11450000000	-34.993891644271	-19.9263149166384	0	0	0	0	0	0	
11505000000	-19.8130549693405	-177.926290277793	0	0	0	0	0	0	
11560000000	-16.5568252037512	23.5607718498348	0	0	0	0	0	0	
11615000000	-12.6198755898515	175.359094326293	0	0	0	0	0	0	
11670000000	-13.7218519189181	-2.61147531001822	0	0	0	0	0	0	
11725000000	-10.4697541177116	155.856491053577	0	0	0	0	0	0	
11780000000	-13.0045533819595	-34.7405306407242	0	0	0	0	0	0	
11835000000	-10.1084395120472	133.605910106289	0	0	0	0	0	0	
11890000000	-12.7482568521223	-79.144701287219	0	0	0	0	0	0	
11945000000	-10.5691927795898	100.473465296778	0	0	0	0	0	0	
12000000000	-12.2071600361025	-121.479856710846	0	0	0	0	0	0	
