! 500R07S1R0BV4
! Data taken April 11, 2003
! Data taken on a HP 8720C VNA using a series-through test fixture and TRL* de-embedding
#	mhz	s	ma	r	50
0	0.99999	0.00000	0.00000	90.00000	0.00000	90.00000	0.99999	0.00000
50	0.99999	-0.99134	0.03341	92.01517	0.03341	92.01517	0.99999	-0.99134
70	0.99999	-3.25489	0.04716	88.91854	0.04716	88.91854	0.99999	-3.25489
90	0.99523	-3.3308	0.06088	87.42159	0.06088	87.42159	0.99523	-3.3308
110	0.99999	-4.07299	0.07437	85.80728	0.07437	85.80728	0.99999	-4.07299
130	0.99999	-5.72311	0.08744	84.13646	0.08744	84.13646	0.99999	-5.72311
150	0.99999	-5.91045	0.09991	84.24783	0.09991	84.24783	0.99999	-5.91045
170	0.99999	-6.63603	0.11406	83.40074	0.11406	83.40074	0.99999	-6.63603
190	0.99999	-7.57861	0.12678	82.59569	0.12678	82.59569	0.99999	-7.57861
210	0.99999	-8.17542	0.1401	81.95942	0.1401	81.95942	0.99999	-8.17542
230	0.99999	-8.72337	0.15423	81.24865	0.15423	81.24865	0.99999	-8.72337
250	0.99999	-10.37896	0.16755	79.8501	0.16755	79.8501	0.99999	-10.37896
270	0.98457	-10.80858	0.17795	79.29737	0.17795	79.29737	0.98457	-10.80858
290	0.98775	-11.19732	0.19208	78.86948	0.19208	78.86948	0.98775	-11.19732
310	0.99041	-11.99913	0.20534	78.06081	0.20534	78.06081	0.99041	-11.99913
330	0.98313	-13.07325	0.21654	77.04891	0.21654	77.04891	0.98313	-13.07325
350	0.96853	-13.6842	0.22781	76.69444	0.22781	76.69444	0.96853	-13.6842
370	0.97431	-14.87442	0.24187	75.49602	0.24187	75.49602	0.97431	-14.87442
390	0.97069	-15.6542	0.2532	74.542	0.2532	74.542	0.97069	-15.6542
410	0.96825	-16.21088	0.2652	73.90561	0.2652	73.90561	0.96825	-16.21088
430	0.96905	-16.88174	0.27833	73.32068	0.27833	73.32068	0.96905	-16.88174
450	0.96664	-18.15409	0.29012	72.18162	0.29012	72.18162	0.96664	-18.15409
470	0.95909	-18.45318	0.30117	71.77496	0.30117	71.77496	0.95909	-18.45318
490	0.96039	-17.51174	0.29721	71.40152	0.29721	71.40152	0.96039	-17.51174
510	0.96225	-16.90883	0.29833	70.5342	0.29833	70.5342	0.96225	-16.90883
530	0.95946	-17.06331	0.30943	69.46992	0.30943	69.46992	0.95946	-17.06331
550	0.94981	-17.23388	0.32027	69.32957	0.32027	69.32957	0.94981	-17.23388
570	0.94302	-17.85028	0.33128	68.31203	0.33128	68.31203	0.94302	-17.85028
590	0.94176	-18.19158	0.34256	67.63144	0.34256	67.63144	0.94176	-18.19158
610	0.93937	-18.79774	0.35369	67.13935	0.35369	67.13935	0.93937	-18.79774
630	0.93323	-19.75412	0.36386	66.58311	0.36386	66.58311	0.93323	-19.75412
650	0.92476	-20.69148	0.37182	65.60586	0.37182	65.60586	0.92476	-20.69148
670	0.92326	-20.67166	0.38082	65.59079	0.38082	65.59079	0.92326	-20.67166
690	0.92364	-21.25751	0.39132	64.92009	0.39132	64.92009	0.92364	-21.25751
710	0.9203	-21.9007	0.40074	64.21234	0.40074	64.21234	0.9203	-21.9007
730	0.91261	-22.40142	0.40928	63.64651	0.40928	63.64651	0.91261	-22.40142
750	0.90496	-22.90835	0.41992	62.96195	0.41992	62.96195	0.90496	-22.90835
770	0.89957	-23.33706	0.42849	62.00371	0.42849	62.00371	0.89957	-23.33706
790	0.89431	-24.10736	0.43651	61.46239	0.43651	61.46239	0.89431	-24.10736
810	0.89149	-24.86216	0.44637	60.92375	0.44637	60.92375	0.89149	-24.86216
830	0.88896	-25.45753	0.45721	60.27545	0.45721	60.27545	0.88896	-25.45753
850	0.88015	-25.96267	0.46494	59.70702	0.46494	59.70702	0.88015	-25.96267
870	0.87733	-26.05065	0.47375	59.4955	0.47375	59.4955	0.87733	-26.05065
890	0.87395	-26.82428	0.48341	58.77511	0.48341	58.77511	0.87395	-26.82428
910	0.86606	-27.4352	0.49125	57.98437	0.49125	57.98437	0.86606	-27.4352
930	0.85635	-27.73102	0.49796	57.37675	0.49796	57.37675	0.85635	-27.73102
950	0.85409	-28.25541	0.5076	57.02075	0.5076	57.02075	0.85409	-28.25541
970	0.8503	-29.49193	0.51783	56.12779	0.51783	56.12779	0.8503	-29.49193
990	0.84412	-30.15451	0.52507	55.71972	0.52507	55.71972	0.84412	-30.15451
1010	0.84034	-30.59231	0.53188	55.36099	0.53188	55.36099	0.84034	-30.59231
1030	0.83885	-30.98286	0.53963	54.90449	0.53963	54.90449	0.83885	-30.98286
1050	0.8346	-31.33204	0.54843	54.4916	0.54843	54.4916	0.8346	-31.33204
1070	0.83356	-31.71484	0.5537	54.05771	0.5537	54.05771	0.83356	-31.71484
1090	0.82421	-32.07288	0.56144	53.14064	0.56144	53.14064	0.82421	-32.07288
1110	0.8153	-32.36711	0.56875	52.45258	0.56875	52.45258	0.8153	-32.36711
1130	0.80812	-32.70329	0.5754	52.07852	0.5754	52.07852	0.80812	-32.70329
1150	0.79653	-33.33207	0.5839	51.47628	0.5839	51.47628	0.79653	-33.33207
1170	0.79057	-34.04672	0.59038	50.99507	0.59038	50.99507	0.79057	-34.04672
1190	0.78814	-35.09158	0.59945	50.55924	0.59945	50.55924	0.78814	-35.09158
1210	0.78337	-35.9379	0.60677	50.02562	0.60677	50.02562	0.78337	-35.9379
1230	0.77718	-36.41506	0.6118	49.53166	0.6118	49.53166	0.77718	-36.41506
1250	0.77727	-36.71063	0.61781	49.4954	0.61781	49.4954	0.77727	-36.71063
1270	0.77408	-37.48711	0.62438	48.55495	0.62438	48.55495	0.77408	-37.48711
1290	0.7685	-38.0044	0.62889	48.1858	0.62889	48.1858	0.7685	-38.0044
1310	0.76372	-38.203	0.63322	47.77057	0.63322	47.77057	0.76372	-38.203
1330	0.76038	-38.31125	0.639	47.15231	0.639	47.15231	0.76038	-38.31125
1350	0.75659	-38.84533	0.6476	46.63451	0.6476	46.63451	0.75659	-38.84533
1370	0.7473	-39.34354	0.65175	46.31792	0.65175	46.31792	0.7473	-39.34354
1390	0.74225	-39.88429	0.65986	45.78574	0.65986	45.78574	0.74225	-39.88429
1410	0.73663	-40.46502	0.6655	45.2131	0.6655	45.2131	0.73663	-40.46502
1430	0.73057	-40.98964	0.66825	44.78445	0.66825	44.78445	0.73057	-40.98964
1450	0.72913	-41.26849	0.67369	44.69351	0.67369	44.69351	0.72913	-41.26849
1470	0.72952	-42.04583	0.68147	44.03841	0.68147	44.03841	0.72952	-42.04583
1490	0.72216	-42.228	0.68501	43.67933	0.68501	43.67933	0.72216	-42.228
1510	0.71422	-42.23339	0.68887	43.42862	0.68887	43.42862	0.71422	-42.23339
1530	0.70764	-42.34756	0.69432	43.05572	0.69432	43.05572	0.70764	-42.34756
1550	0.69909	-42.72324	0.69939	42.28714	0.69939	42.28714	0.69909	-42.72324
1570	0.69163	-43.44467	0.70172	41.73482	0.70172	41.73482	0.69163	-43.44467
1590	0.6829	-43.8977	0.70673	41.27655	0.70673	41.27655	0.6829	-43.8977
1610	0.67565	-44.37774	0.71319	40.77721	0.71319	40.77721	0.67565	-44.37774
1630	0.67074	-45.03282	0.7197	40.2989	0.7197	40.2989	0.67074	-45.03282
1650	0.66715	-45.86364	0.72469	40.10091	0.72469	40.10091	0.66715	-45.86364
1670	0.66311	-46.36052	0.7274	39.67178	0.7274	39.67178	0.66311	-46.36052
1690	0.65942	-46.50828	0.73237	39.4139	0.73237	39.4139	0.65942	-46.50828
1710	0.65565	-46.76894	0.73779	38.9884	0.73779	38.9884	0.65565	-46.76894
1730	0.65084	-47.18921	0.74284	38.44359	0.74284	38.44359	0.65084	-47.18921
1750	0.64349	-47.4005	0.74778	38.21501	0.74778	38.21501	0.64349	-47.4005
1770	0.6374	-47.77235	0.75243	37.85247	0.75243	37.85247	0.6374	-47.77235
1790	0.63137	-48.39554	0.75592	37.37515	0.75592	37.37515	0.63137	-48.39554
1810	0.62538	-49.04622	0.75898	37.00588	0.75898	37.00588	0.62538	-49.04622
1830	0.62043	-49.65353	0.76324	36.73081	0.76324	36.73081	0.62043	-49.65353
1850	0.61855	-50.29957	0.77118	36.29943	0.77118	36.29943	0.61855	-50.29957
1870	0.6146	-50.81325	0.77287	35.81872	0.77287	35.81872	0.6146	-50.81325
1890	0.61077	-51.00748	0.77404	35.70563	0.77404	35.70563	0.61077	-51.00748
1910	0.60824	-51.11294	0.77818	35.54791	0.77818	35.54791	0.60824	-51.11294
1930	0.60506	-51.35207	0.78354	35.18428	0.78354	35.18428	0.60506	-51.35207
1950	0.59612	-51.93915	0.78312	34.70447	0.78312	34.70447	0.59612	-51.93915
1970	0.58967	-52.10808	0.78698	34.38533	0.78698	34.38533	0.58967	-52.10808
1990	0.5869	-52.4765	0.7924	34.04894	0.7924	34.04894	0.5869	-52.4765
2010	0.5825	-52.9695	0.79839	33.70659	0.79839	33.70659	0.5825	-52.9695
2030	0.57618	-53.56642	0.8036	33.3231	0.8036	33.3231	0.57618	-53.56642
2050	0.57267	-54.30082	0.80636	32.81679	0.80636	32.81679	0.57267	-54.30082
2070	0.56886	-54.02858	0.80502	32.6427	0.80502	32.6427	0.56886	-54.02858
2090	0.566	-54.37174	0.80906	32.33193	0.80906	32.33193	0.566	-54.37174
2110	0.56158	-54.81367	0.81223	32.05536	0.81223	32.05536	0.56158	-54.81367
2130	0.55565	-55.13394	0.81411	31.82134	0.81411	31.82134	0.55565	-55.13394
2150	0.55082	-55.40834	0.82014	31.47565	0.82014	31.47565	0.55082	-55.40834
2170	0.54377	-55.8909	0.82153	31.01827	0.82153	31.01827	0.54377	-55.8909
2190	0.53729	-56.03423	0.82482	30.79402	0.82482	30.79402	0.53729	-56.03423
2210	0.53246	-56.40214	0.82873	30.48708	0.82873	30.48708	0.53246	-56.40214
2230	0.52871	-57.07027	0.8322	30.02195	0.8322	30.02195	0.52871	-57.07027
2250	0.52381	-57.62609	0.8344	29.56346	0.8344	29.56346	0.52381	-57.62609
2270	0.52046	-57.75484	0.83596	29.48745	0.83596	29.48745	0.52046	-57.75484
2290	0.51827	-58.02185	0.84072	29.27522	0.84072	29.27522	0.51827	-58.02185
2310	0.51449	-58.43854	0.84314	28.85065	0.84314	28.85065	0.51449	-58.43854
2330	0.50821	-58.8319	0.84261	28.40027	0.84261	28.40027	0.50821	-58.8319
2350	0.50033	-58.84445	0.84345	28.37321	0.84345	28.37321	0.50033	-58.84445
2370	0.49771	-59.00078	0.84933	28.11503	0.84933	28.11503	0.49771	-59.00078
2390	0.49233	-59.54437	0.85129	27.70686	0.85129	27.70686	0.49233	-59.54437
2410	0.48598	-60.09114	0.85184	27.341	0.85184	27.341	0.48598	-60.09114
2430	0.48064	-60.55146	0.85309	27.13521	0.85309	27.13521	0.48064	-60.55146
2450	0.47851	-61.13013	0.8568	27.13273	0.8568	27.13273	0.47851	-61.13013
2470	0.47806	-61.48225	0.86234	26.61485	0.86234	26.61485	0.47806	-61.48225
2490	0.47398	-61.80007	0.86324	26.26241	0.86324	26.26241	0.47398	-61.80007
2510	0.46988	-62.0286	0.86421	26.01476	0.86421	26.01476	0.46988	-62.0286
2530	0.46675	-62.18456	0.8665	25.81861	0.8665	25.81861	0.46675	-62.18456
2550	0.46296	-62.35641	0.86798	25.62808	0.86798	25.62808	0.46296	-62.35641
2570	0.457	-62.56001	0.87157	25.19589	0.87157	25.19589	0.457	-62.56001
2590	0.45198	-62.76254	0.87331	24.99581	0.87331	24.99581	0.45198	-62.76254
2610	0.44691	-63.2306	0.87568	24.72903	0.87568	24.72903	0.44691	-63.2306
2630	0.44211	-63.83681	0.87769	24.38303	0.87769	24.38303	0.44211	-63.83681
2650	0.43921	-64.05988	0.87487	24.23157	0.87487	24.23157	0.43921	-64.05988
2670	0.43623	-64.34574	0.88248	23.85089	0.88248	23.85089	0.43623	-64.34574
2690	0.43398	-64.63847	0.88445	23.61145	0.88445	23.61145	0.43398	-64.63847
2710	0.43054	-65.018	0.88408	23.39047	0.88408	23.39047	0.43054	-65.018
2730	0.42546	-65.29393	0.88441	23.22094	0.88441	23.22094	0.42546	-65.29393
2750	0.41978	-65.0055	0.88818	23.29165	0.88818	23.29165	0.41978	-65.0055
2770	0.41803	-65.58316	0.89158	22.93894	0.89158	22.93894	0.41803	-65.58316
2790	0.41416	-65.95647	0.89246	22.57478	0.89246	22.57478	0.41416	-65.95647
2810	0.40942	-66.2314	0.89561	22.40952	0.89561	22.40952	0.40942	-66.2314
2830	0.40493	-66.39728	0.8993	22.33096	0.8993	22.33096	0.40493	-66.39728
2850	0.40172	-66.32676	0.89526	21.90441	0.89526	21.90441	0.40172	-66.32676
2870	0.39947	-67.18052	0.89987	21.7165	0.89987	21.7165	0.39947	-67.18052
2890	0.39383	-67.69312	0.8984	21.50183	0.8984	21.50183	0.39383	-67.69312
2910	0.3897	-68.01013	0.89915	21.23524	0.89915	21.23524	0.3897	-68.01013
2930	0.38826	-68.20081	0.90322	20.97417	0.90322	20.97417	0.38826	-68.20081
2950	0.38696	-68.25817	0.90456	20.85876	0.90456	20.85876	0.38696	-68.25817
2970	0.38219	-68.39697	0.90723	20.52787	0.90723	20.52787	0.38219	-68.39697
2990	0.3784	-68.76896	0.90765	20.23647	0.90765	20.23647	0.3784	-68.76896
3010	0.3747	-69.01202	0.90704	20.1309	0.90704	20.1309	0.3747	-69.01202
3030	0.37075	-69.06724	0.90727	20.11339	0.90727	20.11339	0.37075	-69.06724
3050	0.36682	-69.17895	0.91095	19.84208	0.91095	19.84208	0.36682	-69.17895
3070	0.36265	-69.58722	0.9134	19.44234	0.9134	19.44234	0.36265	-69.58722
3090	0.35828	-69.98075	0.91175	19.29	0.91175	19.29	0.35828	-69.98075
3110	0.35451	-70.47168	0.91278	19.1075	0.91278	19.1075	0.35451	-70.47168
3130	0.352	-71.05354	0.91697	18.82507	0.91697	18.82507	0.352	-71.05354
3150	0.35127	-71.60126	0.91848	18.58064	0.91848	18.58064	0.35127	-71.60126
3170	0.34669	-71.42956	0.91868	18.54112	0.91868	18.54112	0.34669	-71.42956
3190	0.34531	-71.52925	0.92262	18.41466	0.92262	18.41466	0.34531	-71.52925
3210	0.34272	-71.79044	0.92387	18.22883	0.92387	18.22883	0.34272	-71.79044
3230	0.33806	-72.16123	0.92071	18.00584	0.92071	18.00584	0.33806	-72.16123
3250	0.33403	-72.64769	0.91611	17.76256	0.91611	17.76256	0.33403	-72.64769
3270	0.33015	-72.74582	0.9216	17.69467	0.9216	17.69467	0.33015	-72.74582
3290	0.32633	-73.26994	0.92172	17.37543	0.92172	17.37543	0.32633	-73.26994
3310	0.3241	-73.85683	0.92308	17.15877	0.92308	17.15877	0.3241	-73.85683
3330	0.32332	-74.36772	0.92675	17.11248	0.92675	17.11248	0.32332	-74.36772
3350	0.32221	-74.88838	0.92822	17.01825	0.92822	17.01825	0.32221	-74.88838
3370	0.31953	-74.8767	0.93063	16.69974	0.93063	16.69974	0.31953	-74.8767
3390	0.31682	-74.77879	0.92955	16.52386	0.92955	16.52386	0.31682	-74.77879
3410	0.31422	-74.84929	0.92929	16.29217	0.92929	16.29217	0.31422	-74.84929
3430	0.3113	-75.23414	0.93069	16.02716	0.93069	16.02716	0.3113	-75.23414
3450	0.30704	-75.97066	0.93115	15.97222	0.93115	15.97222	0.30704	-75.97066
3470	0.30241	-76.22922	0.9285	16.06921	0.9285	16.06921	0.30241	-76.22922
3490	0.29957	-76.53106	0.93149	15.85371	0.93149	15.85371	0.29957	-76.53106
3510	0.29786	-77.04797	0.93477	15.52742	0.93477	15.52742	0.29786	-77.04797
3530	0.29629	-77.67817	0.93549	15.29772	0.93549	15.29772	0.29629	-77.67817
3550	0.2935	-78.0463	0.93332	15.3777	0.93332	15.3777	0.2935	-78.0463
3570	0.29373	-78.40584	0.93728	15.13188	0.93728	15.13188	0.29373	-78.40584
3590	0.29075	-78.66756	0.93716	14.84066	0.93716	14.84066	0.29075	-78.66756
3610	0.28696	-78.88472	0.93643	14.72444	0.93643	14.72444	0.28696	-78.88472
3630	0.28417	-79.17076	0.93754	14.72155	0.93754	14.72155	0.28417	-79.17076
3650	0.28356	-79.69929	0.94194	14.48827	0.94194	14.48827	0.28356	-79.69929
3670	0.27897	-80.30958	0.93981	14.20828	0.93981	14.20828	0.27897	-80.30958
3690	0.27699	-80.6388	0.94016	13.98456	0.94016	13.98456	0.27699	-80.6388
3710	0.27547	-81.13206	0.94085	13.81467	0.94085	13.81467	0.27547	-81.13206
3730	0.27354	-81.77092	0.94125	13.66269	0.94125	13.66269	0.27354	-81.77092
3750	0.27153	-82.07344	0.9422	13.45921	0.9422	13.45921	0.27153	-82.07344
3770	0.27003	-82.12849	0.94281	13.41065	0.94281	13.41065	0.27003	-82.12849
3790	0.26931	-82.78283	0.9432	13.0183	0.9432	13.0183	0.26931	-82.78283
3810	0.26672	-83.13261	0.94366	12.88995	0.94366	12.88995	0.26672	-83.13261
3830	0.26261	-83.14067	0.94472	13.06213	0.94472	13.06213	0.26261	-83.14067
3850	0.26033	-83.63644	0.94719	13.00015	0.94719	13.00015	0.26033	-83.63644
3870	0.25791	-83.88537	0.94548	12.89344	0.94548	12.89344	0.25791	-83.88537
3890	0.25654	-84.46257	0.94898	12.763	0.94898	12.763	0.25654	-84.46257
3910	0.25549	-85.06918	0.94945	12.54909	0.94945	12.54909	0.25549	-85.06918
3930	0.25399	-85.56732	0.94659	12.30205	0.94659	12.30205	0.25399	-85.56732
3950	0.25118	-85.9801	0.94811	12.18235	0.94811	12.18235	0.25118	-85.9801
3970	0.24933	-86.12765	0.95075	12.38871	0.95075	12.38871	0.24933	-86.12765
3990	0.2476	-86.68893	0.94859	12.04505	0.94859	12.04505	0.2476	-86.68893
4010	0.24499	-87.12455	0.94767	11.74985	0.94767	11.74985	0.24499	-87.12455
4030	0.24197	-87.41892	0.94892	11.62644	0.94892	11.62644	0.24197	-87.41892
4050	0.24048	-88.08013	0.94814	11.32295	0.94814	11.32295	0.24048	-88.08013
4070	0.23794	-88.53723	0.9489	11.37092	0.9489	11.37092	0.23794	-88.53723
4090	0.23609	-89.19529	0.95188	11.18768	0.95188	11.18768	0.23609	-89.19529
4110	0.23427	-89.69412	0.95266	11.03734	0.95266	11.03734	0.23427	-89.69412
4130	0.23259	-89.99162	0.95148	10.96662	0.95148	10.96662	0.23259	-89.99162
4150	0.23193	-90.36376	0.9533	10.80489	0.9533	10.80489	0.23193	-90.36376
4170	0.23035	-91.02026	0.95602	10.41689	0.95602	10.41689	0.23035	-91.02026
4190	0.22844	-91.48524	0.95545	10.32462	0.95545	10.32462	0.22844	-91.48524
4210	0.22671	-91.95957	0.95456	10.31048	0.95456	10.31048	0.22671	-91.95957
4230	0.22497	-92.50617	0.95432	10.2409	0.95432	10.2409	0.22497	-92.50617
4250	0.2224	-93.04998	0.95365	10.0664	0.95365	10.0664	0.2224	-93.04998
4270	0.22108	-93.45071	0.95453	10.08077	0.95453	10.08077	0.22108	-93.45071
4290	0.21999	-94.19091	0.95577	9.84638	0.95577	9.84638	0.21999	-94.19091
4310	0.21872	-94.85095	0.95688	9.73518	0.95688	9.73518	0.21872	-94.85095
4330	0.21741	-95.28332	0.95735	9.72373	0.95735	9.72373	0.21741	-95.28332
4350	0.21678	-95.61268	0.95661	9.39321	0.95661	9.39321	0.21678	-95.61268
4370	0.21547	-96.01159	0.95585	9.11305	0.95585	9.11305	0.21547	-96.01159
4390	0.21434	-96.22412	0.95537	9.01471	0.95537	9.01471	0.21434	-96.22412
4410	0.21369	-96.49664	0.96055	8.88851	0.96055	8.88851	0.21369	-96.49664
4430	0.213	-96.88983	0.96694	8.74502	0.96694	8.74502	0.213	-96.88983
4450	0.21094	-97.27872	0.96026	8.81511	0.96026	8.81511	0.21094	-97.27872
4470	0.20846	-97.78374	0.95958	8.57062	0.95958	8.57062	0.20846	-97.78374
4490	0.2072	-98.49377	0.95648	8.36922	0.95648	8.36922	0.2072	-98.49377
4510	0.20583	-98.82726	0.95432	8.29377	0.95432	8.29377	0.20583	-98.82726
4530	0.20454	-98.88983	0.95515	8.27118	0.95515	8.27118	0.20454	-98.88983
4550	0.20505	-99.47424	0.9597	8.07239	0.9597	8.07239	0.20505	-99.47424
4570	0.20345	-99.50066	0.95988	7.85312	0.95988	7.85312	0.20345	-99.50066
4590	0.20195	-99.82295	0.9598	7.8567	0.9598	7.8567	0.20195	-99.82295
4610	0.20071	-100.13494	0.96068	7.87304	0.96068	7.87304	0.20071	-100.13494
4630	0.19958	-100.48728	0.96126	7.78355	0.96126	7.78355	0.19958	-100.48728
4650	0.19817	-101.28744	0.95785	7.56111	0.95785	7.56111	0.19817	-101.28744
4670	0.1957	-101.61691	0.95881	7.29763	0.95881	7.29763	0.1957	-101.61691
4690	0.19469	-102.22129	0.96055	7.12143	0.96055	7.12143	0.19469	-102.22129
4710	0.19455	-102.84986	0.96088	6.97064	0.96088	6.97064	0.19455	-102.84986
4730	0.19453	-103.2406	0.95985	6.86445	0.95985	6.86445	0.19453	-103.2406
4750	0.19373	-103.12011	0.95978	6.90312	0.95978	6.90312	0.19373	-103.12011
4770	0.19213	-103.20004	0.96241	7.0129	0.96241	7.0129	0.19213	-103.20004
4790	0.19167	-103.4183	0.96268	6.9005	0.96268	6.9005	0.19167	-103.4183
4810	0.19018	-103.67103	0.96264	6.65798	0.96264	6.65798	0.19018	-103.67103
4830	0.18799	-103.95339	0.96296	6.41807	0.96296	6.41807	0.18799	-103.95339
4850	0.1879	-104.35955	0.96289	6.35423	0.96289	6.35423	0.1879	-104.35955
4870	0.18684	-104.72419	0.96349	6.54306	0.96349	6.54306	0.18684	-104.72419
4890	0.18569	-105.07375	0.96064	6.26305	0.96064	6.26305	0.18569	-105.07375
4910	0.18488	-105.36633	0.95902	6.02345	0.95902	6.02345	0.18488	-105.36633
4930	0.18464	-105.57922	0.96014	5.91112	0.96014	5.91112	0.18464	-105.57922
4950	0.18505	-105.70885	0.96234	5.59055	0.96234	5.59055	0.18505	-105.70885
4970	0.18364	-105.74346	0.95756	5.80971	0.95756	5.80971	0.18364	-105.74346
4990	0.18203	-105.83886	0.96099	5.63724	0.96099	5.63724	0.18203	-105.83886
5010	0.18121	-105.88529	0.96454	5.40883	0.96454	5.40883	0.18121	-105.88529
5030	0.18065	-105.9806	0.9646	5.41243	0.9646	5.41243	0.18065	-105.9806
5050	0.17835	-106.43021	0.96205	5.88819	0.96205	5.88819	0.17835	-106.43021
5070	0.17788	-106.87551	0.96382	5.15745	0.96382	5.15745	0.17788	-106.87551
5090	0.17795	-106.72554	0.96321	5.05683	0.96321	5.05683	0.17795	-106.72554
5110	0.17765	-106.71155	0.96175	4.94456	0.96175	4.94456	0.17765	-106.71155
5130	0.17686	-106.98929	0.96123	4.72682	0.96123	4.72682	0.17686	-106.98929
5150	0.17623	-107.13902	0.96367	4.85767	0.96367	4.85767	0.17623	-107.13902
5170	0.17643	-106.79821	0.96098	4.61696	0.96098	4.61696	0.17643	-106.79821
5190	0.17525	-106.49305	0.9616	4.5835	0.9616	4.5835	0.17525	-106.49305
5210	0.17396	-106.46134	0.96193	4.42572	0.96193	4.42572	0.17396	-106.46134
5230	0.17307	-106.51321	0.96179	4.16907	0.96179	4.16907	0.17307	-106.51321
5250	0.17239	-106.03108	0.96432	4.19594	0.96432	4.19594	0.17239	-106.03108
5270	0.17099	-106.81412	0.96248	4.05236	0.96248	4.05236	0.17099	-106.81412
5290	0.16869	-106.69984	0.96337	4.06974	0.96337	4.06974	0.16869	-106.69984
5310	0.16835	-106.45455	0.96554	3.86221	0.96554	3.86221	0.16835	-106.45455
5330	0.16934	-106.47547	0.96697	3.49136	0.96697	3.49136	0.16934	-106.47547
5350	0.16758	-106.79069	0.96508	3.46626	0.96508	3.46626	0.16758	-106.79069
5370	0.16593	-106.83916	0.96058	3.64908	0.96058	3.64908	0.16593	-106.83916
5390	0.1644	-106.11975	0.96369	3.63942	0.96369	3.63942	0.1644	-106.11975
