!Keysight Technologies N9917A: A.08.15
!Date: Friday, 06 October 2017 10:46:29
!Timezone: (GMT-08:00) Pacific Time (US & Canada)
!Model: N9917A
!Serial: MY53102735
!GPS Latitude: 
!GPS Longitude: 
!GPS TimeStamp: 0001-01-01 00:00:00Z
!GPS Seconds Since Last Read: 0
!CHECKSUM:1932414272
!Correction: S11(ON U*)S21(ON U*)S12(ON U*)S22(ON U*)
!S2P File: Measurements:S11,S21,S12,S22:
# Hz S DB R 50
1000000000	-7.01719697302791	-69.2347855282837	-67.2359722166643	169.817660791846	-76.9214574732475	114.435782158594	-0.128303453678494	-61.048378868052	
1008750000	-6.94078528053468	-69.6951560803458	-66.3083121759076	32.4046937123722	-72.0040108167472	-148.755882818174	-0.0160192613108874	-61.0982996870574	
1017500000	-7.03008122169993	-69.1586035039726	-68.4980604421328	74.1088995582681	-81.3689082721526	83.4193381289642	0.0210561548130429	-61.642555440359	
1026250000	-7.08668713201529	-69.5073140424373	-88.8770183706549	157.490267394865	-74.9025483191236	173.145187669953	0.0353552068713699	-61.7760045394631	
1035000000	-7.17921907574557	-70.1228282640603	-74.7536200820023	127.835794565527	-72.7942183972087	-72.9934512221555	0.0411945281770314	-62.5387219784537	
1043750000	-7.19891088343228	-70.9637246873591	-59.9960652020031	-22.2572069253436	-70.1476919539059	13.5938584982579	-0.0689650441019214	-62.3680018558441	
1052500000	-7.17789506191914	-71.9681140228241	-70.4975684846918	156.607675786156	-64.2479566459233	-46.5319916601269	-0.109444819513051	-63.1570115177218	
1061250000	-7.11843583766625	-72.6288816813916	-61.8384152923164	111.476183071583	-67.3558004962	67.4983402509216	-0.181620921231488	-63.7633967363326	
1070000000	-6.98198343009006	-73.1839815694208	-62.5292484816652	31.7696132983565	-58.5935895250747	-104.55897063945	-0.202423014577267	-64.6260159619868	
1078750000	-6.89192415409154	-73.5620375955432	-63.1164087291214	73.6744763934101	-64.6290953014539	52.5564092421252	-0.20617643286375	-65.3896989506636	
1087500000	-6.75993576186237	-72.9130983035881	-66.3738384931722	137.374401118693	-73.6661050189914	-151.482584949594	-0.127278852783098	-65.8974117957755	
1096250000	-6.72526184375657	-73.3448158680179	-62.0868354210959	164.289654086292	-67.1266568490057	-79.3987953746406	-0.0535603179177233	-66.2213847236888	
1105000000	-6.697245338907	-73.2502839081257	-67.5281280572468	-6.08036344677703	-67.3464849643202	152.359009224513	0.00176585125727586	-66.7832232784018	
1113750000	-6.78818649193272	-73.1700569991414	-63.8636707047738	23.8749377264825	-67.6212074878571	-58.6400800867762	0.0212457684503616	-67.6374627937141	
1122500000	-6.85757167821051	-73.7325648510834	-90.3647411431661	-174.439714483596	-60.9369431421544	-63.8879834098654	0.0371563096838634	-67.6258976796312	
1131250000	-6.95167794879444	-74.7305506229843	-65.731651970823	-99.3339437490073	-73.9323248163002	-42.8951885954187	-0.0120974024166845	-67.9201267288666	
1140000000	-6.92600197274121	-75.5925059801369	-65.3038566905806	125.207169293347	-64.0946089464041	-151.95626109623	-0.108543943912726	-68.2686394610533	
1148750000	-6.84186377663653	-76.3495065574531	-65.6551562729613	20.4608481504493	-65.0597124679696	157.560796485441	-0.140053063546025	-69.0457028097023	
1157500000	-6.72627599484128	-76.887515791797	-66.2311008073319	2.84441375778058	-65.1298430084562	-102.541277138376	-0.173496132794701	-69.8312292102564	
1166250000	-6.66994726557905	-77.3863430999032	-62.6041065328893	29.6284795424118	-66.5859581482845	-163.793281630651	-0.200277890384203	-70.4916047299022	
1175000000	-6.52935043258923	-77.2250744293319	-71.6554296861488	59.5514822618329	-65.3820147755918	137.699986180829	-0.178935722078953	-71.117715399744	
1183750000	-6.43955709412289	-77.4580751314243	-66.7530028369396	-40.08255212548	-70.1107911498422	36.9580927295697	-0.135711343024609	-72.1791909809447	
1192500000	-6.46505123424777	-76.87535319152	-67.8211863755608	111.480755183715	-64.2376195092298	-2.52201581834698	-0.0557377302599686	-72.4405738715737	
1201250000	-6.49967644666815	-76.9400752789496	-67.9075918773971	109.277561294266	-65.8043262895334	172.161347818594	-0.00783587988249404	-72.9243994251712	
1210000000	-6.55173059428059	-77.241259965639	-69.4299380751513	20.2580305732808	-67.4055586707826	76.996440891293	0.0305183480220121	-73.494290359025	
1218750000	-6.6514209419298	-77.8036289347767	-76.0894332503783	-89.5217557857418	-68.6758449773801	167.602985970556	0.0230280186094244	-73.3636189146869	
1227500000	-6.66866018868956	-78.7275230655882	-69.6893956147189	133.430423513093	-70.7234337011306	-35.6748734621401	-0.0149896083158738	-73.7076509320868	
1236250000	-6.64473523303206	-79.7507142707166	-73.5784654335654	175.177152083984	-69.8139017477759	-165.582519464327	-0.103337284408606	-74.1350760121598	
1245000000	-6.55963362337384	-80.4008783977681	-69.0236690649627	150.819973892825	-68.934557170625	-16.2138712485208	-0.150347425086846	-74.8706504361951	
1253750000	-6.42562750005281	-80.7102039994857	-65.8786632878449	22.8521502616511	-67.1004505314832	116.567169968066	-0.199197142348394	-75.513229098604	
1262500000	-6.36397624226124	-81.4653635514038	-68.3665648402085	-34.8530127075858	-75.5732612849176	-100.089345500114	-0.223136173124436	-76.508948556473	
1271250000	-6.22622319453133	-81.2976985007594	-75.7295209077553	169.123714677515	-74.3355589532566	150.279918750523	-0.180259543659499	-77.1525353575377	
1280000000	-6.22798828008997	-81.0297778688971	-76.8600761609579	95.0727708794596	-69.6286104950553	-158.931949079415	-0.0878770202805746	-77.5528391615499	
1288750000	-6.24610114750027	-80.2099810676572	-74.2524063329176	165.166431730833	-69.1504151750221	-47.4680931431347	-0.0452936339646749	-78.3487798947288	
1297500000	-6.34500828748382	-80.3454811823461	-71.0964513658686	-126.573282683545	-72.802472111121	91.6457157239337	0.0250151614789299	-78.4117122353952	
1306250000	-6.39858552815871	-80.7673662094451	-77.3308510939418	161.059353939869	-70.0667164385781	163.100562224936	0.0386355400151919	-78.7459637421689	
1315000000	-6.44037244885911	-81.7659602236417	-71.5868494468227	170.835696548357	-70.4141326908977	56.5997483780463	0.0152353992644865	-78.8961055173374	
1323750000	-6.43240856240453	-82.6751587544461	-70.1381815341128	99.786603672427	-68.6399075434131	110.989310458649	-0.0240039002638362	-79.7124601645558	
1332500000	-6.39556792010312	-83.6672991943482	-64.013543534839	-33.5003782746073	-65.4995562366076	-164.241003487655	-0.0905147831791908	-80.0679210852983	
1341250000	-6.29018953192544	-84.2979402797596	-66.7184701943367	-169.202708291964	-65.6904248915537	-148.121724983679	-0.15788696799394	-80.7526368730019	
1350000000	-6.1206710756069	-84.3496962902477	-63.2980778894497	-107.611163164394	-67.102542748267	130.060437775263	-0.198329614294439	-81.5960790263163	
1358750000	-6.02652644581728	-84.1111583792985	-64.5465119893529	-143.387768420428	-70.0197995213962	36.4250396043965	-0.18895438319141	-82.2412234751437	
1367500000	-5.9828217364534	-83.8773182862095	-60.7769803935807	25.9613226069943	-68.8573186295437	-27.6539180612454	-0.152034760149277	-82.8529728371856	
1376250000	-5.98858045880958	-84.1008035030975	-77.0376463581185	-170.916951499184	-66.7674540535684	-176.707131434132	-0.0374989340361113	-83.012081630167	
1385000000	-6.00605495734905	-83.7706490105406	-63.9798172576039	151.88447698693	-71.4054964840726	76.0506842038236	0.00155996211874639	-83.6100335486272	
1393750000	-6.10916581858749	-84.32403006348	-65.7300599560318	-99.9321834512185	-62.2969379086645	77.7096700428153	0.0289712890061687	-83.959446606049	
1402500000	-6.19040454548105	-84.7421547189049	-67.094756959412	19.4149780375693	-72.8271084809248	7.07190135128177	0.0283616002978265	-84.3642594339567	
1411250000	-6.2346725554602	-85.5685224751219	-68.2452716618208	-97.7643454387231	-65.6920256063499	59.927137141217	0.0084501990566693	-85.0003169953633	
1420000000	-6.21190913336653	-86.4115170903502	-75.0095741715407	22.0878980427816	-76.0307545733251	83.3175296359522	-0.0635625837781626	-85.4118949691424	
1428750000	-6.10326576314986	-87.2566980188208	-62.2315571884813	-137.806096037028	-59.9133036663604	-48.0420974079337	-0.160564967044382	-85.9146645484958	
1437500000	-6.03348322110562	-87.7664410970146	-63.9523084617154	41.3075016973032	-68.2728990574566	87.4037891264155	-0.18341469568953	-86.597590607933	
1446250000	-5.94374882051308	-87.7629637180716	-68.4521504130986	-59.5244854645513	-65.0095986563033	-15.1569687040047	-0.180574855496559	-87.2122515410822	
1455000000	-5.8362914782423	-87.5764508317602	-74.4681706973052	17.1917012239603	-62.7142701023336	159.843553817941	-0.163296746711812	-87.9600362833814	
1463750000	-5.79493421477276	-87.2807110153361	-65.8764543796388	163.913043991562	-74.5710740474856	116.151570877372	-0.117445304831542	-88.590180497459	
1472500000	-5.80870053627187	-87.1671202715462	-66.4366846826773	101.419136478369	-67.2384045482128	4.47853490309298	-0.0608759738987514	-89.1423865050883	
1481250000	-5.91924672371594	-86.7452823830252	-68.6265400182998	-117.630061433936	-66.6109645332447	154.416012225062	-0.0189246239713162	-89.6845337455135	
1490000000	-5.97804355268864	-87.3137148820545	-66.6305962296224	-144.071668047136	-66.0596615846836	-72.995477230108	0.0231024803404029	-89.9431515328663	
1498750000	-6.03377119439193	-88.0367894123544	-75.1605147404078	172.572498326384	-67.3252729894076	-155.314370349548	0.0089684782021302	-90.0331417785576	
1507500000	-6.03328043379742	-88.8879043519363	-60.6295110077866	-38.8189681637252	-68.9550084428516	-178.057730875149	-0.0390296681426974	-90.471696855186	
1516250000	-6.0006858720527	-89.7887150543879	-66.2578807110659	76.615973311733	-59.3110475575219	-42.7397743076829	-0.0953405257646561	-90.879268325943	
1525000000	-5.90806861360996	-90.5045553174059	-68.882827797812	67.082724614561	-67.6971445662433	-70.8845896663486	-0.148230627075297	-91.4945730893097	
1533750000	-5.7839954683036	-90.7086523013635	-66.0095165022221	57.3575264478685	-61.8625111539588	86.1189495841699	-0.209457646017162	-92.3415956766918	
1542500000	-5.69003068975034	-90.6772620383722	-70.7447254970044	-12.3828529216508	-64.5427531042031	-107.522429399192	-0.190759526803061	-93.1651862816843	
1551250000	-5.63939008367797	-90.5865604288982	-64.6600560391644	-13.7588353761536	-63.6342909245768	-55.1016978944825	-0.173421254600059	-93.8062594460979	
1560000000	-5.62218006742025	-89.962410396911	-68.3914750906191	162.867555891798	-74.1664081854548	-150.828153302053	-0.132517992348272	-94.4109887870415	
1568750000	-5.70436337506202	-89.6798116768887	-69.3881213926098	83.5019065126484	-76.3621983924686	-99.5488056770952	-0.0694814370185396	-95.0647719502419	
1577500000	-5.74772954704207	-90.096443753169	-69.0732408851931	45.0262632407057	-69.6561517013669	81.0265606158158	0.0235615198675705	-95.03169234474	
1586250000	-5.83746966870185	-90.6740562976273	-66.5336436371433	-134.774169090146	-68.7780368268521	-24.5212988361533	0.0327673487446147	-95.3484290909354	
1595000000	-5.8374093549378	-91.4484947693466	-71.0146288036663	159.127011475221	-69.4283992686819	71.0726304056858	0.00987017480766045	-95.6599274768744	
1603750000	-5.84204617202177	-92.3355320431707	-72.7679402438129	113.375078637404	-64.9903975605292	-78.5989434810803	-0.0741852555086712	-95.9996776092414	
1612500000	-5.77118453761085	-92.971250409095	-65.6465477207187	-58.2838007754398	-62.1220706535527	112.486959573625	-0.101112875121784	-96.8075666933781	
1621250000	-5.67526207512663	-93.4528834859706	-61.799206007312	101.045372225978	-66.4449923742226	35.9761149176605	-0.170586789643431	-97.3848470640052	
1630000000	-5.56339874072862	-93.5465049267301	-63.8382934372856	-146.885291093141	-70.6530305036884	73.2607090190626	-0.217839557112393	-98.1580456641084	
1638750000	-5.47934141330854	-93.1302467219744	-71.1449550904474	-167.967662356018	-80.7576606390297	154.632232878518	-0.209621697739168	-99.0251614255625	
1647500000	-5.46197179799908	-92.5973519436147	-58.3171820209823	-7.29729492201975	-62.1406584279025	9.59172753272003	-0.178573854396799	-99.7787285140506	
1656250000	-5.50321678146689	-92.4568852987072	-66.9283613355827	157.280214827873	-59.7104282251332	13.6132613475315	-0.121439920776702	-100.431375603045	
1665000000	-5.55216276179855	-92.8215469671548	-65.4851982552414	-24.3086505840379	-69.8899063393725	130.220777017538	-0.0217621902897489	-100.40163737249	
1673750000	-5.63043908338774	-93.2670685615361	-64.6367918159334	-83.3341834050574	-64.2139322075423	-159.297418905692	0.00523383741928365	-100.874546823009	
1682500000	-5.68267959612181	-93.7746256090621	-69.7370815995273	179.380746834302	-88.0014873738435	178.632555086532	0.0427427978248603	-101.029186491209	
1691250000	-5.73181532079216	-94.58752398257	-65.9825248161287	-20.4720005861151	-63.1150476548801	32.1173427989149	-0.0102436076258219	-101.264203206034	
1700000000	-5.66999460789911	-95.5908250809644	-69.7214128209064	25.027407788419	-62.7688366848437	132.835731165207	-0.0926979933757436	-101.728776998694	
1708750000	-5.56911678388232	-96.0597577763132	-62.2168190225419	-36.351639632502	-58.7089716461676	-55.9548791223524	-0.126569366900296	-102.49449123478	
1717500000	-5.44888166723619	-96.2355737512383	-63.6295872681045	-22.9994224625989	-59.2012479777052	6.78420004400732	-0.181216116781954	-103.220406715455	
1726250000	-5.37634630866257	-96.2061181596971	-68.2127792132481	4.27434066272002	-65.0339658344751	109.820998519471	-0.212169737197624	-104.016503596496	
1735000000	-5.31081373126156	-95.7015862497243	-61.0445784512458	-2.393452345458	-68.4543020050777	140.88783819025	-0.196519224581537	-104.792458230101	
1743750000	-5.32862306146524	-95.0896193053282	-69.9868530812102	-155.671921595462	-68.8520611492696	81.7557820616491	-0.165337765473143	-105.582849315533	
1752500000	-5.37373406416493	-95.226999252757	-70.035055673017	-27.8833927885095	-71.5466768177199	-162.257281277283	-0.116604550495826	-106.058953823126	
1761250000	-5.43085010445811	-95.5174203859915	-74.8270400934549	94.3990820091236	-72.534740600221	8.34126545006375	-0.0229637625427808	-106.211958649718	
1770000000	-5.5045734398342	-96.2207011344207	-85.4407130917888	175.708386198196	-77.7306040621795	-119.172406198719	0.0205999390947902	-106.384804214164	
1778750000	-5.54172576688955	-96.9646477706177	-68.7918318939976	76.9630541617818	-67.9586151866975	-52.4820770040175	0.00456308097979542	-106.73234204792	
1787500000	-5.53118108125378	-97.5452366078019	-65.4624965777653	37.5785614546543	-67.7137176438569	-170.505803953012	-0.0346602853533506	-107.159315068089	
1796250000	-5.51005108812568	-98.3999008852764	-69.6909245162607	-54.3719930162608	-65.8284887912721	-10.1337378675444	-0.106649922869535	-107.600979014062	
1805000000	-5.42442760815739	-99.2217962080889	-70.9631729719293	-23.9036439185541	-64.5271655901955	12.5448654474585	-0.155713405285466	-108.188917075911	
1813750000	-5.2561509374448	-98.8403367719998	-62.1900582558281	-6.42468434709799	-66.739187502781	-86.4823466337693	-0.175141102073688	-109.002345309792	
1822500000	-5.19949762549864	-98.4903128049866	-62.6246267142715	131.815370041002	-70.6531953449143	-36.7418727776707	-0.196280798388357	-109.889862446136	
1831250000	-5.18197583080056	-98.1704325962257	-66.4774546081228	-115.08163542985	-70.6970797021175	-49.2539821551745	-0.162521171015242	-110.479403033421	
1840000000	-5.21288765811289	-97.9843925585331	-67.586213740473	-150.262622817093	-67.768889133301	-141.35694138001	-0.124679953622245	-111.083825685895	
1848750000	-5.3010773918782	-97.7607325943861	-67.3003427127051	-58.504986071456	-64.3307016414472	131.001230241762	-0.0644602439576684	-111.55861948718	
1857500000	-5.37783544653005	-98.0915290681055	-70.4787692540518	-94.9428658534295	-63.0592144208228	-62.8391519871441	-0.00695599659313926	-111.930369555377	
1866250000	-5.41672395340223	-98.829338482778	-74.3384044419031	31.5742060806321	-69.8300386089597	162.447973473852	0.0201434698378599	-112.391229597931	
1875000000	-5.42241387622297	-99.6402453361317	-69.9909555503554	-63.482489928497	-75.6892635146883	73.107653812774	-0.00365266568143698	-112.379779446799	
1883750000	-5.40170839770465	-100.538895350376	-66.1272324662093	72.7735059844012	-72.5955270747397	24.5337531588991	-0.0550381444632523	-112.605437222525	
1892500000	-5.29169569047954	-100.970447165045	-69.2566791225814	139.747985092194	-72.469180347254	-99.5681741858767	-0.0874103156474302	-113.184734985008	
1901250000	-5.18928774478557	-101.161100707777	-61.8143772842616	78.2635641104147	-70.8152236376148	-13.021630263871	-0.152036853650479	-113.890917566632	
1910000000	-5.15186575533088	-101.606770910504	-68.028373878542	-172.569322500543	-66.4967122320265	57.0692429459682	-0.185871461646062	-114.668756534886	
1918750000	-5.07409267319037	-101.174298876836	-62.1656048827566	75.9635820780369	-60.7332589089406	-3.0639336364043	-0.174721904638861	-115.3646462957	
1927500000	-5.05070349913457	-100.688495844981	-74.4738540130641	-16.7350544050337	-75.7190675674144	-20.8357369271013	-0.119531373823834	-116.074210698053	
1936250000	-5.12140969249475	-100.231425027694	-78.3301037076854	-1.17341807465834	-65.8823581997669	154.76923214156	-0.110788052039494	-117.015023632584	
1945000000	-5.19483388304099	-100.396303437716	-70.5731099309709	-51.5867113433594	-64.2188690586437	3.78753133114232	-0.0178244420941341	-117.099531953124	
1953750000	-5.26023231969223	-100.931794460604	-85.6464735813892	-142.852624729343	-62.4988818474181	123.415782997768	0.0191407884856399	-117.322241802527	
1962500000	-5.31580610407066	-101.573246769567	-85.5800927559292	-72.8889562304554	-77.956575848549	-117.325273417906	0.0152060272788919	-117.512448461067	
1971250000	-5.28608608076846	-102.35736411016	-75.5959469094367	135.067274021493	-82.8860336669484	-179.687838235708	-0.00327921047094325	-117.908175406564	
1980000000	-5.21328940849221	-102.860596746092	-73.2461356680853	62.2067455163952	-66.2183198142806	38.2810226839182	-0.0547133964615573	-118.403414945837	
1988750000	-5.13226625519911	-103.141806247108	-61.5261471271997	-48.5431769625621	-63.198044471803	-66.901905079789	-0.0948225292635592	-118.897700653507	
1997500000	-5.06087153555547	-103.263421126709	-69.0326627813971	-177.805665894694	-63.7632821006336	147.840938876778	-0.122040846408283	-119.851468937333	
2006250000	-5.01207255458303	-103.355838898521	-61.9904402382635	-20.0634330362087	-68.5065987893223	-82.9150235002847	-0.192355478613232	-120.407075354232	
2015000000	-4.9775143344437	-103.134622117245	-76.4848171749812	140.580783677613	-67.2951963153913	111.535602725572	-0.164656854534487	-121.167476976678	
2023750000	-5.0010320992839	-102.82521222977	-62.3683806842928	22.8941564315804	-58.7128657697986	172.938338559181	-0.128065797490888	-121.830632546355	
2032500000	-5.06602831681106	-102.606436472329	-66.5722359104315	157.013138947619	-62.1988145272635	-174.633005438427	-0.0639295196750964	-122.217011449464	
2041250000	-5.11645065786559	-102.889957165286	-64.9834298670221	21.582975799649	-64.4664813256052	102.72504418054	-0.000355058464254342	-122.410027735576	
2050000000	-5.1851664274947	-103.418296040076	-62.5931178408743	-2.7961097981797	-66.3539793245349	-101.027146592425	0.0198936279332584	-122.567324957365	
2058750000	-5.24923998139508	-104.014337655299	-78.8679418008782	7.44654873877441	-73.2288570812244	-80.5025800019431	0.00275637134908975	-122.886058895898	
2067500000	-5.21392170249318	-104.843209175753	-65.6650996455872	-146.63431456262	-71.8384306775348	160.295845733395	-0.0434498090909917	-123.268569718081	
2076250000	-5.13501798858284	-105.323650628746	-67.3631524035641	-34.7805869668353	-73.4505110591569	-66.1774339557104	-0.0870034951862317	-124.023467828433	
2085000000	-5.04717903446298	-105.583106879263	-72.1137987436174	-77.9907331942142	-68.9429330432899	-35.5324343127094	-0.149743473102813	-124.68047214701	
2093750000	-4.97759218481403	-105.511735452681	-63.9107554202497	94.8836561535997	-68.2591797523065	12.6825549584661	-0.176052995817292	-125.532530844055	
