!Keysight Technologies N9917A: A.08.15
!Date: Friday, 06 October 2017 10:20:31
!Timezone: (GMT-08:00) Pacific Time (US & Canada)
!Model: N9917A
!Serial: MY53102735
!GPS Latitude: 
!GPS Longitude: 
!GPS TimeStamp: 0001-01-01 00:00:00Z
!GPS Seconds Since Last Read: 0
!CHECKSUM:0195806474
!Correction: S11(ON U*)S21(ON U*)S12(ON U*)S22(ON U*)
!S2P File: Measurements:S11,S21,S12,S22:
# Hz S RI R 50
1000000000	0.276377884879026	-0.222729406040543	0.000382322152868426	0.000410747417010457	-0.000117467791057838	-4.87126768825134E-05	0.481120907558253	-0.862916079543971	
1008750000	0.275951964453582	-0.226677386528764	0.000265315901799388	-4.83493248187001E-05	0.000101181777902607	-5.58850941469633E-05	0.484090029172538	-0.87305170786236	
1017500000	0.279012352497658	-0.22104108352625	-0.000101023613467052	-0.000134619377876611	-8.58459710312052E-05	4.75110554089903E-06	0.475506662993701	-0.881124840488167	
1026250000	0.279256845493299	-0.22093196976859	-0.000216282018344449	0.000110284319946121	-0.000143883134167898	0.000118020751041684	0.474862753611023	-0.883873934514056	
1035000000	0.272500446302751	-0.218851969485971	-0.000160315353068988	0.000199799487948313	0.000321480272626152	-9.82252015716752E-05	0.462985776183503	-0.891089503855244	
1043750000	0.269558034005876	-0.220442826986287	-5.34573330071131E-05	-0.000177163938923304	0.000448747400704337	-0.000785796492302172	0.459403005050935	-0.880250449159581	
1052500000	0.264343774409443	-0.221534509186768	-0.000357530146569776	0.000582595326026321	-0.000388898359503972	-0.000269023566352365	0.447515875877036	-0.883310040599467	
1061250000	0.262375601090535	-0.225022723851357	0.000180979318340291	-0.000422510948427989	0.00107608064518192	3.85442612609195E-06	0.434914844041079	-0.88184466406887	
1070000000	0.261667194599882	-0.230376796202835	-0.000202580700195449	0.000397567296495523	5.63927388610229E-05	-4.50789822645914E-05	0.422327641300097	-0.886848272467569	
1078750000	0.260862423757367	-0.233698165707461	0.000132187398123744	1.36593266429027E-05	-1.9154283317272E-05	0.000139322814341622	0.410368289655437	-0.890827095100692	
1087500000	0.267956610586102	-0.238686004242942	0.000432442874028187	-0.000284900686248562	-5.91209862592886E-05	4.28091511909823E-05	0.407053578264098	-0.90130150006963	
1096250000	0.265988904463846	-0.241628522983659	0.000228877340688624	4.57160933502633E-05	-0.00053246028113654	0.000691935361263441	0.402643436264089	-0.910223220679431	
1105000000	0.26957262331099	-0.24277523318297	-0.000158112265361914	-8.19799309033921E-05	-0.000267865948198362	-0.000376029434463365	0.396265677747422	-0.918477160421512	
1113750000	0.269931701470154	-0.237413260831744	0.000396835042923597	9.88490931526216E-06	-0.000104807845047441	-0.000257554324428862	0.383556417256164	-0.925659708142288	
1122500000	0.268347748683451	-0.237537558045621	4.79042469504733E-06	-0.000128904856219814	0.000130636179783859	-0.000389342669445905	0.381857476216708	-0.928081097582812	
1131250000	0.261311095960518	-0.235715086764782	-0.000410863701062647	8.77895585599988E-06	-0.000139917806306796	-0.000357554048252617	0.375204602482133	-0.924942058299337	
1140000000	0.258373620158345	-0.238664994362314	-5.5079356156828E-05	-0.000187542573948263	-5.99053168869089E-06	-0.000306801561340593	0.364294290263504	-0.918997477787355	
1148750000	0.253725009757391	-0.240920571926526	-0.000204760603058703	-0.000467410474344135	-0.000809542976181294	0.000138332863123254	0.352976021787109	-0.92248520528158	
1157500000	0.252281879377983	-0.246418940358049	-0.000437666802838711	0.000862129139799156	0.000440204989940386	-0.000635554669475907	0.339693093790527	-0.924226096737336	
1166250000	0.250374174541424	-0.249547733977793	0.000155673184009194	0.000404432640639616	-0.000180601198697842	-0.000337774701875674	0.329288008901274	-0.925557240619947	
1175000000	0.254124308764049	-0.254609533259933	-9.40376287511907E-05	0.000429521732294619	7.70421845858491E-05	0.000347294139895038	0.321137240982749	-0.931068262176262	
1183750000	0.253887477901671	-0.260741301644365	-1.24721433189324E-05	8.70435641616898E-05	-0.000151605959722735	-0.000318436294994115	0.302668936086099	-0.93779406290871	
1192500000	0.257990401413741	-0.257912972100725	-0.000346860551920463	-0.0004923894523836	0.000516890910101388	-0.000293266348389784	0.30248335348495	-0.948005393438019	
1201250000	0.260761630500399	-0.258125208665576	-6.51163125485577E-05	0.000265019280915677	-0.000195842184863289	9.57150170893785E-05	0.294807500166929	-0.953864580591466	
1210000000	0.259669948557992	-0.25718718408857	-0.000286248236617605	-0.000196609244451662	4.30654085924715E-05	6.9358740185334E-05	0.284274386782051	-0.9610586291682	
1218750000	0.257100686683756	-0.253953376392923	4.85211413732768E-05	-0.000505166750624244	-0.000172407772283695	-7.23575299104004E-05	0.286108582079446	-0.960284013165772	
1227500000	0.250344892079255	-0.252870432951522	0.000499476757488523	-0.000107880233297496	-0.00016119985895114	-0.000321753565196239	0.28029030088036	-0.959213305658952	
1236250000	0.246296122484055	-0.254979000491309	0.000152881219921053	-0.000343101965786097	0.000459090885008564	-0.000150866394364176	0.269402807178028	-0.953621040403648	
1245000000	0.242322478095115	-0.259682137168213	0.000235567795458183	0.000504540053296129	-2.67012110890631E-05	5.69445382780993E-05	0.257686902047224	-0.952671664540317	
1253750000	0.240970513336991	-0.265337364207216	5.49136989607508E-05	-0.000311450325463544	-0.000284326782581039	-0.000313011475874488	0.247235490700188	-0.951244731733346	
1262500000	0.23853738534006	-0.269929951767833	0.000332889931178452	2.96502562967447E-05	-0.000506218407797175	0.00062292365742802	0.230262042665411	-0.951871335674733	
1271250000	0.241379694959175	-0.276616569980901	0.000598769300186117	-0.000109816662570722	-0.000385059203763377	-0.000337787258642548	0.221543098682179	-0.958880413404823	
1280000000	0.244528553172668	-0.276303678899039	0.000138958425288563	-5.88265937403002E-05	-0.000318725697583437	-0.000143859101435277	0.216590041522649	-0.968639438209162	
1288750000	0.250560603777298	-0.274486648591061	-0.000484985213272289	-0.000195037980872755	-6.92414126633464E-05	-9.33954231188561E-05	0.202185825891889	-0.973359733061964	
1297500000	0.250636662802828	-0.271330899345544	-5.8854132016721E-05	0.000212357376635201	-0.000110215508155478	0.000158484072314259	0.20174327150948	-0.981803096879842	
1306250000	0.248333897641032	-0.267636177492222	0.000341797562964092	-8.32687700542514E-05	0.000190143837131442	-0.000205020447197955	0.194810063699662	-0.983984642385225	
1315000000	0.242916376419746	-0.270352432416363	-0.000217135585126664	-7.33852446470301E-06	0.000130015532501996	-0.000467470326549441	0.191637861371589	-0.982832580198105	
1323750000	0.238545014250489	-0.270519118623077	-0.000200196904121046	8.70775778539182E-06	-0.000239395965687339	-3.73389822171379E-06	0.178908028511336	-0.982979410801139	
1332500000	0.233525136760637	-0.273573430796039	0.000317383733592913	0.000343797026814376	0.000310835179705546	0.000331212848283569	0.169341280843532	-0.976956379889672	
1341250000	0.229262792609702	-0.278213682340193	9.49716311027326E-05	-0.00102031229009976	-0.000305582064079359	0.000274576198115897	0.157587120811915	-0.972910715933228	
1350000000	0.230068492046778	-0.284300228322622	0.000220373929612216	-0.000729900194475459	-0.000350824951513013	9.06075364692338E-06	0.143928970831068	-0.97218895955109	
1358750000	0.232520996588514	-0.289446607491177	0.000805931170937224	0.000399150882069788	1.93715888033496E-06	-7.03987132306918E-05	0.135302032458371	-0.974778660179481	
1367500000	0.236424073386693	-0.290111837343853	0.000479386502465926	0.000311581504027543	0.000206263076360469	0.000658659064142318	0.124925824260237	-0.978307804670967	
1376250000	0.235618426678617	-0.292384835665722	0.000376643837846136	-9.52769528599121E-05	0.000438918870442423	0.000449030483228574	0.122354493384586	-0.988808775903086	
1385000000	0.237763601848469	-0.292225422559636	0.000194442039504232	0.000503292844458348	-3.25449522976468E-05	-8.22595409702072E-06	0.112738788491304	-0.994569875061454	
1393750000	0.236627756115052	-0.290063900073876	-0.000103725291548835	-5.93211424354786E-05	0.000268668406129814	0.000556578598062104	0.106529920462875	-0.997682348705369	
1402500000	0.234009419032598	-0.287313512186309	0.000420919760916673	0.000134554986115807	-0.00013790448689734	-0.00022293004467335	0.100341916561162	-0.998566769101764	
1411250000	0.229055839454934	-0.283560522890782	-0.000241413242619733	2.20999154682102E-05	0.000248206343147955	0.000212314454684665	0.0879725524279804	-0.997557272320516	
1420000000	0.223141657270157	-0.286265537849917	-0.00046122973989345	-0.000265524785150384	-9.22737250237536E-05	-0.000365020553291038	0.0795213863622763	-0.990916614178603	
1428750000	0.217558381849125	-0.29068936624087	0.000752904364431086	2.64948509589502E-05	0.000747384900256423	-7.37804199514564E-05	0.0704765719373298	-0.983965524751425	
1437500000	0.215740121250411	-0.295858158913334	0.000327173044388216	0.000250552891548836	-0.000127548280747405	-0.00017586697450802	0.0597478034405184	-0.981851781524483	
1446250000	0.217260328576711	-0.299574031648874	0.000970537443069571	-3.46149175935494E-05	0.000422726610813474	0.000488463611863231	0.0491372515806348	-0.98252795247577	
1455000000	0.218607248524954	-0.303946722870931	-0.000257559153179713	-0.00033457060390679	0.000333304729949155	0.000315396181217388	0.0373538588047005	-0.986003333166624	
1463750000	0.222200281636739	-0.306645271060985	-0.000452101807900038	-0.000149593993521486	0.000531840209729877	-0.000754269967693219	0.0265258587575988	-0.988775520633428	
1472500000	0.223927203153778	-0.307512107330474	0.000624851921732047	-6.83679742114027E-06	-0.000123315916458066	-0.000313481212353457	0.0161479496464817	-0.994504772960973	
1481250000	0.227434804566143	-0.303332538117977	-0.000143558309486337	0.000264671394977686	0.000324353310960383	0.000472586383953403	0.0083135476271627	-0.998496952911885	
1490000000	0.226055740294409	-0.301379197035396	-4.60063876880302E-06	-0.000380692559605619	7.43777203874823E-05	7.83024118752524E-06	0.000697873543228942	-1.00217008462275	
1498750000	0.221311248084604	-0.299550538481026	-0.00043707210559484	-4.92983142462623E-05	0.000388486324502072	0.000373676209639552	-0.000875542495200602	-1.00089903900152	
1507500000	0.215390864806928	-0.300283510330752	0.000468113889751167	-0.000450062508308981	-0.000352886270484293	0.000100505098577068	-0.00841086509233945	-0.995584141109112	
1516250000	0.209199370175176	-0.302963131334186	0.000140055273969835	-9.88598817311796E-05	0.000287012119151396	-0.0005902042502414	-0.0166973720389369	-0.991523284664742	
1525000000	0.205217811379317	-0.306974555306778	-0.00034212210177011	0.000419965015674334	-0.000475534306165654	1.19793003630891E-09	-0.0246723403664511	-0.984666580132724	
1533750000	0.204774302277587	-0.312617349444222	-0.000167601810847026	0.000601145146812889	-7.74305551561916E-05	-0.000544689943121781	-0.0400462906670698	-0.981304651437015	
1542500000	0.205684727943132	-0.317753809581262	-0.000760777445103247	0.00035968025442888	2.15241350676942E-05	0.000428586265336129	-0.0536426731647156	-0.979327277732597	
1551250000	0.206423157544366	-0.320579047274842	0.000196372254985001	6.29727491786825E-06	-0.000649867666354118	0.00054727252201466	-0.0639210621883796	-0.983523388681227	
1560000000	0.211827506905496	-0.321993502245358	-0.000540998192754733	-0.000449623853085339	-0.000735397805302583	-0.000318918308730064	-0.0731194852652973	-0.985415495093986	
1568750000	0.215375443508887	-0.319303253668775	-0.000563187095778632	7.75770957207349E-05	0.000765796321218937	-7.12797924324029E-05	-0.0868369015729044	-0.987945996355016	
1577500000	0.212582009511944	-0.317744652285413	-0.000166616963544201	0.000296274150570905	0.000168188411243597	5.77642272887089E-06	-0.0868127702219552	-0.998591018904863	
1586250000	0.210701699704798	-0.315682630157022	1.1262621161767E-05	-0.000321056286571248	-7.63127036990337E-05	-0.000190927383463128	-0.0934964833649602	-0.999493367385991	
1595000000	0.205920251478652	-0.316018995079775	0.000433449302502519	-0.000369709563231674	-0.000342951848727445	0.000400912310144664	-0.0997953083359985	-0.996382477753917	
1603750000	0.200475999193159	-0.316934434880475	0.000936772942399275	-0.000104418656995335	-0.000268351702790027	-0.000271421588251739	-0.105707452789535	-0.987274657601691	
1612500000	0.195681738798251	-0.319085317578129	-0.000484589039999031	-0.000264369372673845	0.000207808206189138	0.000365491148794903	-0.117601967311231	-0.985525464144846	
1621250000	0.191999429891642	-0.325278674644238	-0.000158766056668865	-0.000113700510404291	-5.43605720783509E-05	-0.000537626826367149	-0.126589173620232	-0.976442141915321	
1630000000	0.191166177503601	-0.330169514463922	-0.000383218550762355	0.000724067618121397	0.000134657664064553	0.000899891827812644	-0.138469918342021	-0.971699749189776	
1638750000	0.193982322909181	-0.33321177349987	3.13188052113061E-06	-0.000323022413687986	9.0569112239553E-05	0.000644711089206164	-0.151610556349398	-0.9694886260646	
1647500000	0.199517902776161	-0.334672957602472	0.000166867875122117	-8.86574859920778E-05	-0.000193238888491282	0.000240034096702205	-0.163004981600235	-0.971817249990395	
1656250000	0.20123394085001	-0.334384772207696	-0.000408534328592503	-0.00010386405019173	0.000273001250404405	0.000351556251458809	-0.174924269222192	-0.972721037672513	
1665000000	0.199069704040821	-0.333385477690456	1.62407213641199E-05	0.000707018026906593	-0.000174572499336528	9.9762002730921E-06	-0.178160258954462	-0.980999954410878	
1673750000	0.197866427828885	-0.331297919873641	7.00570711783006E-06	-0.000213458712100365	-0.000272001052063973	0.000188952453524793	-0.186410318111132	-0.982497600010365	
1682500000	0.195396020294299	-0.329502976490807	4.6430836974157E-05	-0.000273793911924352	0.000337678981501694	0.00047381059723815	-0.192364691340782	-0.985128620859689	
1691250000	0.192023052988488	-0.328295216261092	0.000855164000540203	0.000746336388946981	8.95986980500249E-05	4.64683378597037E-06	-0.196668915882726	-0.97936966119719	
1700000000	0.184184159163393	-0.330837181453966	-4.28345860828392E-05	-1.59621273536445E-05	0.000286969044480612	0.000327617812994983	-0.202806709979641	-0.970800604541864	
1708750000	0.180169261011771	-0.335570985718174	-1.61962046607186E-05	-0.000402655506188322	0.000757494999156926	-0.000422559877938697	-0.214476579191406	-0.966405616019325	
1717500000	0.178499967475987	-0.342242471615908	0.00011842201617307	0.000799226219501904	-3.385374136475E-05	9.32568678683684E-05	-0.224130354486808	-0.959451180688323	
1726250000	0.177630815227088	-0.346166540799357	-0.000701804486052143	-0.000219039327048834	-0.000158296522022085	-5.93011823718899E-06	-0.235309636909501	-0.952428945019013	
1735000000	0.182279016239682	-0.34985137780628	2.96125285345249E-05	-2.41912759844507E-06	3.8468013961514E-05	0.000184468481928966	-0.24771032972126	-0.950802452791267	
1743750000	0.186376138431142	-0.35006472384307	0.000539518083613542	-0.000281875282520404	0.000105455781810398	-0.000216431275056063	-0.259337621443101	-0.949968574939682	
1752500000	0.188010401694703	-0.349113722366604	-1.6136883868811E-05	-0.000149658053713108	-0.000257464563219482	0.000310144269533188	-0.270199375795003	-0.953780159929442	
1761250000	0.18677128229826	-0.347275879180075	7.68234762398715E-05	-1.20769246324882E-06	0.000189135242685772	-0.000463443832819737	-0.27717625919793	-0.95797145677541	
1770000000	0.182771282547935	-0.344761049309597	8.39867395245575E-05	-0.000252667832638238	-0.000225223559356146	0.000114373850349135	-0.281193791237478	-0.960550478101619	
1778750000	0.177434847779278	-0.342571013521412	-0.000888620976697573	-0.000215394377446468	-0.000313506191014791	-0.000344671526721955	-0.287733209405126	-0.95781406523306	
1787500000	0.172584059597042	-0.344080121618011	0.000317934340411408	0.00043463253010116	0.000317521643229637	-0.000652012330609671	-0.294872798233438	-0.95118678725458	
1796250000	0.168639417744604	-0.345908975227374	-0.000392858575918174	4.77139232903822E-05	-2.43102080210887E-05	-9.70074389878273E-05	-0.300181896581368	-0.944134946372476	
1805000000	0.161781237318521	-0.348850819472223	-0.000228815623187851	1.86023275286452E-05	0.000302989968346709	9.98427467284414E-05	-0.308682252708061	-0.936567810935262	
1813750000	0.163104231581429	-0.357730273535692	-0.000357977478565166	0.000405701837450809	-0.000526546921173283	-0.000130095874423095	-0.318355192180427	-0.930427967327024	
1822500000	0.165505722245752	-0.361722972892433	-0.000253993006308375	0.000394051424153494	0.000547711271118354	-0.000225799496630974	-0.331731172183484	-0.925201706379323	
1831250000	0.168975724998186	-0.363128121828264	0.000238482730441154	0.000328620071371952	-6.43152486997659E-06	0.000211255529463584	-0.342684441921377	-0.924339271911063	
1840000000	0.170581719243323	-0.363201462238811	-0.000176044009834472	3.41443208657908E-05	-0.000261948998186061	-0.000432332310247059	-0.352100019564171	-0.923771075105885	
1848750000	0.173711903050222	-0.360347002270764	0.000156087367375288	0.00018339909006893	0.000324408007764621	0.000119939896284189	-0.36106991869021	-0.924748601080347	
1857500000	0.172353669578304	-0.357739803347577	0.000270364684979729	-0.000463693362953754	0.00028679939676088	-0.000631672802892631	-0.370377647427726	-0.927256637961803	
1866250000	0.167006724628111	-0.356522765756901	0.000755331984462387	9.22380052381292E-05	0.000149949964417082	-0.000108925075500729	-0.380219380563629	-0.926687451695593	
1875000000	0.16260633128579	-0.356832523413679	0.000206915801495928	0.000353767800386121	-0.000127466701088746	0.000148223846290593	-0.381738268961309	-0.92410676771916	
1883750000	0.156779013142011	-0.357781273217092	2.97701751351518E-05	0.00011719494493823	-0.000105470748914105	0.000333477196776215	-0.383498333496383	-0.918317903139042	
1892500000	0.151618657701274	-0.362973204599508	0.000217018981872431	-0.000233765797745434	0.00011205291988155	0.000315003487821071	-0.391073170942323	-0.911297169656482	
1901250000	0.149782681525582	-0.368146627973292	0.000182978931433976	-0.000520316705494909	3.88864070963566E-05	-0.000638331505700043	-0.399017216182983	-0.902087663940742	
1910000000	0.147148267516132	-0.370598557030849	0.000154584807074523	0.000335128309298178	0.000350630902554536	-0.000290145275703693	-0.409596848170887	-0.893529631688844	
1918750000	0.148937520917325	-0.375888904240114	0.000530927373803941	5.29635793643557E-05	0.000361331290280322	1.33183318491278E-05	-0.418796767280004	-0.889725053724874	
1927500000	0.153524837030924	-0.378516301962977	-0.000266789928802899	0.000207103151772373	0.000499926164382403	0.000295850135873878	-0.43169375402538	-0.890779850466438	
1936250000	0.156816747040032	-0.375896827583534	0.000312818134300662	0.000552242005863917	0.000151250853904421	-0.000392977095993552	-0.445736062041276	-0.88477171669951	
1945000000	0.156644448345676	-0.374412259723053	-0.000429117921206204	0.000121302533678315	-0.000469491676400996	0.000427580962551711	-0.452388037481129	-0.889590878733154	
1953750000	0.155335816572301	-0.371285863555696	-0.000486820772186889	0.000224051183123587	-0.000194661273889137	0.000204700303463991	-0.457450204950198	-0.889852417858091	
1962500000	0.151009195529187	-0.368900804710197	3.84590185536242E-05	-0.000203580133258461	-0.000226128444566485	3.33860920693861E-05	-0.462245784557963	-0.887879590030968	
1971250000	0.144719060096309	-0.370589069183912	0.000201850723654762	-0.000570299097016742	-0.000414632965946253	4.78751954497055E-05	-0.468636694103704	-0.881791756822115	
1980000000	0.140902960068695	-0.371734631747753	-0.00015133559881883	0.000130430786811303	9.58959941981811E-05	7.28964193335318E-05	-0.473231741965987	-0.875473794945472	
