!Keysight Technologies N9917A: A.08.15
!Date: Friday, 06 October 2017 09:44:11
!Timezone: (GMT-08:00) Pacific Time (US & Canada)
!Model: N9917A
!Serial: MY53102735
!GPS Latitude: 
!GPS Longitude: 
!GPS TimeStamp: 0001-01-01 00:00:00Z
!GPS Seconds Since Last Read: 0
!CHECKSUM:0050204000
!Correction: S11(ON U)S21(ON U)S12(ON U)S22(ON U)
!S2P File: Measurements:S11,S21,S12,S22:
# Hz S DB R 50
1000000000	-9.79192626397624	89.1200104397738	-3.63326240538138	-149.209073675091	-3.66347793815689	-149.320620942826	-13.0399671634681	-59.3527064344516	
1013750000	-9.79949570004583	87.7696227945933	-3.61808922052903	-151.249775733662	-3.64268397624237	-151.324028023854	-13.037066964363	-62.3776268606836	
1027500000	-9.76572934044782	86.2044717564797	-3.61365961974797	-153.137225815848	-3.63366182226906	-153.129470275936	-13.1609967148466	-65.0589091848032	
1041250000	-9.77286310575042	84.6302168807889	-3.62676348180295	-155.241346664734	-3.64165555606388	-155.303023451446	-13.2802261532144	-67.7251388912452	
1055000000	-9.79214924799857	83.0531063657024	-3.63561161407846	-157.337361352485	-3.65235250051127	-157.437802717506	-13.3387828487432	-71.3332766580575	
1068750000	-9.88074596124785	81.7247641382739	-3.65706685789294	-159.581942345858	-3.66243658604619	-159.548456115899	-13.3611314134434	-75.8624053749439	
1082500000	-9.89990183882298	79.9814657867112	-3.6355656597793	-161.632812445989	-3.65955741266659	-161.726967616684	-13.2950013208759	-79.3190479671373	
1096250000	-9.9106504046309	78.5846549924008	-3.62890990951542	-163.699095081222	-3.6429378443815	-163.844544032117	-13.2939874382035	-82.8160537085853	
1110000000	-9.93870987833547	77.4440537176355	-3.62780247995182	-165.625395388189	-3.62526848478968	-165.557182835491	-13.3742190437048	-85.562450330235	
1123750000	-9.91389602969969	75.968758390186	-3.62492346941343	-167.621040316718	-3.62729678179483	-167.602773735304	-13.5435221393515	-88.0597811797073	
1137500000	-9.91570605274145	74.4698400586767	-3.6169081810579	-169.604768226046	-3.6306341746689	-169.654835294718	-13.6896913729899	-91.0131769028672	
1151250000	-9.94849741683485	73.1356729684514	-3.64046164167079	-171.66512258897	-3.64119064589213	-171.627667829083	-13.7161759626862	-95.5182062495074	
1165000000	-10.0261682346445	71.3929212809094	-3.65332946085035	-173.899174934336	-3.66014895291788	-173.988771167524	-13.6434511109457	-99.4165553502706	
1178750000	-10.0656896315572	70.1058048599281	-3.63930149156944	-175.978473180135	-3.65669669144028	-176.022277058142	-13.6852365471557	-103.03827748927	
1192500000	-10.0666213664141	68.4130904067532	-3.6231794002225	-177.963318898822	-3.63984713683398	-177.964824721166	-13.5957856914585	-105.978546901623	
1206250000	-10.0965670791532	66.9458341772932	-3.62251876867691	-179.879798492276	-3.63146896514482	-179.943495022427	-13.7753535826428	-108.219253187762	
1220000000	-10.0777846846967	65.4591769389572	-3.60974875151019	178.064915642367	-3.62693519958559	178.090728438575	-13.8989416477022	-111.54134050463	
1233750000	-10.0774090268541	64.0670873404207	-3.61165136330405	176.046430113864	-3.628405069654	175.967212383864	-13.9835904795838	-114.423651694802	
1247500000	-10.128397457486	62.6995791599435	-3.62153588092714	173.931323414373	-3.63783855059163	173.990195165389	-13.9695976695706	-118.674492987823	
1261250000	-10.1821009529832	61.1824828489249	-3.64063393667984	171.775136884826	-3.65103022798763	171.797277379788	-13.9201183991885	-122.775419520985	
1275000000	-10.308799086672	59.9202674271923	-3.6514674638441	169.642220817903	-3.64191671800004	169.632304861866	-13.9003669090217	-126.032985817881	
1288750000	-10.3040803126154	58.031000303259	-3.61356278567385	167.717886291796	-3.6210911426765	167.640567198805	-13.927282761793	-128.894482741228	
1302500000	-10.2398980772361	56.5172762468929	-3.60103428335776	165.789727467648	-3.61582547015032	165.804004394664	-14.1030729139226	-131.351838268157	
1316250000	-10.23121943842	54.8154363079245	-3.59157565415834	163.725608985485	-3.60934812363345	163.805108030492	-14.2148802916391	-134.029456751656	
1330000000	-10.2820454845727	53.5445298841574	-3.61690324195147	161.762786989855	-3.62083697279214	161.663880508076	-14.3232380525047	-138.064687194217	
1343750000	-10.3063334266411	52.0850528686297	-3.62435154242533	159.556545481942	-3.64351988653075	159.533028308691	-14.2980206282946	-141.686538115971	
1357500000	-10.4483869908609	50.719814725842	-3.63661507442539	157.413609764894	-3.64110025896501	157.409175072118	-14.1344177947013	-145.697903155036	
1371250000	-10.4988610536989	49.0481489062469	-3.62257648499073	155.354836330506	-3.63647090246335	155.438510914821	-14.1360282779222	-148.496449793431	
1385000000	-10.5361931170842	47.4929955296397	-3.59125054457148	153.479396667097	-3.60726724611512	153.480687684176	-14.2224509858565	-150.353577504302	
1398750000	-10.4836107136352	45.6380120777581	-3.58293831003803	151.402716998256	-3.59015398259156	151.414938459744	-14.3967287655035	-153.285281036721	
1412500000	-10.4606922764181	44.0890379726554	-3.59787034124434	149.353676832722	-3.59461719756296	149.332178217772	-14.5975955763215	-156.670125478991	
1426250000	-10.5359938635729	42.7282375822081	-3.5997223029253	147.271045367599	-3.60470875405702	147.245949815934	-14.5871124659415	-160.971903284643	
1440000000	-10.6175786446798	41.4286894833323	-3.61003480181401	145.104349257697	-3.63198559013973	145.190765500528	-14.4575213609714	-164.691522938153	
1453750000	-10.7314385521978	39.9507496326272	-3.62223314069299	143.09953586167	-3.62799385827407	143.128787153516	-14.317298777764	-167.677421188887	
1467500000	-10.8229003129394	38.0090822629408	-3.61200910414025	140.89710382567	-3.62390266957417	140.836962325643	-14.3057929157276	-170.713143361268	
1481250000	-10.8095227877309	36.4180175420496	-3.58111034292015	139.026070658985	-3.58360016220612	138.971435310242	-14.4371643974469	-172.38197811608	
1495000000	-10.7496337022926	34.5919527201696	-3.58078543284295	137.02810494763	-3.57691642617194	136.880685848426	-14.6647334545933	-175.176455242338	
1508750000	-10.782652057807	33.4874512994637	-3.5744201861726	135.071565468487	-3.5815803192123	135.188099405204	-14.8034185659247	-179.092894958501	
1522500000	-10.8091093607596	31.9433815031759	-3.56098565499663	132.920479262368	-3.58259632352658	133.034040284474	-14.7934166388199	177.297902888633	
1536250000	-10.9958809759045	30.5154340202696	-3.59745182910131	130.773363989304	-3.61106533137466	130.731841819378	-14.6433621292943	173.023458618043	
1550000000	-11.0758512891077	28.8058270529608	-3.59783146940884	128.469971025352	-3.61009621880992	128.437541789405	-14.4948157178525	170.683264522468	
1563750000	-11.1377846279342	27.0773857980145	-3.5849860620272	126.548357027156	-3.59380009774797	126.457362998304	-14.5388866502102	168.290822235725	
1577500000	-11.0910591199581	25.0577871834555	-3.55822656909899	124.4853272371	-3.56213962509614	124.569404935783	-14.6773902911479	166.642900637015	
1591250000	-11.0378952362277	23.7211651683788	-3.54173962030693	122.575950183155	-3.5512404032952	122.728857460177	-14.9879480559244	163.557814176794	
1605000000	-11.1123525571171	22.1687068304698	-3.54002857549767	120.513321392951	-3.55247045223466	120.462175654352	-15.1009148328172	159.58435122647	
1618750000	-11.174348695658	21.0575837726843	-3.56058940334449	118.563046000403	-3.56279615031366	118.404899257568	-14.9846460909466	155.487279336277	
1632500000	-11.3131535021848	19.6101867177508	-3.56617201391438	116.245323622352	-3.57588101956334	116.215454407471	-14.8116632904734	151.989162117401	
1646250000	-11.4232501612765	17.9035584630893	-3.57871079040645	114.133746990504	-3.58819106862784	114.027890913186	-14.7491944770094	149.029103113501	
1660000000	-11.4765145414835	15.7505468990805	-3.55986151630876	111.953447839614	-3.57642350749629	111.931011156194	-14.7276506867768	146.824390037411	
1673750000	-11.4686884973453	14.0932895632837	-3.52114882718088	109.980877889502	-3.53999821584727	109.990935494502	-14.9718431072887	145.164722676765	
1687500000	-11.4555375539203	12.6657059456476	-3.5112931278634	108.12710885894	-3.5375851107063	108.26199016458	-15.296766683239	141.942361268654	
1701250000	-11.4698509690376	11.3625897635478	-3.52219832721459	106.067082575016	-3.52995396224815	106.095131239692	-15.2669291817719	138.102355950929	
1715000000	-11.600737421658	10.0965487829557	-3.54277326928622	103.958188570929	-3.55325880387956	103.933106010505	-15.1710315281079	134.364412847598	
1728750000	-11.7141496418258	8.49304102487177	-3.54119268627307	101.783461615672	-3.5529897915588	101.66037546195	-15.0107619035379	130.851823781031	
1742500000	-11.8223794740088	6.77292673556612	-3.54182228431747	99.5944369443998	-3.56884747854207	99.610933686616	-14.9856306697024	128.574646087905	
1756250000	-11.8819679627554	4.57913401528774	-3.52239290387872	97.548901344099	-3.53363122240074	97.3789891730006	-15.0609250773845	126.796019137768	
1770000000	-11.8280737102656	2.82920591275789	-3.50259519019977	95.4309553068212	-3.51384337785658	95.4141088841117	-15.2911620985526	124.276535160468	
1783750000	-11.8160264939936	1.46261247843515	-3.51096561772418	93.5604343358044	-3.50868927768853	93.6596854670637	-15.4751858962737	121.09009906883	
1797500000	-11.8740120999425	-0.336864462034417	-3.49297601601226	91.3924855578107	-3.50290266191111	91.4369929956771	-15.4137662065698	117.086907168543	
1811250000	-12.0127801213217	-1.09746029038591	-3.51307507032664	89.389163039901	-3.5152113790067	89.3788684112792	-15.2905778955635	113.745564708494	
1825000000	-12.2035635999989	-2.84787491824112	-3.52029825132314	87.2066820101269	-3.52361429152273	87.0959381088076	-15.2066091050524	110.85500940412	
1838750000	-12.2908922125871	-4.87543637346634	-3.51914323236186	85.0628382208743	-3.52907188717488	84.9832183791147	-15.1921235438705	108.38317285565	
1852500000	-12.2512793478522	-6.83106403841353	-3.5096050672595	83.0256726190026	-3.49707724635474	82.8756468593239	-15.3639051906027	106.689863358537	
1866250000	-12.2376467828942	-8.44524683269886	-3.4732046122349	80.9658522989588	-3.48739221440199	80.9031236444458	-15.5571626657997	104.007368692003	
1880000000	-12.2757266914264	-10.1726377733328	-3.47358653210299	79.0129470492346	-3.47110311758791	78.7453083989575	-15.6150857224518	100.263855177471	
1893750000	-12.3149071722087	-11.1744084737009	-3.47064456069128	76.8885651549174	-3.47840723994553	76.9422078180959	-15.6320252981887	96.8001277937313	
1907500000	-12.4662423578936	-12.3369737459409	-3.49124303711063	74.7072051694812	-3.49683370494813	74.8690660653289	-15.4676677456089	93.2906810029884	
1921250000	-12.5940249877676	-13.8922088632375	-3.49332986556583	72.6448536778253	-3.50274737558825	72.5096557688133	-15.4796630751776	90.7281217080967	
1935000000	-12.7750769030089	-16.3730527048531	-3.49836223286304	70.508117968171	-3.50121310974603	70.490050171204	-15.5223328799251	88.9102193844342	
1948750000	-12.7025370047395	-18.5181042110018	-3.4712998324953	68.3338893679246	-3.46637237404161	68.2791538213866	-15.6068247561071	86.488075878234	
1962500000	-12.6887529776639	-20.2366373818274	-3.45211332522792	66.3304057429786	-3.457336555854	66.2079715299888	-15.7865792505255	83.1356883889126	
1976250000	-12.6889854753456	-20.8474848231533	-3.44101119113059	64.3736425992805	-3.45063669826378	64.3460001875749	-15.819138003342	79.8953039621486	
1990000000	-12.8152329439184	-22.2025790984951	-3.45681575343712	62.3287948794274	-3.4700501591854	62.1919189794244	-15.7883717131041	76.3830332150894	
2003750000	-13.036622998715	-23.7369878945402	-3.48401807270471	60.1092274007024	-3.47649855706646	59.8899194139272	-15.6913686279912	73.4887968219952	
2017500000	-13.1470375048311	-25.7629870577504	-3.47838699210005	57.8255288216594	-3.48458779498006	57.8246525444382	-15.6066195279059	71.2872617000402	
2031250000	-13.1520277782473	-27.7403686502047	-3.47297885313648	55.6856082577743	-3.48253251414094	55.8623818758942	-15.7066049852546	68.821879799195	
2045000000	-13.1943261750205	-29.659168299026	-3.44859998360287	53.6317652375072	-3.44667283531417	53.7178649287431	-15.8988846490329	66.1024820351725	
2058750000	-13.1738474327062	-31.371179644571	-3.42796188982138	51.7548422179347	-3.44243910311671	51.7500867286814	-15.9668640153487	63.4043426257084	
2072500000	-13.1779818942766	-31.9736422502125	-3.42881856459884	49.7151690890857	-3.42955496894349	49.8330947599123	-15.8974912002655	60.0937223757472	
2086250000	-13.3213232334015	-33.4574767985647	-3.43297130505559	47.5351201519771	-3.4341715637415	47.5581998427332	-15.7712299462982	57.7089075062036	
2100000000	-13.4565746578245	-34.7934563176481	-3.43761995514635	45.4184492013173	-3.46318821118412	45.390204404678	-15.8095336691948	54.5525886275094	
2113750000	-13.6428658245486	-37.1825577261924	-3.45815675956029	43.1525504158465	-3.47467255990954	43.2610781869174	-15.7940938207264	52.2926456648518	
2127500000	-13.6874278856962	-39.1594231735792	-3.44038818586018	41.1115875530108	-3.44945021724844	41.0273695804116	-15.9957310943037	50.0116716292957	
2141250000	-13.6143263010954	-41.4226095709741	-3.42909845147446	38.9922839464729	-3.42942891885554	38.9565145228712	-16.0930184554169	47.3676714116489	
2155000000	-13.5737607254162	-42.6425543665624	-3.41272333908874	36.9264378189776	-3.41260105410784	36.6849438676466	-15.9584707589798	43.5346993975328	
2168750000	-13.642561380192	-43.4577788850983	-3.40264664916288	34.776360787373	-3.40546024617943	34.9368806344414	-15.9753118676608	40.9086751590011	
2182500000	-13.8237242477214	-44.7749138820072	-3.42295063985392	32.7324911949918	-3.42292051695548	32.9275622833648	-15.9622983864067	38.1805702012205	
2196250000	-13.9907170832117	-46.3485073495382	-3.43322111104366	30.5776736501796	-3.45006615313295	30.6794125606533	-16.0049544988175	35.873968053612	
2210000000	-14.0881903316099	-48.3056185128046	-3.43328918556551	28.5189948342299	-3.44466282062456	28.4027171217887	-16.0358802379871	33.1573804335373	
2223750000	-14.1138259893051	-50.6641608449481	-3.42128873995447	26.389481254695	-3.42384416787951	26.406062512193	-16.2119836734659	30.6478899162108	
2237500000	-14.055936902644	-52.1405608246849	-3.39293352026591	24.2261652119581	-3.41549335145938	24.3139180460557	-16.2071574163602	27.6762867910145	
2251250000	-14.0877552682956	-53.1927604586737	-3.39268709817354	22.1453866597884	-3.39522276123192	22.1364592265558	-16.2078385286737	25.215979618585	
2265000000	-14.1722957920902	-54.010701814155	-3.39449339576639	20.150627547427	-3.39904478665136	20.1103612361844	-16.0710854289557	22.2896764678389	
2278750000	-14.390367506025	-55.3819134825091	-3.42561350147153	18.0944726418199	-3.42197689978979	18.1574699877609	-16.2429314480456	19.6728548104002	
2292500000	-14.4609290565248	-57.3849450445714	-3.43708174409703	15.8697512609998	-3.4385944930357	15.8463655501555	-16.1086256086608	17.1513699179986	
2306250000	-14.5110558188953	-60.0009361109993	-3.42970180565369	13.622469895664	-3.43154130038815	13.5642793339844	-16.2736257151674	14.8181726655637	
2320000000	-14.5118104689026	-61.9632831771341	-3.4072210010805	11.464117800681	-3.42707582248619	11.4541890240036	-16.3669734408667	11.5438893655016	
2333750000	-14.4795905382611	-63.3609519166208	-3.40422889168786	9.37997748671095	-3.40810548662987	9.24880497071332	-16.4468698311004	8.46496038240466	
2347500000	-14.501038693717	-63.9899660708784	-3.38430947814874	7.399838907862	-3.39310393570638	7.40106428291049	-16.403199611619	6.46433692360502	
2361250000	-14.5993592581938	-64.7934771214699	-3.38160312226255	5.26395716176435	-3.39691529412729	5.38942649198549	-16.2568887641847	3.54146547433832	
2375000000	-14.7208339123364	-66.1374579742243	-3.41049454823099	3.18138353838626	-3.41017447860782	3.21289444406697	-16.36226768321	1.93250065776716	
2388750000	-14.9130398799087	-68.2896295542882	-3.4159325987586	1.09089402045192	-3.41825517612839	1.01454009678982	-16.5374483704923	-0.400051981198099	
2402500000	-14.9419680239549	-70.79210146671	-3.41205486665104	-1.04403016154664	-3.42503230119045	-1.03859391121948	-16.6353195296161	-3.51942532862679	
2416250000	-14.9037254291188	-72.1708438601504	-3.40131690211481	-3.2778824247345	-3.40490978334179	-3.21662749225929	-16.6787260485739	-6.39721169491677	
2430000000	-14.8893874204378	-73.4930954883714	-3.37556403845812	-5.34308102528388	-3.36588010354364	-5.08483298202032	-16.6463011318672	-8.68302217319036	
2443750000	-14.8788747261612	-74.3239645996376	-3.37595706835617	-7.3432801302754	-3.37464197388386	-7.53345716958828	-16.6411272223633	-11.3348090134526	
2457500000	-15.0253360640722	-75.1862773286844	-3.36626050065504	-9.47730266537206	-3.38372291622807	-9.49802415952879	-16.5840038337947	-12.9686825307666	
2471250000	-15.2253434579553	-76.9485852172177	-3.395220866206	-11.549728406866	-3.39957477664633	-11.4699531296682	-16.7503779792526	-15.8278217995043	
2485000000	-15.2429720194135	-79.086841332534	-3.40598019364583	-13.7926248547985	-3.41595861628301	-13.86286749229	-16.7715533453776	-18.814060703138	
2498750000	-15.2599547145169	-81.6123718339924	-3.40936745216708	-15.9999117368203	-3.40143751156417	-16.0386495353502	-16.8490960996203	-21.4406036115418	
2512500000	-15.3210159785761	-83.0686935627238	-3.40504870066364	-18.1725861267341	-3.38408114053139	-18.2707269283596	-16.8797413932265	-24.1989302465364	
2526250000	-15.2379258458686	-84.0296407095537	-3.35717509002977	-20.2566182883493	-3.39185182362847	-20.372373622993	-16.8699443967887	-26.8063544788208	
2540000000	-15.2734224533295	-84.8157821851376	-3.36802494969562	-22.3534810976951	-3.38667004806841	-22.4245712799144	-16.7493421746908	-28.0079806991362	
2553750000	-15.380648836603	-85.5917145807585	-3.3757248725165	-24.4627678330455	-3.37447688711249	-24.3024565877392	-16.8619132147744	-30.0697948913516	
2567500000	-15.5308839251246	-87.1713229963503	-3.39008837392789	-26.5689831239695	-3.40706796586246	-26.4090518465248	-16.9800888263349	-32.4992324051113	
2581250000	-15.5702706798888	-89.4993006738827	-3.40802215279172	-28.7260873636021	-3.42326208474578	-28.5819551901032	-17.2489288235669	-36.3491357676142	
2595000000	-15.6660719696264	-91.5556745018405	-3.40856461813004	-30.82178444645	-3.3978543254994	-30.8651874442718	-17.1983701441108	-39.5235539396623	
2608750000	-15.5142325761006	-93.0525797494484	-3.38168888758807	-32.9377949472245	-3.39137663732865	-32.8424010015678	-17.1641693175734	-41.6310546942682	
2622500000	-15.4774651665551	-93.2962755085457	-3.35470018035287	-35.0155342808444	-3.39534104963766	-35.0517893098094	-17.0229972128604	-42.4672164241428	
2636250000	-15.58138437516	-94.0431525625333	-3.36285337787325	-37.0997260724975	-3.37040179279835	-37.033693466515	-17.0923542066954	-44.1007430210591	
2650000000	-15.683197072271	-95.1163116038175	-3.35662610564583	-39.2028693011937	-3.38357569455821	-39.0683223286056	-17.2204423276161	-45.5690736032352	
2663750000	-15.9652228256898	-97.1605948212663	-3.40115495526637	-41.432507503885	-3.40007054499963	-41.5389962524453	-17.4400188946248	-50.0677185267757	
2677500000	-15.9165110786174	-99.0270339344151	-3.42351961326977	-43.5098629614167	-3.40319816804508	-43.6430671855557	-17.7030379340037	-53.114322286227	
2691250000	-15.813943019437	-100.886689953146	-3.36937800799674	-45.6788531984885	-3.38604611512593	-45.6527382234067	-17.6465263110562	-55.5645940940817	
2705000000	-15.7782343575875	-101.871754093651	-3.35807906334598	-47.8241296684776	-3.37042643170239	-47.8948278384392	-17.4145430438191	-57.6580759754518	
2718750000	-15.8098227201814	-102.782457924123	-3.36450357864469	-50.0734096223449	-3.38320302828643	-49.9891138020591	-17.3840966674388	-60.0060774735691	
2732500000	-15.875869043601	-103.995546156494	-3.37217701718675	-52.1198190082754	-3.36559572819753	-52.1631111339647	-17.306004910613	-61.5197350832068	
2746250000	-16.0326085959987	-105.05528512172	-3.38204171457047	-54.1385853807972	-3.38842245503767	-54.0867836582333	-17.534560074224	-62.7125053352073	
