!Keysight Technologies N9917A: A.08.15
!Date: Friday, 06 October 2017 09:47:03
!Timezone: (GMT-08:00) Pacific Time (US & Canada)
!Model: N9917A
!Serial: MY53102735
!GPS Latitude: 
!GPS Longitude: 
!GPS TimeStamp: 0001-01-01 00:00:00Z
!GPS Seconds Since Last Read: 0
!CHECKSUM:1242784561
!Correction: S11(ON U)S21(ON U)S12(ON U)S22(ON U)
!S2P File: Measurements:S11,S21,S12,S22:
# Hz S DB R 50
1000000000	-9.85773349649118	88.5705222995825	-3.68231770118621	-149.036005713558	-3.70156212597677	-149.151705561336	-12.8038993786794	-58.3391944307371	
1013750000	-9.87135615403435	87.0915339959127	-3.66351939201399	-151.079600236422	-3.6918482743045	-151.181020527394	-12.7221882431882	-61.347155342568	
1027500000	-9.8271613988446	85.18771007516	-3.666286922587	-152.984431310213	-3.67778162726737	-152.9818972971	-12.8049678072328	-63.5286261948411	
1041250000	-9.81492220625468	83.8750130468585	-3.68225149542331	-155.144726514008	-3.69015564569188	-155.092030228635	-12.9593120262496	-66.2264175779631	
1055000000	-9.81922036398371	82.2130322219534	-3.69530558232591	-157.15350986802	-3.70429272531159	-157.280166888333	-13.0009559303487	-69.6846957626678	
1068750000	-9.9272758925507	80.9323141725963	-3.70519690238287	-159.347064148594	-3.7096082754227	-159.325245276652	-13.0273715371274	-74.351813883063	
1082500000	-9.98170307584325	79.5846493259365	-3.70152719030255	-161.427449398413	-3.70663450419564	-161.464836270233	-12.9660034341489	-78.0190160017329	
1096250000	-10.0137801860567	78.1330673611388	-3.69579372560617	-163.509464436395	-3.69730280078043	-163.607064766861	-12.8867667802439	-81.471629529188	
1110000000	-10.0221255789438	76.6588138885442	-3.67786006584548	-165.305754292561	-3.67271550855906	-165.309475042984	-13.0163191718767	-84.0018029184153	
1123750000	-9.98460916868511	75.1335370651422	-3.672721408812	-167.298356320695	-3.66782382746273	-167.298888208769	-13.1611291903984	-86.3038118124247	
1137500000	-9.94698874378663	73.5705833834709	-3.6790360025646	-169.336026335464	-3.67854728030442	-169.393526074589	-13.2954007844079	-89.2414344156433	
1151250000	-9.99706691538774	72.3769535887407	-3.69472391447462	-171.445629528069	-3.70055736984285	-171.328790000822	-13.392177972605	-93.577246625787	
1165000000	-10.084146869272	70.8623506739947	-3.70302812538968	-173.579670647463	-3.71771547788605	-173.683807903221	-13.3212936595921	-97.6232680496332	
1178750000	-10.1285846853566	69.4107082816148	-3.70383551098629	-175.595485882356	-3.71183213433732	-175.692052257835	-13.3430099631286	-101.399966980237	
1192500000	-10.1732417110926	67.7863506572918	-3.69175464664119	-177.693770517411	-3.68747281690801	-177.684255551004	-13.214709760955	-104.328598162393	
1206250000	-10.1962699589827	65.9238592210729	-3.66409439938405	-179.609410624484	-3.67820735902217	-179.564135187742	-13.3791821654001	-106.148790173953	
1220000000	-10.1407141830358	64.5782013021246	-3.66003079079611	178.378280992698	-3.6793218697604	178.391275986333	-13.5204877832465	-109.253486263931	
1233750000	-10.1538146897145	63.2182469845071	-3.67284019345183	176.390967626346	-3.68840287984766	176.350255889501	-13.6012838730383	-111.90581512196	
1247500000	-10.2051863692524	61.8769153767932	-3.67768886721969	174.303617365098	-3.69115121569312	174.387678089867	-13.6369186022513	-116.290329148804	
1261250000	-10.2689127800296	60.5598136609578	-3.70441095181492	172.132069327634	-3.69944808936734	172.188973688744	-13.6113650912936	-120.56458350877	
1275000000	-10.4223381069374	59.2332353232359	-3.69498979429675	170.09152426537	-3.70483504717155	170.017571229214	-13.5288236439828	-123.644022610025	
1288750000	-10.4277714213016	57.2885784336042	-3.67102422761158	168.093673722854	-3.67577202779148	168.033559662684	-13.5692714905625	-126.521760357495	
1302500000	-10.3811074513157	55.2530199274513	-3.64911041188497	166.178984493366	-3.66109081920665	166.282745090143	-13.7001929185926	-128.584101074358	
1316250000	-10.3289434982545	53.570947722238	-3.65419458866435	164.127280088778	-3.66970131128484	164.226784595316	-13.8552110580852	-130.811943771964	
1330000000	-10.3548409061927	52.5334213612955	-3.66757382277856	162.178281505465	-3.68632313552269	162.104569819136	-13.9788606959563	-134.847424018119	
1343750000	-10.4278850604028	51.1995569320174	-3.66579930477359	160.02325378065	-3.68293777766273	160.007507019872	-13.9888530553777	-138.6907733702	
1357500000	-10.5908839273504	50.1228561601632	-3.6848516903159	157.847986375799	-3.6930267186798	157.843505538893	-13.8158322775439	-142.851370939783	
1371250000	-10.6690578631476	48.1547809356985	-3.68285715413923	155.772181498241	-3.68147800984146	155.841262798947	-13.7820271029952	-145.422902260244	
1385000000	-10.7005229228282	46.2396053399071	-3.6332590731123	153.896076917838	-3.66080275984288	153.939968817088	-13.8248707451926	-147.232758969455	
1398750000	-10.6363057791562	44.3969643868263	-3.62921709193527	151.915529916706	-3.64293974852721	151.868601988826	-14.03782929997	-149.762502388307	
1412500000	-10.6025910209049	43.098599509342	-3.6456394730574	149.928488874485	-3.65021946361618	149.860750346456	-14.218454649687	-152.742205171938	
1426250000	-10.642482849029	41.7416042106969	-3.6447180355165	147.781682764752	-3.66754551116674	147.821167923894	-14.2871281021961	-157.367973494656	
1440000000	-10.7624488647108	40.5542674230377	-3.66275111056628	145.564644118848	-3.66358751030232	145.726133725012	-14.1778829322371	-161.258496177106	
1453750000	-10.9164522076972	39.0892502723888	-3.65864884122097	143.493320798533	-3.67183099265366	143.729147059172	-13.9791098278381	-164.232388184036	
1467500000	-11.0083044808402	37.0777757355451	-3.65792228703226	141.440315185754	-3.65724927495066	141.363444878315	-13.9672584008647	-166.692965420258	
1481250000	-11.0005347696088	35.2177972852757	-3.6314683284647	139.569777714475	-3.63299890646349	139.501764919477	-14.1590655121606	-168.333812532587	
1495000000	-10.9434649694327	33.4108578774797	-3.62271117748366	137.584032091544	-3.6312723903239	137.405607883368	-14.3970920625429	-171.36585998051	
1508750000	-10.9531868502764	32.314816973357	-3.63995324163432	135.598200629604	-3.64069340770765	135.737159288661	-14.6017058091942	-174.893436995583	
1522500000	-10.9712960843184	30.8625109025275	-3.62443134583118	133.477899266918	-3.63126263360097	133.611902891301	-14.5293244705793	-178.883533367229	
1536250000	-11.1651418945773	29.7148551488539	-3.65354723615942	131.31095796443	-3.65762776627032	131.327987164356	-14.4222672058529	176.743333454111	
1550000000	-11.2663982218491	27.8680246381811	-3.63272675338241	129.111909031713	-3.65446130228466	129.048007948081	-14.2566830490037	174.588287555385	
1563750000	-11.341981880625	26.0510400939055	-3.62796570825861	127.148931894628	-3.64049658629546	127.075468990501	-14.3419871097615	172.423276461213	
1577500000	-11.319966426236	23.9528337141747	-3.59683160871252	125.166674474983	-3.60718033492099	125.12696101358	-14.4923761509119	171.043662187896	
1591250000	-11.2378965040203	22.5271830371523	-3.58268410789081	123.191253389729	-3.59322332026052	123.428995049921	-14.7906393898254	168.177333572554	
1605000000	-11.3262489648098	20.8735198842342	-3.58963594174435	121.130579081957	-3.59326088482403	121.131247615503	-14.9379353215252	164.050854915629	
1618750000	-11.4041688311509	19.9714716726513	-3.60579460884346	119.151276139955	-3.60572801608116	119.108695268635	-14.83498937675	159.951480281465	
1632500000	-11.5308168975846	18.6988149965384	-3.62154432458337	116.853921950718	-3.62007315973273	116.868768814457	-14.6661232363418	156.318725940641	
1646250000	-11.6950558809034	16.7655004735763	-3.62144845382371	114.79780532158	-3.6219223769713	114.672023700817	-14.580511286039	153.499306139278	
1660000000	-11.7463395327906	14.6740559310206	-3.60665063916408	112.656991373724	-3.60257787172122	112.405566381861	-14.582984082646	152.003543982134	
1673750000	-11.6923029631362	12.7077652982194	-3.56236921279291	110.659225084834	-3.58455841790253	110.775260382395	-14.8345517956672	150.406946135949	
1687500000	-11.694898603437	11.0462885874125	-3.55054204325737	108.834459040435	-3.56479469153732	109.028567921169	-15.1966558528166	147.041559272974	
1701250000	-11.7182571160264	10.1585328605022	-3.55028897093737	106.747483416241	-3.56670953251985	106.885866035206	-15.1940494116203	142.907594003894	
1715000000	-11.8308865391455	8.87750744878	-3.57702050179451	104.638349493209	-3.58088567772963	104.672403127218	-15.1474005341416	139.245480192028	
1728750000	-12.0024158011421	7.57429674652021	-3.5766593627636	102.397237608428	-3.58847561227473	102.327909777311	-14.9659354004653	136.026799474491	
1742500000	-12.1438629378324	5.61054608958553	-3.58891055576885	100.317837251303	-3.59359009936213	100.3293674618	-14.9241454646107	133.592139504412	
1756250000	-12.1912032222	3.328191638578	-3.56602578023358	98.2217014121098	-3.56554996103762	98.2238548643865	-15.1294340701278	132.008526041189	
1770000000	-12.1061805866303	1.57462912362936	-3.54022507863283	96.2055459791711	-3.54655924503318	96.2110120202271	-15.3449015473667	130.016509263163	
1783750000	-12.1054450533261	0.110861532889368	-3.54161530227965	94.3145073365145	-3.53941714039785	94.5201670911338	-15.5911955967576	126.424199497366	
1797500000	-12.1534505831793	-1.43755487669805	-3.5304548748974	92.2112097227305	-3.52804859055101	92.2462978339632	-15.5768540846899	122.432647705137	
1811250000	-12.3005473095975	-1.92264485472687	-3.53461347532479	90.1654204873728	-3.53966959595984	90.119714310516	-15.4169002566741	118.812517822213	
1825000000	-12.5503528182128	-3.82548697499388	-3.54552397773244	87.8685412855681	-3.56341773244973	87.8786201289748	-15.3293318407128	116.082651251676	
1838750000	-12.6495745439568	-5.95580196494335	-3.55511817350131	85.7613990160974	-3.56168948507689	85.7292455179866	-15.3383252800188	113.848918054562	
1852500000	-12.6164118862929	-8.18268565503758	-3.52410053002635	83.7075439287021	-3.52279570126065	83.633600818057	-15.5561092682743	112.022397775665	
1866250000	-12.5640644235083	-9.7826787351512	-3.501215936836	81.7476285607067	-3.50478533148076	81.7276491881222	-15.7350497815139	109.948045053009	
1880000000	-12.5570054551474	-11.3212807879931	-3.48403672452319	79.7015797405855	-3.5098778194241	79.5459764248929	-15.8659525004626	105.952723982324	
1893750000	-12.6473612835994	-12.160667176107	-3.49518469265503	77.5800129683549	-3.49148067344612	77.7259104918923	-15.9174934123176	102.241628391354	
1907500000	-12.8522939492795	-13.0495662883331	-3.51783785538931	75.5001917334849	-3.51481873695622	75.6225870004004	-15.7941534460272	98.4426937276857	
1921250000	-13.0266665286311	-14.5713725278642	-3.51549648524403	73.4493365155091	-3.52280389199335	73.2462129400128	-15.7289928706628	96.1838887845048	
1935000000	-13.1571204356323	-17.5724672891487	-3.51871254745436	71.2855838586966	-3.52060418741037	71.2722613623057	-15.8606478198467	94.6071790068694	
1948750000	-13.1208848305859	-19.7231966267511	-3.49092297060795	69.1237654413874	-3.49065590451246	69.0703230023201	-15.9777093403525	92.0785167562573	
1962500000	-13.076948537109	-21.4134492293365	-3.48804013925071	67.1447208600979	-3.47889010288297	67.0625232395134	-16.1971051399127	88.9713613193268	
1976250000	-13.0230265078756	-22.0104657529356	-3.45961365716077	65.1400472581345	-3.46915724269807	65.1564250284831	-16.2599147922454	85.5564507515522	
1990000000	-13.2113681763762	-22.8706403897597	-3.47736128656731	63.1023214058876	-3.48041722393556	62.9661788791921	-16.250873562802	81.6443597279698	
2003750000	-13.4225348192244	-24.2149649437303	-3.47857144688787	60.8884374570831	-3.49447219091824	60.8043928272271	-16.0799998641932	79.1665341308018	
2017500000	-13.5672414297559	-26.2336632901712	-3.50166485466749	58.6173787399502	-3.50969335251332	58.6899285945807	-16.0387888025093	77.4000723901002	
2031250000	-13.6073263198665	-28.8714562014241	-3.48229472026373	56.5355037461594	-3.49016503527268	56.6901140368841	-16.2139113335932	74.9215429935274	
2045000000	-13.6007018309412	-30.6897924838826	-3.46162531987697	54.4380194959311	-3.46369095279159	54.5441887572409	-16.5331151852589	71.727423781108	
2058750000	-13.5183152331894	-32.1746707902993	-3.43426132253282	52.5645385383659	-3.44876214119215	52.5843753877097	-16.5875969722552	68.7786762833654	
2072500000	-13.571369786753	-32.3998805978169	-3.44586808089326	50.6107558000984	-3.44855034458369	50.6983406625024	-16.5763308839142	65.307620236063	
2086250000	-13.7241588145594	-33.7411480511867	-3.44204278862081	48.4046318585919	-3.45414588365205	48.4553979848035	-16.3806007717097	62.9649467147948	
2100000000	-13.8782011398049	-35.26802802396	-3.4619241693243	46.2219683817848	-3.46310957222562	46.2388912762615	-16.4091824051509	60.1667691552276	
2113750000	-14.0717548721978	-37.7480018317468	-3.46789550330088	44.0453191914869	-3.4794289788162	44.0995115515237	-16.4484931004361	57.4943807852565	
2127500000	-14.0344529131811	-39.836512867345	-3.45479030007574	41.9863024242082	-3.4661812806371	41.8959886854024	-16.7375585285111	55.4373900612286	
2141250000	-14.0140806272365	-41.8715450094812	-3.43230984960697	39.8710653115383	-3.44014444652587	39.795899250805	-16.8339548893169	52.1594690198766	
2155000000	-13.9361232136871	-43.1969465630056	-3.41593924992938	37.8024808298837	-3.43389446392136	37.5763704755232	-16.7538912131687	47.9356724726593	
2168750000	-14.0454486919748	-43.52780531461	-3.41865606484726	35.7019051893116	-3.42239844074998	35.8451133879941	-16.7248293268238	46.0583138749519	
2182500000	-14.1837339254963	-44.7157398025962	-3.44042738201071	33.632860370467	-3.42577721354407	33.8905407206304	-16.7423856174568	42.9758856985239	
2196250000	-14.3487284559134	-46.2964491671942	-3.43619023059047	31.4570559045551	-3.44979907305624	31.601697710964	-16.8816688374061	40.8920457380297	
2210000000	-14.4587427727584	-48.2579483805798	-3.43772995485914	29.4334113891829	-3.45724618655119	29.3473199832192	-16.9399747328547	38.6036190068879	
2223750000	-14.4624223933343	-50.7347406278492	-3.43612098110318	27.3162391624228	-3.42861818929319	27.3356806519671	-17.2746926892157	35.6764886025578	
2237500000	-14.4059525616597	-52.4223880559032	-3.40874938434109	25.1120534851183	-3.42077248988843	25.1682652322069	-17.2923388751184	31.9158995111851	
2251250000	-14.3973319846611	-53.2884219820289	-3.40560832180307	23.1409525201566	-3.39903856140026	23.0566591804165	-17.2433150294111	29.3377971730171	
2265000000	-14.5104190769322	-54.0006947912209	-3.39360031342583	21.1068466380731	-3.3996064577761	21.0218013048374	-17.1009806259499	26.1493294304468	
2278750000	-14.7669199495774	-55.0428453315982	-3.42437317131454	19.0630659505976	-3.4234973194671	19.1824918237406	-17.2410721861065	23.7098646056797	
2292500000	-14.8853148287583	-57.618781752655	-3.43459410428057	16.9188252976913	-3.43044054711631	16.8118129325113	-17.2038855974258	21.3003493930731	
2306250000	-14.8616492621847	-59.7519678850878	-3.4257158226912	14.6395548334832	-3.42381624051167	14.6545506671375	-17.3954039042088	19.2668050648666	
2320000000	-14.8543435745912	-62.1575818141565	-3.39907609010231	12.3823989175072	-3.43469354947941	12.4239203449548	-17.5926704468132	16.0539455585513	
2333750000	-14.7384681120226	-63.1365707266629	-3.39273384431192	10.3495222603536	-3.39189508533216	10.2345594389491	-17.6019944368521	11.8951197604978	
2347500000	-14.7465996964732	-63.8883463085969	-3.37699751887156	8.26479367032059	-3.37798887565388	8.51429938430642	-17.5753672593077	9.47833355925911	
2361250000	-14.8510429143217	-64.0497294155084	-3.3756992651569	6.27453594871029	-3.38460129277045	6.44426188915215	-17.4994378048306	7.08067795568274	
2375000000	-14.9735001962047	-65.2290211405248	-3.39225850943649	4.221446569087	-3.407955151291	4.19291298845405	-17.6086137043799	5.33269539209089	
2388750000	-15.2216751536365	-67.9253444964362	-3.40135337046085	2.16874716671666	-3.40417839525142	2.05748143411368	-17.8250488442751	3.12134636924769	
2402500000	-15.2073709589885	-70.321803788223	-3.41026257731566	-0.0526129288136458	-3.41482654251298	-0.0907636228930898	-18.0536548045155	-0.793315691347029	
2416250000	-15.1009953142913	-72.3684707696632	-3.38392534934835	-2.17867495042437	-3.38398303118888	-2.1706144029716	-18.0805634617379	-3.94865164780363	
2430000000	-15.087057693816	-73.2467274247427	-3.3666331169311	-4.28225712266129	-3.36119689418723	-4.10965421513803	-18.0148102368604	-6.17545994543311	
2443750000	-15.0035526633034	-73.8835300022224	-3.34965850437354	-6.34704699760831	-3.36172198457115	-6.53063549226942	-18.0062832990653	-8.96429388333729	
2457500000	-15.1995383085906	-74.4437286095267	-3.35946599517934	-8.30400556546019	-3.35575923203261	-8.43438187502213	-17.9366098841639	-10.9052403047512	
2471250000	-15.4694330635123	-76.0769687393123	-3.38078324942251	-10.5453668583836	-3.38468923106807	-10.4743152722567	-18.1817477786741	-13.8365614643477	
2485000000	-15.4646741874529	-78.8933079846972	-3.38644712571118	-12.7594644613412	-3.37896111594713	-12.80270204741	-18.2432595219301	-16.7115808930586	
2498750000	-15.4386887472459	-81.8892380102856	-3.38202701005555	-14.9784495564992	-3.3851561566354	-15.0548752619266	-18.3513690757149	-19.7236102460653	
2512500000	-15.4097410597568	-83.2020672078083	-3.37904269786399	-17.2528168390655	-3.3704098249009	-17.3117082273109	-18.4807029210183	-22.7447740134928	
2526250000	-15.2652128638562	-84.0524498366207	-3.32909610307474	-19.2407785843245	-3.36098636898466	-19.3900714198397	-18.4063299572173	-25.1106216803403	
2540000000	-15.2925904386531	-83.9468159125226	-3.3437353626287	-21.228457606658	-3.3534017800395	-21.3958882677519	-18.3125425233528	-26.6766617153463	
2553750000	-15.4215837668933	-84.6994478148486	-3.35043425477406	-23.4906698392347	-3.34710832894666	-23.3692503760712	-18.3486902220161	-28.8717188410403	
2567500000	-15.6383498397881	-86.2973814503098	-3.34089620102247	-25.5873267835135	-3.37185772269214	-25.364978722601	-18.5958597517076	-31.5698225004955	
2581250000	-15.651078513092	-89.0902081119846	-3.37741277311756	-27.7569110730107	-3.38833728228941	-27.4629328001204	-18.9386990023118	-35.5031851609896	
2595000000	-15.6038536719293	-91.6166106468704	-3.37972326202576	-29.6589310728219	-3.3695439361465	-29.8268085016006	-19.0055609758247	-39.0194600310187	
2608750000	-15.4178069360437	-93.0025172835782	-3.36091881615775	-31.9247633649254	-3.34038229157354	-31.8128299920932	-18.9119409684113	-42.2759828657186	
2622500000	-15.3968056973741	-93.0940676960891	-3.33638894393872	-33.9089004993194	-3.35922429593285	-34.0042456614574	-18.6036261952609	-43.4258191387321	
2636250000	-15.4329977225559	-93.533175446302	-3.33556383765406	-36.0728123146526	-3.35388531060601	-35.914399035801	-18.6666169145606	-44.2514155449579	
2650000000	-15.5428529253336	-94.9123149376241	-3.33366011068359	-38.1320676073054	-3.34203585647044	-37.9799989995985	-18.8056087437164	-45.8032833689685	
2663750000	-15.8910674927027	-97.0789463874637	-3.36610955984504	-40.2946786568796	-3.35632689552565	-40.4137846177083	-19.1238788371314	-50.7970320663875	
2677500000	-15.8428445502346	-99.4949234679147	-3.36440689795285	-42.5187664902665	-3.3744370847566	-42.5390043619682	-19.4114280713212	-54.5295470584967	
2691250000	-15.643124549112	-101.419574601777	-3.3556397922289	-44.6204735174541	-3.35150256397059	-44.5846309407931	-19.5195888818103	-57.6920708938983	
2705000000	-15.628338551744	-102.336551946641	-3.3290059437709	-46.8383778699634	-3.33317553884771	-46.7565696077757	-19.1395287991083	-59.9993561296784	
2718750000	-15.6596764717124	-103.080219162931	-3.33666547419921	-48.9623373893643	-3.35177100838832	-48.9949330838768	-19.0873414666922	-62.1439020327959	
2732500000	-15.7469372796271	-104.477148836509	-3.34484382700037	-51.1270189221463	-3.32326498204079	-51.1260370619641	-19.0063287093313	-63.2430693612742	
2746250000	-15.8479933911798	-105.426920385024	-3.3439087135049	-53.2032453040387	-3.34907668752011	-53.1290650922345	-19.309759451794	-65.2281398904696	
