!Keysight Technologies N9917A: A.08.15
!Date: Friday, 06 October 2017 09:41:37
!Timezone: (GMT-08:00) Pacific Time (US & Canada)
!Model: N9917A
!Serial: MY53102735
!GPS Latitude: 
!GPS Longitude: 
!GPS TimeStamp: 0001-01-01 00:00:00Z
!GPS Seconds Since Last Read: 0
!CHECKSUM:0362060399
!Correction: S11(ON U)S21(ON U)S12(ON U)S22(ON U)
!S2P File: Measurements:S11,S21,S12,S22:
# Hz S DB R 50
1000000000	-13.3394894816249	-0.712489223814331	-5.6066924821136	169.852163296224	-5.63106624884164	169.74168606379	-12.8823253866651	-58.1724127931199	
1013750000	-13.3841146790053	-3.32862691318778	-5.62947246130874	167.209931195132	-5.65957355943893	167.289936694415	-12.8870740339588	-61.166095537098	
1027500000	-13.3839722005269	-5.98469545943412	-5.66149633958464	164.862808513816	-5.68414784823462	164.886516271484	-12.9007968546744	-63.9339193621787	
1041250000	-13.4310197711571	-8.43731344667833	-5.72298215078875	162.337571526006	-5.75172175213642	162.289075010972	-12.9781087176186	-66.7953282313937	
1055000000	-13.5481566814852	-11.3598835287546	-5.80075786280356	159.861606113005	-5.81577873733092	159.727662784235	-13.1078304032699	-70.0556626229101	
1068750000	-13.5803542287481	-14.1190303822602	-5.88776903356187	157.272755711922	-5.90518216943253	157.211477247771	-13.2349072812831	-74.2196824786478	
1082500000	-13.6935890723102	-16.3082558721395	-5.93935617160531	154.715403142957	-5.96235029148656	154.541449794606	-13.219222119021	-77.6375929506923	
1096250000	-13.7682243890842	-19.4991856738089	-5.99112587918593	152.114310584937	-6.01103080112768	151.914556369138	-13.225947742298	-81.5081002632457	
1110000000	-13.7708734450218	-21.8245353533557	-6.00294079514539	149.674692774319	-6.02177770949946	149.615194642986	-13.1648899320077	-84.0805084426951	
1123750000	-13.7952493551055	-24.7866922015496	-6.05282129999844	147.13749868679	-6.05775551724443	147.138151030036	-13.2112850220966	-86.6444559536921	
1137500000	-13.903670827379	-27.7435677826962	-6.1055767027879	144.632762582308	-6.117784623471	144.641311965066	-13.3119502363855	-89.7790670969398	
1151250000	-13.9579286677346	-29.8534216070468	-6.18816493049892	142.296201360316	-6.20375210623922	142.338841479969	-13.4292392204115	-93.4686353391308	
1165000000	-14.0088952842078	-32.617397983952	-6.26987544641985	139.651628154568	-6.2692867044054	139.646696364021	-13.4889754825166	-97.4106145786997	
1178750000	-14.1135947735143	-35.2845168962016	-6.32978959845024	137.020505722255	-6.33231333828396	137.017182237851	-13.5424750549161	-100.601373253368	
1192500000	-14.1562106757984	-37.8631158814213	-6.36177887177346	134.555868115581	-6.36617394034497	134.590721260826	-13.4381200015631	-104.080329863228	
1206250000	-14.1720690651891	-40.9027884339993	-6.38476845450833	132.10511501825	-6.39435478671131	132.131029488539	-13.4979804851237	-106.566399377707	
1220000000	-14.1327216974843	-43.4964544713484	-6.43059279311028	129.589545778712	-6.45189252866435	129.667696683643	-13.5447776459038	-109.506345117297	
1233750000	-14.2274813304399	-46.0855060198834	-6.49850511042517	127.257543681542	-6.50931499692409	127.077848665954	-13.5624352375336	-112.433302042694	
1247500000	-14.3121392761252	-48.2141409085344	-6.58897128872776	124.823742347263	-6.58288727236267	124.811555185271	-13.6563025412751	-115.963759693165	
1261250000	-14.3814016413815	-50.9471215473094	-6.64289344493924	122.267844141363	-6.66437892242104	122.329691620159	-13.7585880951168	-119.378593392242	
1275000000	-14.4719338882938	-54.3042280262668	-6.71496171554748	119.636370405581	-6.71909703515506	119.660929824148	-13.7361539886187	-122.819822694786	
1288750000	-14.4502069290284	-56.7993158093543	-6.74171212905875	117.243378895297	-6.74659517777918	117.142331652001	-13.7211341256864	-126.275250514346	
1302500000	-14.4512196209417	-59.2002598605969	-6.77830547823101	114.718249631961	-6.79814107882174	114.73961636176	-13.7125936405332	-128.888280781637	
1316250000	-14.4525524105345	-61.5696149577467	-6.83685849232858	112.241544996385	-6.84914702634449	112.313310641578	-13.7189829028146	-131.6359270636	
1330000000	-14.4590199107364	-64.101798936024	-6.89999843260756	109.925306293306	-6.92604127645575	109.85521023007	-13.8326114800992	-134.701750487622	
1343750000	-14.5506316865006	-66.8193534389721	-6.96830072259478	107.359938911527	-6.99939554715464	107.455533957463	-13.9367107015999	-138.126020501632	
1357500000	-14.6250933902495	-69.739667455436	-7.06106765394897	104.787011676795	-7.07880917417282	104.938220697581	-13.8861225402363	-141.489178228766	
1371250000	-14.6082612935678	-72.0509317683439	-7.12717256926019	102.535152274105	-7.12087076011784	102.498240902493	-13.9351736735016	-144.450731971306	
1385000000	-14.6323417535014	-74.8016458297099	-7.15571166913499	100.098557595215	-7.16713282864372	100.013924918518	-13.9105560976401	-147.367194234169	
1398750000	-14.6016495377399	-77.0966888390611	-7.19120402679095	97.6191011589164	-7.20303021148919	97.6000869555918	-13.9649878345502	-150.083240363251	
1412500000	-14.6186584945302	-79.0218682525924	-7.25170243333272	95.2461373321428	-7.26184110691455	95.1655915380307	-14.0374343172755	-153.016087132272	
1426250000	-14.6491813678976	-81.4524824208292	-7.31359941677264	92.7501394836759	-7.33517933973745	92.8162128801834	-14.1490174211789	-156.358827848424	
1440000000	-14.7269010772556	-83.9798137469026	-7.38948525575838	90.2517709218888	-7.39504125355987	90.466250698858	-14.1411278305907	-159.159685322572	
1453750000	-14.7500757807026	-86.6215998020804	-7.47085012072684	88.0346299231882	-7.49764078782673	87.9644864632239	-14.1723720395437	-162.504920738243	
1467500000	-14.7155115995985	-89.4481943177017	-7.53070698753316	85.3558558708579	-7.52132927332641	85.3653463425771	-14.2187013677481	-165.333549051474	
1481250000	-14.7133044448301	-91.6911954994856	-7.56646971072613	82.9736909971759	-7.55492311766629	82.9343476322077	-14.2545268548896	-167.95504504318	
1495000000	-14.664463996092	-94.1840664640593	-7.60976733523607	80.4701439428631	-7.61819067138618	80.5403274731513	-14.2937291178355	-170.866096837686	
1508750000	-14.6989073165362	-96.0915376657124	-7.66728068879809	78.337117772189	-7.67186952600459	78.4277000688872	-14.3910409549498	-174.166188475372	
1522500000	-14.753630266344	-98.2355308172958	-7.72620688906575	75.8266095550191	-7.7466563211805	75.9623841963328	-14.4416115314401	-177.167313619518	
1536250000	-14.8345882216246	-101.391066389148	-7.82046084732373	73.4195129819322	-7.81887124516552	73.5171351105397	-14.475989498536	179.550121778756	
1550000000	-14.8241146147342	-103.643437011564	-7.87928085261925	70.9106170846132	-7.91230559184448	70.9372213311192	-14.459137713722	176.481710172046	
1563750000	-14.7883920074086	-106.213535464413	-7.94285393983629	68.5455848897097	-7.93287313043499	68.5855767576676	-14.4658696347106	173.995513579768	
1577500000	-14.7389021562843	-108.201331429765	-7.97757155985138	66.0904773368611	-7.98263914330247	66.0943652970681	-14.4995213002641	171.33082523264	
1591250000	-14.752879796796	-110.153082200253	-8.00256815134976	63.8510885926962	-8.0153171946705	63.8481867440742	-14.5857229202494	168.683955673392	
1605000000	-14.7748022051695	-112.309765163338	-8.09209389064833	61.3196883734687	-8.09746679803815	61.3671565800582	-14.7526767197262	164.95935182552	
1618750000	-14.8383923369698	-114.721262980702	-8.15976861966602	59.1495907751004	-8.15120772068552	59.1200231545289	-14.7568944987983	162.143705173074	
1632500000	-14.899809281497	-117.018352727992	-8.23808521445038	56.7099424975241	-8.24340817332808	56.6918430725959	-14.7493503810591	158.576369888698	
1646250000	-14.8613901905612	-119.215114846509	-8.28868600212086	54.1580427071212	-8.30835842271435	54.1996892210541	-14.7724196866623	156.115371759417	
1660000000	-14.8244131847975	-121.452769668927	-8.34089014131255	51.8435767323613	-8.34993894131613	51.7765600183562	-14.7573243713177	153.324829353836	
1673750000	-14.8323792207665	-124.190293558573	-8.39023395447731	49.2994567838554	-8.41074023319115	49.3232347286296	-14.8153686040112	150.717652387194	
1687500000	-14.6998331565129	-125.542303574882	-8.42546670134571	47.2426800378738	-8.43797902324183	47.2576279718024	-14.8734214275904	148.28355271796	
1701250000	-14.801916215272	-128.045911551387	-8.48926929947272	44.7971018546975	-8.48687798599487	44.9252147403999	-14.9966529340088	144.638383482791	
1715000000	-14.8352099697135	-130.165702892257	-8.5654939799752	42.4995787059145	-8.56593264325937	42.5718987515449	-15.002871085699	141.511392271103	
1728750000	-14.9247143986396	-132.724241876179	-8.65118315341983	40.0213020357381	-8.6425338651319	39.9648751927536	-15.0728647579941	138.282997880269	
1742500000	-14.8863213639603	-134.647602815838	-8.70871292657926	37.6904126004393	-8.71383654320767	37.7102888758865	-15.0917552376639	136.038266968621	
1756250000	-14.7825804385254	-137.199173792603	-8.74481589289777	35.3147981769893	-8.75498813579724	35.1165051340207	-15.1129609410483	133.600521420789	
1770000000	-14.7994281944612	-138.899649446192	-8.78864361485223	32.8500336221892	-8.80710549087158	32.8987179885657	-15.1647024254307	130.676136781533	
1783750000	-14.7519856382208	-140.747582767369	-8.84798622401863	30.6258574600835	-8.83107497758464	30.6583688209405	-15.2412082456422	127.595831980146	
1797500000	-14.79327655853	-142.445309636306	-8.913280768269	28.3374270209026	-8.89798599849963	28.2486996937642	-15.3246520481455	124.328103325536	
1811250000	-14.8705565088185	-145.242375123612	-8.95186216171905	26.0260170927477	-8.95928642749904	26.0170697490531	-15.3566213502766	121.191676120632	
1825000000	-14.8450281334025	-147.545269394176	-9.02303745795324	23.6923930835503	-9.0526519951044	23.6082757682554	-15.3496018280774	118.484427788345	
1838750000	-14.8103829914038	-149.415323621677	-9.09814379829653	21.2120143501518	-9.10179441183693	21.3176807423883	-15.491162316341	115.683452170453	
1852500000	-14.7123714999651	-151.6558195465	-9.12238078338501	18.9549543011046	-9.14572558194821	18.8709296410887	-15.4998558246092	113.089299394525	
1866250000	-14.7675182539561	-153.382900152202	-9.18329492108098	16.5111837015597	-9.17519526654129	16.5021196437854	-15.5667934480867	110.349087724863	
1880000000	-14.6638533301089	-155.084120468447	-9.23269808415406	14.1906127347133	-9.25233201056152	14.1412881741291	-15.6269777619658	107.257468132797	
1893750000	-14.7739486925809	-157.170182971243	-9.29984932896303	11.9778086007087	-9.31118851679123	12.017334238406	-15.7254678036919	104.190097847863	
1907500000	-14.787992311058	-159.474472051456	-9.3616216493799	9.64967096902459	-9.35890656116823	9.76003534979738	-15.7218537146973	101.118308547263	
1921250000	-14.8509714530632	-161.702307825458	-9.43063949869495	7.36795385661491	-9.42628377961899	7.31809801070333	-15.8489697307233	98.2008655174874	
1935000000	-14.8127093114917	-163.452774659089	-9.49609590199462	4.93025480295232	-9.48215785829258	5.02617483189306	-15.8329274157133	95.7331870344001	
1948750000	-14.7508943251144	-165.716027673374	-9.51742234673491	2.5378222732064	-9.52603163845635	2.65513573782979	-15.9708577567867	93.0218378974973	
1962500000	-14.7368138393919	-167.016700113427	-9.59350388242042	0.361707718413507	-9.57097766005224	0.193403472663715	-16.0318093382371	89.904444838025	
1976250000	-14.7812968848755	-168.771839507653	-9.60398063590889	-1.93247839403335	-9.61946546778283	-1.91161891611106	-16.0461389610702	86.756585576304	
1990000000	-14.7843912431571	-170.510572212636	-9.66237577305323	-4.22511534350309	-9.67570549542642	-4.2709257635437	-16.125251893887	83.4005266938466	
2003750000	-14.7695035665795	-172.744359790158	-9.7546601072925	-6.62607689436513	-9.74743132143578	-6.65241804446094	-16.1047721045295	80.8202097592738	
2017500000	-14.8315258802271	-174.833215323067	-9.80414934277679	-8.85371864595902	-9.82472926390895	-8.8875984857336	-16.1319487586803	78.5962765169473	
2031250000	-14.8228575598531	-176.624453009939	-9.87116986979557	-11.0132788568224	-9.86757090604028	-11.1184466733491	-16.234086249195	75.5612520020382	
2045000000	-14.6818617877653	-178.1963637459	-9.92581860785457	-13.4502604543543	-9.89134384813266	-13.4133956289642	-16.3452775051101	72.3857259366302	
2058750000	-14.749585923423	179.995603801931	-9.95300850234579	-15.6048218890661	-9.95864214266392	-15.7683799874696	-16.3432089030241	69.1463616891438	
2072500000	-14.8255551729032	178.08788978346	-10.0128087978357	-17.8994258606145	-10.0164142249939	-17.8785623871619	-16.3636517619864	66.2255043152683	
2086250000	-14.8125111812279	175.917288376407	-10.0579990067382	-20.4439040643542	-10.0658863926785	-20.4007773282039	-16.2997318089842	63.4765268200913	
2100000000	-14.7784884846272	174.032355347655	-10.1176961723531	-22.6117914453408	-10.1356661568641	-22.5462943300628	-16.3710658153187	61.0753341176276	
2113750000	-14.7583840303629	172.355073659155	-10.1880076331613	-24.8043644454364	-10.1902796631835	-24.6929045817167	-16.4404138548998	58.3269542024166	
2127500000	-14.7712081181486	171.095379977234	-10.2425952546373	-27.2788151895225	-10.2388044639729	-27.1557446962556	-16.6027178136033	55.8863357974556	
2141250000	-14.7547947115593	169.174543372423	-10.2875591452088	-29.413619653333	-10.2707446414279	-29.4581279630384	-16.6837837448269	52.5324619378999	
2155000000	-14.8077874745829	167.498301487586	-10.3027768304844	-31.586855760633	-10.3159499863211	-31.6995746740762	-16.6947804936706	48.8665924782282	
2168750000	-14.8214030893413	165.480265918331	-10.3680717462005	-34.0468398217467	-10.3798986145781	-33.7723517340926	-16.6725225475459	45.7099538421751	
2182500000	-14.8207489427972	163.677464883833	-10.426386579094	-36.0220247492238	-10.4087123998356	-36.0030149146856	-16.7039312186264	43.121146386336	
2196250000	-14.8131123689948	161.528383412575	-10.4879026963621	-38.4219249301283	-10.4945593907742	-38.2153833466053	-16.7412556905022	41.3164908883723	
2210000000	-14.8022885430362	159.636340621322	-10.5418560642756	-40.6255138478847	-10.565434202872	-40.6303857196588	-16.7760647956792	38.2395068145086	
2223750000	-14.7943461967789	158.386851395273	-10.5842123489181	-43.0003919880695	-10.5830530971257	-42.9567902363851	-16.9906820301732	35.4279370479698	
2237500000	-14.8121915519746	157.07468176924	-10.6086218927893	-45.2631544717682	-10.6274622881089	-45.247586315277	-17.0224407181128	31.8635000495482	
2251250000	-14.8480294326187	155.326796289075	-10.6576025262264	-47.3928712636187	-10.6601682392311	-47.4966212522155	-17.042961225487	29.0030311838686	
2265000000	-14.8855706651258	153.38160778378	-10.7152814865755	-49.6153044991127	-10.7051418201719	-49.8280583828282	-16.9528682291382	25.3287792595655	
2278750000	-14.9593605540175	151.907807734749	-10.7729784599517	-51.8040667703789	-10.7703610769867	-51.7483576567832	-17.0370417739995	23.371180594916	
2292500000	-14.9292196560044	149.854476407325	-10.8293837775895	-54.1287948902246	-10.8122177460347	-54.1730443281915	-17.0823686495223	20.6509325903834	
2306250000	-14.9385503743884	148.372964385899	-10.8511555371952	-56.4231892522737	-10.8700523476162	-56.415349071792	-17.1724900626466	18.4968659369303	
2320000000	-14.904066533345	146.834099923951	-10.8929878544937	-58.6752317473072	-10.9336976366182	-58.6798450363073	-17.3541729128771	15.1926861198915	
2333750000	-14.9658475261517	145.54910032776	-10.9547217156381	-60.9987002654359	-10.9523549441912	-61.1113823162159	-17.3976794178487	11.7279380781647	
2347500000	-15.052158719429	143.849604474809	-10.9859240865566	-63.0250746121036	-11.0039320696555	-63.2085004279196	-17.4283187774114	8.35061328945901	
2361250000	-15.159338778175	142.136405409561	-11.0406438140563	-65.4205081887505	-11.0330809405567	-65.3311874246715	-17.3762538099096	4.99620614126828	
2375000000	-15.2048770721345	140.170274520763	-11.0786473264785	-67.6315556494238	-11.0990212515778	-67.4962459516091	-17.3064606611106	2.93876305070087	
2388750000	-15.2018977250187	138.546780202822	-11.1345818088105	-69.7892386242813	-11.1479333586071	-69.7359821231491	-17.3983818487582	0.809881143949652	
2402500000	-15.2262572436117	136.890068101551	-11.1884617597022	-72.061055095632	-11.1987430962996	-72.146856980949	-17.5193763834185	-1.82289730293993	
2416250000	-15.2079798373538	135.632633531455	-11.2123734915729	-74.3130932740013	-11.2650909979386	-74.3093137103125	-17.6368360386618	-4.86118563249862	
2430000000	-15.2730506576371	134.293798282459	-11.2625558183256	-76.2556647564852	-11.246247307423	-76.2719963633118	-17.6687740611058	-8.00679316190433	
2443750000	-15.32972208856	132.882047016846	-11.3030533287311	-78.5993847712613	-11.3235845502485	-78.8569891683352	-17.7055465841303	-11.1715756154828	
2457500000	-15.3757178341194	131.089536858472	-11.3409201136322	-80.9680353103296	-11.3591054571433	-80.8654974330149	-17.5971290919993	-13.7704974045607	
2471250000	-15.4568321262095	129.535862629293	-11.3936414593378	-83.1311449929431	-11.3956420544529	-82.9247183876823	-17.6917783934927	-16.1148957948797	
2485000000	-15.5235732306526	127.816062928802	-11.4540076978654	-85.3521315487763	-11.4574520816963	-85.2462047858849	-17.7474937426777	-18.7444636162083	
2498750000	-15.5496656799215	126.408382878035	-11.510089512896	-87.7181521620384	-11.4711718708994	-87.5913365989668	-17.8037615925828	-21.6918425801468	
2512500000	-15.5486090965872	124.871371671571	-11.524403330225	-89.8606889356172	-11.533754815993	-89.8625359086956	-17.9557486578277	-24.1890858704563	
2526250000	-15.7242668161006	123.564617241435	-11.5440394442657	-92.0192759117817	-11.5950715185809	-92.0391051754005	-18.005989091744	-27.8459680836186	
2540000000	-15.8551980915283	121.91884843608	-11.5785557310162	-94.3782093849055	-11.6057299707481	-94.2949344260518	-17.9972315817763	-29.4308447925996	
2553750000	-15.8315765176272	119.945242536346	-11.6442443274433	-96.377844153406	-11.6494822321085	-96.457112585554	-18.0016456610681	-32.7884082337537	
2567500000	-15.9535505778639	118.071087124682	-11.6813729859127	-98.5469593923893	-11.691031549319	-98.4963373692839	-18.1056554626941	-34.8828983650455	
2581250000	-16.0235411717384	117.486726269777	-11.7299836736661	-100.716432176857	-11.7283544052418	-100.810664452388	-18.2780734374186	-37.9837997349931	
2595000000	-16.1694869859937	115.423367160097	-11.7670045573466	-103.076444099859	-11.7722728436821	-103.084609103117	-18.2968161823007	-41.0851987277459	
2608750000	-16.1677037526799	114.714157130094	-11.8034790785126	-105.028665708104	-11.8060687444166	-105.173243922106	-18.3700068123969	-44.840643412339	
2622500000	-16.3235448601534	112.759216717998	-11.8059192413576	-107.492739054622	-11.8418221860846	-107.492283170412	-18.3237091057329	-46.7625614855591	
2636250000	-16.3767454321901	111.235176785366	-11.8768150659401	-109.422550035739	-11.8689713800368	-109.502506584658	-18.3215929735314	-48.9381249527289	
2650000000	-16.4276979543045	109.888109627671	-11.8809938774784	-111.779409005347	-11.9121361794134	-111.558147272022	-18.3045376125483	-50.0369726687866	
2663750000	-16.5726924805985	108.309076586029	-11.9585579577904	-114.145101075247	-11.9650412530432	-114.142116996069	-18.5736259935368	-54.489100458758	
2677500000	-16.542652015089	106.717109002793	-12.0079568183874	-116.320905849079	-11.9931419229589	-116.216354980025	-18.7761426968565	-56.8084967813705	
2691250000	-16.7342336913958	106.107251004255	-12.0151768651293	-118.59065532302	-12.0308486601886	-118.428404805686	-18.8508813988465	-60.0683780399175	
2705000000	-16.7887557577959	104.398398555444	-12.0512185817027	-120.603789370574	-12.0482298355229	-120.768549762155	-18.8112274109633	-62.8132959757408	
2718750000	-16.9611055200209	102.338274127203	-12.0807816422574	-123.000692073008	-12.1119195940045	-122.88734286715	-18.8696804172661	-65.0810482622261	
2732500000	-17.0354655992494	101.130603982866	-12.1312032077382	-125.099876699693	-12.1300373360592	-125.243842229258	-18.8841153528933	-68.0827858864086	
