!Keysight Technologies N9917A: A.08.15
!Date: Friday, 29 September 2017 09:06:16
!Timezone: (GMT-08:00) Pacific Time (US & Canada)
!Model: N9917A
!Serial: MY53102735
!GPS Latitude: 
!GPS Longitude: 
!GPS TimeStamp: 0001-01-01 00:00:00Z
!GPS Seconds Since Last Read: 0
!CHECKSUM:0107823900
!Correction: S11(ON U)S21(ON U)S12(ON U)S22(ON U)
!S2P File: Measurements:S11,S21,S12,S22:
# Hz S RI R 50
100000000	-0.984516683551117	0.00899178882767485	-0.00053567880840826	-0.000392628552185885	-0.00194383513836934	-0.00222144972739719	1.00616764669782	-0.00151731326461364	
122375000	-0.99489158728552	0.00292250530470873	0.00131190009442994	-0.00162265547930748	0.000347524987476471	-0.0026905623169169	0.985719301468001	0.00130654984359205	
144750000	-0.99972618277072	-0.00303394962058358	0.00302298367912484	-0.00407156674298997	0.00371055023469464	-0.000507270432583539	0.986671057521593	-0.0148876812401649	
167125000	-0.983822519720332	-0.0037295896220873	0.00165835310524982	0.000393185970335005	-0.00396381071704639	0.000176908762533228	0.991730856605244	0.00254294876600852	
189500000	-0.985709844581546	0.014911994547373	0.00456211656020819	-0.000849286214818083	0.00245206012637506	0.000410650859643364	1.00415616768601	-0.000231467692240232	
211875000	-0.982872097645242	-0.000125225062309497	-0.000760121294332905	0.000705223985611784	0.000254755825406265	-0.00281477189695516	0.991455722003528	0.0224411813686962	
234250000	-1.00009939304953	0.00339789114060088	0.00310432284797255	0.00283358342894375	0.00469377100235159	0.00306269625497152	0.993096358037077	-0.00403469151055854	
256625000	-0.983837743399866	0.00319113063955058	0.00563475220749282	0.000519886805288879	0.00039774979832878	0.00117472229527375	0.993399473522849	-0.00590140778379661	
279000000	-0.987933729656868	-0.00541478721322956	-0.00450901227016445	0.00128388253942433	0.00579702032302151	0.000989259803334162	0.999640109600301	0.00384373144292958	
301375000	-0.993907475209836	0.0131214644764784	0.00453008852109348	0.00344048102118652	0.00391305923213183	0.00273019607649313	0.995510992842499	0.00221937425469299	
323750000	-1.00154350016344	-0.00390685505029162	-0.000414311342683979	-0.000559237383544655	0.00157559008016868	0.000803325995608306	0.978239701832305	0.00129643688797577	
346125000	-0.987850466395951	-0.0047196077504246	-0.00488114001933732	0.00190843785678935	0.00208129913457026	-0.000836099299707122	0.995353934303224	-0.0100931100217856	
368500000	-0.997086449020009	0.00790405354749135	0.00384343926154329	-0.00617034985195975	0.00180397331489244	-0.00322226798963819	0.995225471180348	-0.00310895522631362	
390875000	-0.981696486709103	0.0133598549442671	0.00600468573266404	0.00200252405437388	-5.76603111769107E-05	-0.0011987661653834	0.998316914612915	0.00590538178569074	
413250000	-1.00405207832239	0.00101730339132952	0.00268797711200144	-0.00329875822810151	-0.000287811093644926	-0.00381970466356951	0.987138685327996	0.000538427666358445	
435625000	-1.00032612868956	-0.000698108911697137	0.000462560867546591	-0.00053061294836654	0.000731535332467244	0.00302263709082347	0.997406537935928	-0.0118413925075394	
458000000	-0.994755330267473	-0.0115851493771694	-0.00317232861027885	-0.00194296902594587	0.00101416821966434	-0.00316999667290285	0.996166508064969	-0.00491717883963291	
480375000	-0.983265211187023	0.0106950358063529	0.00128573977825262	0.00321874578419713	-0.000437509890452345	-0.000920741370641164	0.995144734789502	-0.00410866522188586	
502750000	-0.996775823832053	0.00416253429039362	-0.000656331930424523	0.00342722773332668	-0.00497448891387924	0.00218528151123396	0.983137865756683	0.0066314301936555	
525125000	-0.994598485525913	0.00360786385130479	0.000122822407774791	0.00588333576279764	0.00195156012254102	0.00409563929603369	0.991776198313552	-0.00473611402107915	
547500000	-0.991204865328461	0.00105855353036993	0.00383984106417695	-0.00265085679664664	0.000490069893112426	0.00338323450807273	0.991127715987538	-0.00795349225936463	
569875000	-0.985695613849688	0.00419711152303257	0.0004686288263842	-0.00278814051532915	0.00555438750605115	0.000144803059939	1.00166599150279	0.00208580649355534	
592250000	-0.997174972747587	0.00611736626379955	-0.000271853544339443	-0.0014574894708298	-0.00509308578054891	-0.00269018573582485	0.996132258802176	0.00604810101567921	
614625000	-1.00215362725215	-0.0063356933248894	-0.00959870089514967	-0.00104112611017275	0.00246640706492338	-0.00145711386421844	0.992422048739486	-0.0067912291560546	
637000000	-0.994300933217995	0.00914968269526481	-0.00222980831651472	0.000699427538980219	-0.00733940940885367	-0.000565857062008516	0.991995491367507	-0.0112864648484311	
659375000	-0.976720043312489	-0.00500749195721434	0.00205138211447425	0.00210103685550959	-0.00235878417673476	0.00525700490572316	1.00300866321281	-0.00700351057882298	
681750000	-0.998396763101404	0.00363585023233526	-0.000296401131119116	0.00202446499974082	0.000902717900058548	1.63333915799892E-05	0.996786802073673	0.0088706101979924	
704125000	-1.00877106144672	0.00819754876491929	0.000790384974628355	0.00445780511687123	-0.00102125870983134	-0.00102958665425438	0.98378103423295	-0.00606182551206514	
726500000	-0.984950186764112	-0.00219627171890507	-0.00183711135151873	0.00451330342896057	0.000268223536331384	0.00328546636493674	0.991155925906991	-0.0148320212062683	
748875000	-0.975224343185494	0.00345381562123243	-0.00423172324387822	-0.00234052024536756	0.0025932231933241	-0.00162820331672726	1.00029328690087	-0.00957259667751701	
771250000	-0.98874733377351	0.00837026550417169	-0.00455487232793968	0.00118909479742727	-0.000974989748964766	8.31973589793285E-06	0.999500648121602	-0.0102469390824525	
793625000	-1.00690886478232	0.00952341870348739	-0.00205361163267328	-0.00135384138775389	0.0023069333332194	0.00365391146464252	0.986512896048664	-0.0117609651969913	
816000000	-1.00431169352827	-0.00516360154956108	-0.000791644758804893	0.00455748671961462	0.00924903842964282	0.000393119785058258	0.985021580641497	-0.0173267502509576	
838375000	-0.982604620089027	-0.0123404570217033	-0.00678161257258569	-2.24512748657705E-05	0.00147325642239957	0.00507747200430885	0.994386107486578	-0.0130879171023644	
860750000	-0.9815043633777	0.0016773326130054	-0.00252395790453086	0.000935641454596287	-0.002228280336563	-0.000984731592984084	1.00608514202708	-0.00681756222252936	
883125000	-0.995731972767638	0.012152385899606	-0.00300286493551098	-0.00238532663891815	0.00478481703815583	0.00291983675696235	0.991508269300777	0.00425775520685955	
905500000	-0.99054263902954	0.00394496150237922	0.00415262909375517	0.00532819413051827	-0.00101728594392823	0.0027242805739634	0.980868604188114	-0.00162814191623553	
927875000	-0.990632622196171	0.00165376664035305	0.00174508335402397	0.00431443402953902	0.0019890914226071	-0.00647026630675026	0.99252591074092	-0.0110008112181422	
950250000	-0.98362905214357	0.00826199360572966	-0.0031649346051329	-0.00110668516019278	0.00231350325243013	0.00454316431712945	1.00518085828865	-0.00670590339500646	
972625000	-0.996384531221158	0.00444369554956653	0.00207684351481747	-0.000656933977493111	0.00326957075113661	-0.00103921880370521	0.986475572510194	0.0037865450126067	
995000000	-0.998651524232048	-0.000478971516114424	-0.00166086534712019	0.00120863260667191	0.00512946675715936	0.00602782762833162	0.979666236324562	0.000569184480369128	
1017375000	-0.985180334550445	-0.0026801417897333	0.00141196539160193	0.00366070169718399	-0.00290936669200298	-0.00253149011850781	0.98432342532348	-0.0111364149429706	
1039750000	-0.988554075375988	0.0129114810256063	-0.000914717225720662	0.0022659896141382	-0.00469979475556652	-0.000274712115315239	1.001125155443	-0.00958038646824357	
1062125000	-1.00420122897641	0.00477975754290916	0.00107183275479134	0.00367445141963862	0.000163036671955634	0.00194519700604913	0.99595425484483	-0.0118888015161657	
1084500000	-0.995217650374638	-0.0054962130713565	0.00297809737734666	0.00338325453308005	-0.00678030161466861	-0.00286272569497792	0.981214016830284	-0.0302963132588233	
1106875000	-0.984343568601011	0.0064628320661807	-0.00331780377432958	0.000407925802874002	-0.00462374553901896	-0.00414313283786614	0.979278308746785	-0.0167009747942219	
1129250000	-0.985512690957323	-0.00334550962604657	-0.00137245678980588	-0.00162099411553476	0.00309432930504185	-6.69758203756677E-05	1.00326997394434	-0.00927539677813325	
1151625000	-0.991834192435046	0.0080086081163756	0.000834213465059417	0.00777345535136846	-0.00249568836953816	0.0038533163639503	0.99490887814225	-0.00909559586292137	
1174000000	-0.993972149429784	-0.00576914461286976	0.00333625319742746	-0.000715313857798341	0.000926576998685027	-0.00381749469251648	0.97487538244686	-0.00875254786526284	
1196375000	-0.993828521608029	0.0003590192474211	0.00121116328704771	-0.0039627899916899	-0.00429131488838416	-0.000559383292915162	0.985385462107523	-0.00304153371889568	
1218750000	-0.987553649795425	0.00710309815320836	-0.00754115948357059	0.00104680068992725	0.00378349754450697	0.00486693876306255	0.985366755162588	-0.011279329958679	
1241125000	-0.993676323110937	0.0161773877510523	0.000691690094391747	-0.00187315081267967	0.000724462241545984	-0.00227660172425105	0.989743999426689	-0.00709715608909486	
1263500000	-0.993984058843354	0.000123929930357203	0.00254220448352741	0.000667817620295788	0.00279779632160121	-0.000246846766975672	1.00154306922944	-0.00592278024674601	
1285875000	-0.98394884657326	-0.00187009107887132	-0.00201724289719502	-0.00112266574103166	-6.3065209371132E-05	0.00160607383523611	0.982324589389896	-0.00849165268148346	
1308250000	-0.975737242848456	0.0143822772351845	0.00166733042129506	0.00235435062151223	-0.0032736701991285	-0.000105053849536564	1.00453848730167	-0.0105129692860636	
1330625000	-0.994172183983239	0.0195794363416266	0.00080309704163692	-0.00221823937790557	-0.00671819812673097	0.000937862647977974	1.00472991218311	-0.015565709637808	
1353000000	-1.00039178997169	0.00527385919903195	0.00282256403268239	-0.00397929666459579	0.000306843026703512	-0.00161533934116138	0.984902235365621	-0.0110813065338051	
1375375000	-0.994819996658505	-0.00103072756104389	0.00254071157703416	-0.00395722695725006	-0.00548267951432844	-0.00205050196430162	0.978832111679298	-0.0251819392093237	
1397750000	-0.981308990097384	0.00447434969348642	-0.011247913117569	-0.000251112776584029	0.000216146235033698	-0.0022209392793961	0.979121471697584	-0.0105820913562796	
1420125000	-0.980326099325882	0.0141817464909001	-0.000515745859094923	-0.00100048458444814	-0.000929648017251406	-0.00384281914286372	0.999204111526858	-0.00434519771908621	
1442500000	-0.988554645489083	0.0127868450896202	-0.000130804033831304	0.00138076448195779	-0.00232445351955276	-0.0034910724918423	0.994063137338844	-0.00479132877664213	
1464875000	-1.00295127785831	0.00339074124889632	-0.00110052421106474	0.00286261627220156	0.000545418982703086	0.000663581406637197	0.99186437143446	-3.51126426562455E-05	
1487250000	-0.987755815018834	-0.0108213568356036	0.00173502503051408	0.00295786544594528	0.00263392523288828	0.00379127476487243	0.982963939293569	-0.0104458630608695	
1509625000	-0.982781245760724	0.00295389213948455	-0.00186633673503606	0.00308357660633159	0.00142749152688763	0.0011680549129891	1.00203034889542	-0.00793278592498224	
1532000000	-0.988511618441224	0.00716374647680135	-0.00569335823604749	0.000324440230433031	0.000306634705486366	0.00308786223638008	0.981434160769543	0.00330552232293385	
1554375000	-0.99711709143253	0.00196111224770568	-0.00280781076095607	-0.00168539059542455	-0.00390464703150969	-0.000868412343855002	0.984333736659137	0.00259148465150837	
1576750000	-0.988932900556138	0.00103851804362376	-0.00109193217286452	0.00805242816762499	0.0019210495159278	-0.00149115396631365	0.9862721250823	-0.0133805804653862	
1599125000	-0.973859676047571	0.0100952547319816	0.00207875091390439	0.00571498805612955	0.00389769044653661	-0.00183933530566582	0.988016563023561	-0.0140208387740109	
1621500000	-0.998276489390347	0.0175615203105722	-0.00120440919474321	0.00186196221985837	-4.02455645504264E-05	9.09305480909408E-05	1.0069066775197	0.000819461890248118	
1643875000	-1.00191977551403	-0.00805036255238822	-0.00209967596332457	-0.00498262801233905	0.000552261984198595	-0.000181832362523329	0.999933051869938	-0.0189425414765861	
1666250000	-0.993709202447848	0.00166141696787409	0.001894084945396	-0.00562181848117505	0.00767254017436386	-0.0033496451259641	0.985233914257221	-0.0110827554938581	
1688625000	-0.990272045075124	0.00762184261762161	-0.000340666280316093	-0.00491511616554343	0.00552469503953242	-0.00515828869536041	0.986793948648979	-0.00895358805892953	
1711000000	-0.998281872139338	0.00372772280815054	-0.0019737960254761	-0.00556038816765991	-8.6685278400599E-05	0.000313365215182431	0.99463697141685	-0.011232187677981	
1733375000	-0.994110066576512	0.0120535638027566	0.00236495581038091	-0.00546269276697588	0.00329488003212228	0.000770168628143137	0.991768700256121	-0.00206463410965275	
1755750000	-0.996573092479567	-0.00368906249562234	0.0025522004029731	0.00202111367206742	-0.00405195626676169	0.00285751871669259	0.986132661819489	-0.0195725243348214	
1778125000	-0.98381626997651	0.00574426975347081	-0.00273766954783166	-0.00082390506570624	-0.00331731420235634	0.00705406032464912	0.986309708671121	-0.00971907186319545	
1800500000	-0.985652697654606	0.0213451117196828	-0.00255240973766425	-0.00308597468830931	0.00253961138334662	-0.00144023253589198	1.00398026135301	-0.0222548973785096	
1822875000	-0.996965342974358	-0.00356611449092692	0.00365919104495177	-0.00306388146075966	0.000720036064292715	0.00122235471868962	0.98359157901913	0.0125128082868493	
1845250000	-0.995299115259161	0.00210923648486355	0.0013352371534788	-0.0030229642902289	0.00238381355477457	-0.00270149034172395	0.976690912249097	-0.0207036742811565	
1867625000	-0.984619053248857	0.00840239107881036	0.00197179424085149	0.000522229562422633	0.00325471234965983	-0.00453647933977981	0.989118270594856	-0.022101210913584	
1890000000	-0.988400698451388	0.0114151799386946	-0.00432351923274847	-0.00497253550338516	0.00305654538068352	0.00220632049836749	0.995514422645527	-0.00593127358685928	
1912375000	-1.00025802023482	0.000158619572138641	0.00565263677358156	-0.00124451172209075	0.000673727914938263	0.00101988611587016	1.00124225818372	-0.00365482106188812	
1934750000	-0.997510028462478	0.00130980064435121	-0.00528845390155264	-0.00106785351508926	0.000422833835046322	-0.00208101400411163	0.989073625557429	-0.0172659683558598	
1957125000	-0.990639475022722	-0.00449625252629787	-0.000413360584848932	-0.00041438848896241	-0.000686977129116401	0.00275249896503139	0.984585098895704	-0.0168371024709187	
1979500000	-0.992267179781233	0.0122459406895095	-0.00305058864604312	0.00394269716518311	-0.000899057157084324	-0.00551204415447005	0.999124675266583	-0.021422262781763	
2001875000	-0.999898953252552	0.0121374483494335	-0.00131554301464191	-0.000234177428996872	-0.000985717234124324	-0.000187324241267183	1.00143339018322	-0.00317344725874862	
2024250000	-1.00026575227071	0.000236297244066264	0.00288599981307909	0.00547523870937906	0.000674518798316806	-0.0029786688985473	0.988672069371787	-0.0163685850680137	
2046625000	-0.98489560538029	0.00259378613678896	0.00225167136046814	0.000578588137855907	-0.00329125183819908	-0.00191861318456903	0.979379970853687	-0.0223011406990829	
2069000000	-0.97944401098157	0.0101658661283467	0.000921726199368806	-0.00437821167872205	0.00378756096032828	-0.00762662099843903	0.997675731579694	-0.000800004323847514	
2091375000	-0.996712499588903	0.00562574296379803	0.00122295778475603	-0.00443046193863747	-0.00456707014221893	0.00254876445934801	0.996064237217727	-0.00461380138879702	
2113750000	-1.00137556634295	-0.00464981822154387	0.00251375118822286	0.00022342269586651	0.00109583517869399	-0.00108699602849123	0.973357952369888	-0.00410731073692689	
2136125000	-0.989346155780926	-0.00847002014908255	0.00458270349278084	-0.00569266700088028	0.00078141245261734	0.00217003131126663	0.974210430190272	-0.0282793274962521	
2158500000	-0.984083704193751	0.00729512703187069	-0.00304870059613094	0.00353151386788488	-0.00103968057316654	-0.00434039199063244	0.984538871256023	-0.0137895956911206	
2180875000	-0.988142071802027	0.00921382560877243	0.00249625876916518	0.000972654656243732	0.00255226310136755	0.00287553872295662	0.999277206227445	-0.002749118512075	
2203250000	-0.997982322157901	0.0210304239353721	-0.00279671466057702	0.00203258047097525	9.35627056496006E-05	0.00049530327691247	0.983918928302009	0.0121223509207915	
2225625000	-0.98996686460538	-0.00987425202697467	0.00219685881179033	0.00337015725981293	0.00213624911778233	-0.00788320381845704	0.985232832544535	0.00751530580537576	
2248000000	-0.983718835704448	0.003994940740843	0.00209512342322041	0.00342693600244988	-0.00314585375090551	-0.00170103431398578	0.99258098699588	-0.0155294247922658	
2270375000	-0.990196388023005	0.00989037819195676	0.00617735100809818	-0.000405924601450349	-0.00365820193065671	0.00275820686696733	0.99304574045749	-0.0148773636272184	
2292750000	-1.00206414512598	-0.0110519322973141	-0.00206587613066782	0.006805345763366	0.00244062215145826	-0.00692028385464426	0.989981173377221	-0.0071045293803223	
2315125000	-1.0005737057568	-0.00502966329769777	0.00437965918143749	0.00433070293886833	-0.00194405113958952	0.000379207884353078	0.984207928816868	-0.0134411383027462	
2337500000	-0.982352639080944	-0.0031112106263822	0.000358974939404395	-0.000223527114304765	-0.00530859827306624	0.000491176182350373	0.987088603177237	-0.0206512930325424	
2359875000	-0.983699172155149	0.00400879073873417	-0.00811266524641245	-0.0103187668668627	-0.00474709614063127	-0.00124710103239713	0.990614855053203	-0.023834449133035	
2382250000	-0.998704201418109	0.0141981198281937	0.00275313566920936	-0.00334023609617258	0.00231090751886465	-0.000948901025720979	1.01148723598117	-0.0100058744303865	
2404625000	-0.998561565791671	0.00442018697160224	-0.00132258910434236	-0.00345799942174356	-1.04411243015399E-05	0.00671094877122597	0.980385744341781	-0.0166423373248803	
2427000000	-0.987481462009304	-0.000279761491160879	0.00343429413552055	-0.000566960439419643	-0.000950549551961647	-0.00323213964054077	0.990356946927349	-0.0215631665042248	
2449375000	-0.98713546781503	0.0115305544870892	-0.00050910035331844	-0.00286618184886542	-0.00278435206256957	-0.00303235318101966	0.972594704339922	-0.000812789996580673	
2471750000	-0.997768413935376	0.01785755255777	0.00861797230498308	-0.00344937311629103	0.00209702549902883	0.000961355018277405	0.990778752604257	-0.0185610597618739	
2494125000	-0.997351514598592	0.00537003478054887	0.00350290141029712	0.00102596661405026	0.00444161245326833	-0.00185922793162771	0.991803392535357	-0.0101367118389635	
2516500000	-0.988907295037245	0.00703774749173081	0.0030929936920932	-0.00311327310235601	0.00372667747157586	-0.00349033956529557	0.988275602276565	-0.0107862841151375	
2538875000	-0.988934866638631	0.0052921122822342	-0.00367386927942239	-0.000237548290185251	-0.00288676503392525	0.00214848989438717	0.983206140237298	0.00497566875850718	
2561250000	-0.989000567476229	0.00732014552571358	3.09558786165948E-05	0.00125013556934848	0.00238456587283633	-0.0019416451787433	0.98426336208895	-0.000374083444672411	
2583625000	-0.997508385330788	-0.00973750297561032	0.00148800530535888	0.00225972382272499	0.000980283395820069	-0.0017379324310557	0.986951048331272	0.00153848302343179	
2606000000	-1.00072467594636	-0.00521117562526607	0.000474786698030855	-0.00324618438725297	-0.00814715850884621	0.00154498580605447	0.980206078102455	-0.00139487057145749	
2628375000	-0.98346961364683	-0.00573139979804538	0.0004354642448337	0.00687384192669092	0.00300911879872223	0.006524974450911	0.983485607691211	-0.00771447478172793	
