!Keysight Technologies N9917A: A.08.15
!Date: Friday, 29 September 2017 08:58:18
!Timezone: (GMT-08:00) Pacific Time (US & Canada)
!Model: N9917A
!Serial: MY53102735
!GPS Latitude: 
!GPS Longitude: 
!GPS TimeStamp: 0001-01-01 00:00:00Z
!GPS Seconds Since Last Read: 0
!CHECKSUM:0467438854
!Correction: S11(ON U)S21(ON U)S12(ON U)S22(ON U)
!S2P File: Measurements:S11,S21,S12,S22:
# Hz S RI R 50
100000000	-0.988852439459075	0.0447335660949108	-0.000478276010109145	0.00030104821232348	0.00432168119323586	-0.00281213695623211	1.00207656983903	0.000369132308915197	
122375000	-1.00113302923771	0.0515694580260238	-0.00322341069612644	0.00256320072319777	0.00106585993328056	0.000148721685575043	0.991595193856653	0.00625059046343036	
144750000	-0.997272735374908	0.0622700831360276	0.00359264892832781	0.00374261319103255	-0.000743758306029338	0.00178406555251845	0.990467388330667	-0.0111105101710653	
167125000	-0.996703336849621	0.064997379172978	0.00133284411097894	0.00153705395153737	0.00479255847964702	-0.00253898818421678	0.996566433472387	-0.00296142941479377	
189500000	-0.986939158049342	0.0818072778490927	0.00210430770267299	0.00180630498657422	-0.00377237996845273	-0.00245727436655373	1.00504893288506	-0.00431274334883098	
211875000	-0.992110326251368	0.0819498292867237	0.000411880889729046	0.00183291691998761	-0.00160694517082852	-0.00229776352325525	0.991918873812413	0.00640690079682005	
234250000	-0.996276847097703	0.0981375277851151	0.00157909725023962	6.9940761471648E-05	0.00437323241890132	0.0010083689086356	1.00035484292768	-0.00136142281201856	
256625000	-0.984988144144431	0.109782531283421	-0.000547828095274557	0.00126120443580226	0.00463877985828579	0.00213340842571225	0.991970727971857	-0.00737368923207903	
279000000	-0.989631795380329	0.110189358881197	-0.00161590795472689	0.00310002969219341	0.00195740241966072	-0.00225741314402742	0.999106142092961	-0.00149672040919877	
301375000	-0.987067695862673	0.128469157841507	-0.00103178570393986	0.00136378866279818	-0.00301270350636306	0.00354555070452925	0.990518853046258	0.00305102889948172	
323750000	-0.987755305776946	0.13401424250879	-0.00366810162871284	0.000937827587685631	0.00100634294257154	0.00142840176667339	0.988677388863163	-0.00521880269175421	
346125000	-0.986262316597655	0.137020022346299	0.0059727629330185	-0.00105199431924511	-0.0102764035127139	-0.00461837448175918	0.996555698455113	0.000209636727454444	
368500000	-0.982215043228565	0.154956671976611	0.00139511225670608	0.00317438437855057	0.00450016128453593	-8.79428493128973E-05	0.995931604987527	-0.0074222952195469	
390875000	-0.97376852191478	0.158806981298208	-3.31130321127617E-05	-0.000564339068783984	0.0058821109588632	0.00176922271771418	0.99704271630457	0.00537719983796325	
413250000	-0.990703470935353	0.171620509264814	-0.000796201580456422	0.00184427559461068	-0.0036836281534777	-0.0010043329920764	0.992533875191064	-0.000151508308267102	
435625000	-0.980986599741095	0.168317593173882	-0.00197013916395813	0.00458390989300198	0.0015807096848794	0.00407621102165386	0.99685837627962	-0.0035077978608237	
458000000	-0.981341697726113	0.179393675879358	0.00345934646826592	-0.00606110563809869	-0.00307094008250361	0.000299955007771398	0.998471334107975	-0.00408615357828988	
480375000	-0.970976666504961	0.194698082281441	-0.0081953054108693	0.00338308823023865	-0.00328303982637921	0.00396100415146187	0.994016824237096	-0.0110171678362153	
502750000	-0.972456719343879	0.207722454173378	-0.00107840334092792	-0.00438106744151778	-0.00240975371337796	0.000740806820965719	0.989830120823448	0.0054135089314828	
525125000	-0.974998985329431	0.211762901467738	-0.00353111828502694	-0.00346241052578946	-0.000456885925260372	0.00142426893571396	0.991420512001432	-0.00411092148965596	
547500000	-0.959996115250827	0.225530833969466	-0.00393393430112802	0.00544386366729152	-0.00325101388592608	0.00378821267676236	0.993212220614186	-0.0126494521556163	
569875000	-0.967866937852238	0.22532309430269	0.00303665262236101	-0.00412306714699932	0.00188623610041435	0.00134364068484776	1.00086208617654	-0.000384351896205389	
592250000	-0.965748277503764	0.243602721164458	-0.00489376891504708	0.00188991960673961	0.00100703735653973	-0.000938137077009063	0.994412615660259	-0.0042124453438933	
614625000	-0.968220390992376	0.239595941330769	0.00336237075162237	-0.00542443399570586	-0.00263289077906589	-0.000725649800057813	0.9956830373895	-0.0120985952790534	
637000000	-0.959724895390503	0.25504746337682	0.000720368585087387	-0.000370563753013472	0.00304713690481369	0.00185968012412225	0.995410071056537	-0.00921117070766885	
659375000	-0.953154469236318	0.257266697780777	0.000521554669945323	0.00203065094941844	-0.000823691449102558	-0.000329069727866363	1.00259150516889	-0.00950094122645876	
681750000	-0.960798427637013	0.268772522035149	-0.00139788844636451	-0.00153006645788538	0.00155188342050782	-0.000173347865660853	1.00085418573803	0.0151035817967415	
704125000	-0.964403132020991	0.281646932471354	0.00447926327077477	0.00197382807088862	0.000718562210777043	-0.00368183891543592	0.989960903891106	-0.00585478801110114	
726500000	-0.951691897761228	0.280720677232268	-0.00270452455824951	0.00305870338711805	0.00268453513255683	-0.00436262175706903	0.997313903645768	-0.0138915925670187	
748875000	-0.933728347159279	0.288436709352654	-0.00146856775118651	-0.000753106852902764	0.00305232017397902	-0.000200413062017923	1.00705484217247	-0.0115002405926984	
771250000	-0.945226562267521	0.306515314670118	0.00101124553544254	-0.00170633804750026	0.000945529156451105	-0.00139661592811621	1.00338860867785	0.000729459379815929	
793625000	-0.950523667667802	0.315794105414028	-0.00194918075568029	-0.00237813317909414	-0.000658597187441587	-8.43580735064257E-05	0.986736637921689	-0.00558002766326028	
816000000	-0.948832923705535	0.319998130361211	-0.000636429541619279	0.00401816485251457	0.00448388017505044	0.0014432441124412	0.99504448518998	-0.0122232290937827	
838375000	-0.923656618416321	0.331901794809208	-0.00477927667010599	0.00239165371408945	-0.000331375620206978	-0.00329997776843491	0.994556956613245	-0.0142769382837219	
860750000	-0.927907118762491	0.332131764494073	-0.000562309154675201	-0.00010805472920394	-0.00292948307456425	0.00256528529398564	1.00838369032828	-0.00656394394567102	
883125000	-0.939320630695911	0.353071219403632	0.000320483754990834	0.000246000247635458	-0.00235364868083983	-0.00668762381020366	0.997421844106045	-0.00315762128843603	
905500000	-0.930442265082905	0.354670425729267	6.265722729781E-05	-8.81588641262735E-05	-0.0014288661379602	0.00164477007298577	1.00168422256676	-0.00231180433683265	
927875000	-0.91850954298355	0.35400020773058	-0.00191169902059799	-0.0007177173674064	0.000470484924098377	-0.0027564211581484	0.994823975951242	-0.00573146385014942	
950250000	-0.918116229475838	0.380637074863508	0.000125656360584879	0.005339894456168	0.00132506286654139	-0.00207619586475721	1.01161235472915	-0.00302057930062276	
972625000	-0.923552956702563	0.380226418286479	-0.00452556199076285	0.00237958711632983	0.000959261642717553	0.00418890155514616	0.991188581251228	0.00629350871060056	
995000000	-0.92415890087692	0.385998569192877	-0.000531963686739591	-0.000119314898078188	0.00229773431429594	-0.000178600115160122	0.985897409907417	0.00672278584890349	
1017375000	-0.90798711586231	0.3967361398174	0.00510519225606016	-0.00377454891634608	0.00478262244172563	-0.00146098911173166	0.985982025175629	-0.0114441824995188	
1039750000	-0.904980915445098	0.407678261115869	-0.00369448179166419	-0.000781915246545318	0.00168937941516432	-0.00814075795226487	0.994978270243445	-0.0127603041195983	
1062125000	-0.90837598487869	0.41589474411854	0.00210053291392853	0.00109220392463244	-0.00323987195556701	-0.00375309778016396	0.999069596063509	-0.0186950962571678	
1084500000	-0.908114217142223	0.412747854398364	-0.00159538121260407	0.000118148373001392	-0.000368704932197962	0.000208094892102224	0.988981188954071	-0.0154763310288913	
1106875000	-0.888097234081767	0.422760067690548	-0.00178988830095244	0.000810808808180406	0.00239645485624079	-0.000987168352077612	0.979617847017	-0.00591434562008574	
1129250000	-0.891418455941999	0.430366049125388	-0.00335760800404924	-0.00647615859639089	0.00293099870686077	3.83407987246313E-05	1.00006709085969	-0.00468077303354311	
1151625000	-0.884204166886562	0.433171770475961	-0.000909624777883582	-0.000562409851198601	-0.00244061530560646	0.002177840506565	0.990233672142428	-0.0125781442645171	
1174000000	-0.891433806174201	0.44599035448738	-0.00185582559637895	0.00633890520274445	-0.00156417062266008	-0.000520895165196373	0.983405090740305	-0.00124887315229164	
1196375000	-0.874990428202405	0.462639688181515	0.00842861311241186	0.00371931276924	0.000276215829473502	0.00358918548732935	0.993444151185987	-0.00465853433193009	
1218750000	-0.871179900197797	0.46728586669544	-0.0063879860023655	0.00458113399726657	-2.22954141431408E-05	-0.00445323981314622	0.988558003867846	-0.00360898740704144	
1241125000	-0.867358831959037	0.490654145969356	0.00207672481823894	-0.00320357088976252	0.000961859989810534	-0.00323522772847018	0.992896212054767	-0.00433362406200188	
1263500000	-0.871226134021891	0.487922206240841	0.00795218099848637	-0.00463291280047053	-0.00387330305875343	0.000751477088685737	1.01405529926592	-0.0015766801568268	
1285875000	-0.870041487445817	0.481159145027475	0.00396453704994931	-0.00120873844714412	0.00755132084944791	0.00200806083696346	0.984793023811813	-0.0119047595206297	
1308250000	-0.851760895935944	0.502564035639729	-0.00400119571272291	-0.00300520143106973	0.00580861831235621	0.0024196156592299	1.00353564955475	-0.00424862436963903	
1330625000	-0.847305720310746	0.514069716152756	-0.00145168899857241	0.00217724288392476	0.00146486086574599	0.00144852708382037	0.998310495978348	-0.0112409734439249	
1353000000	-0.855159832863644	0.517416284890176	0.000693850852056846	0.000368108845262878	0.00184796510342911	0.000144484640183851	0.99706572374191	-0.0135787702012428	
1375375000	-0.855488937504078	0.518724583614749	0.00426986882604352	0.00289051628963025	0.00244603937176285	0.00261802350867292	0.987813740809272	-0.0228326738433939	
1397750000	-0.82523430862854	0.52444981833004	0.00719398019678254	-0.00102861592912979	-0.00198774424037399	0.00340699509069468	0.986273130156418	-0.009677314688679	
1420125000	-0.824210239977311	0.553849192077755	-0.00107227189314333	-0.00114780076102765	-0.00769001673049756	0.00287256388020628	0.992294998284373	0.00102782112692853	
1442500000	-0.823310359620145	0.553367165267514	0.00325105163742625	-0.0043066350685756	0.00277703900486612	-0.000821589419444435	0.987849392620266	-0.00820201861264601	
1464875000	-0.835643181705145	0.559096588444189	0.0013078165990623	0.000163628034800484	-0.00135321272401102	0.00331167964444659	0.995692979571766	0.00381621356548724	
1487250000	-0.813294312994555	0.543466649678657	-0.00125841595759932	-0.00467974467693548	-0.000303798312038604	0.00776557027554509	0.97614970163688	-0.00697303877144824	
1509625000	-0.816993821278265	0.563488326201763	0.000432448711023167	0.00333382430813396	-0.00365292546146579	-0.00167350812132021	1.00116846486106	-0.000846056757078491	
1532000000	-0.810760569851523	0.5784743065261	0.00118916828447874	0.00422386882152184	-0.00315407412227271	-0.00436785508369283	0.989328281454314	0.0039446199322473	
1554375000	-0.807942598926775	0.58474385336943	-0.00140268066895992	-0.00253462843742433	0.000579486525867947	-0.000193222378889757	0.988213909589076	-0.0056321607082932	
1576750000	-0.794318263686734	0.582345561018745	0.00335345950645398	-0.00379973342613211	-0.00655418188132283	-0.00640950087127716	0.990191580490638	-0.00290159028553662	
1599125000	-0.775165892638298	0.58916416744949	0.0011364783338884	0.00247771484589426	-0.00168038114659048	0.00877523386437487	0.989304778555402	-0.0128641638673255	
1621500000	-0.786010373774952	0.609301279874526	-0.002030873413023	-0.00226248638441516	-0.00701214181004935	-0.00370558341924747	1.00451561057885	0.000928769114844355	
1643875000	-0.793348089761871	0.611154875924594	0.000657462254387025	0.000104004713847911	0.00373824739895078	-0.00140912183677141	1.0017484010839	-0.0109783669009995	
1666250000	-0.779336280691489	0.623122580283264	-0.00464071515031355	-0.00711038389878878	0.00534512260289539	-0.00183910355015827	0.992535968936103	-0.00741810335579693	
1688625000	-0.766722072501262	0.622125982157027	0.0101511215768425	0.0014420610293976	-0.000460132801974332	0.00279475463861097	0.995400819652968	-0.00122664099676263	
1711000000	-0.761775838789258	0.632994334154357	-0.00135801507803688	0.00183214901747523	-0.00185200925240492	0.0045780236359483	0.990707255823111	-0.0140308271682067	
1733375000	-0.749217253161041	0.641350057891562	-0.00535731473889671	-0.00129334263895117	0.000331666679489283	0.00331472478198071	0.988026614785963	-0.00427415955520563	
1755750000	-0.761906061220666	0.641477390179937	-0.00417423204981532	0.00168392697710713	0.00694993898093422	-0.00574482782728087	0.986313164369809	-0.00674111729906595	
1778125000	-0.743774242647864	0.650762407289016	-0.00177968927170655	-0.00276297236788105	0.00149889188190407	-0.00610129288570526	0.998477034938109	0.00426027337563893	
1800500000	-0.73216214426596	0.66976746774646	-0.00204444159311646	5.80038907046053E-06	0.00152441470115318	0.00110196612131901	1.0021544016871	-0.0198272212993551	
1822875000	-0.740362016488467	0.665072369353896	0.000539465311783626	9.05757684491261E-05	0.0016618136613929	0.00128307947165446	0.987549668929735	0.000888694389897235	
1845250000	-0.733179068358652	0.673035601237128	0.00580612339301277	0.00176260154387625	-7.71450792249348E-06	-0.00169588958690937	0.977623469166518	-0.00744251264037561	
1867625000	-0.713580589279972	0.671873033725379	-0.00575331812310924	0.00401451210932183	0.00307899905958404	-0.0046311969067691	0.991761297638356	-0.0226270832064545	
1890000000	-0.714121299179603	0.682037571848187	0.001364579670044	0.00155037847829089	0.000209092824954479	-0.00149086004287111	0.997357572609918	-0.0100555518823134	
1912375000	-0.714035444520015	0.692155811776486	-0.000856601971842544	-0.00294032183752427	-0.00487662346977245	-0.00258172781438149	0.993347744808459	-0.00854386936295853	
1934750000	-0.701841155929225	0.698439211260747	2.79488918702352E-05	0.00321014943879926	0.00803207853161953	-0.00183173099097133	0.994515231325918	-0.0150080192167104	
1957125000	-0.698368788441904	0.705006642567758	-0.000420286935495912	-9.88536186342982E-05	0.00308222801911037	-0.00101713742426656	0.989998610530129	-0.0254595877976626	
1979500000	-0.695353952521093	0.720512768007427	-0.00193916971457844	0.00221292391780406	0.00045660818952433	-0.00110984875169439	0.992942627776679	-0.0170351880157782	
2001875000	-0.684378276473542	0.720751572860265	-0.000907565053555762	0.00639383040666669	-0.0021066429898384	0.0014018732359534	1.0025673748387	-0.00825185614988041	
2024250000	-0.689231590305028	0.732935043442685	0.000958156679880925	0.00113618614192545	-0.00227090381972216	-0.00180247721980671	0.986663734978742	-0.0126446944457143	
2046625000	-0.667285334798169	0.725243615617467	-0.00242312898536263	-0.00388405153335615	0.00819646870691617	-0.00314539689083565	0.98924388270477	-0.0204484551526638	
2069000000	-0.659490807353318	0.731440060848796	0.00353548802013634	0.00148530717142008	-0.00346733827650092	0.000570579699692628	0.993417487965156	-0.00552806742047872	
2091375000	-0.657817939812663	0.740583597575868	0.00178730552742207	-0.00155736733558459	-0.00344118422429332	-0.00195684388105444	0.997364527520589	-0.00455433292083829	
2113750000	-0.655718170077668	0.751306511088421	0.000131359094835581	0.000299181484188138	-0.00143089397235812	0.00122531067358305	0.974663605365363	-0.00865635599681328	
2136125000	-0.655020527349205	0.750611840504142	0.00223628219412784	-0.001145865568119	0.000785655417343637	-0.000700695722766546	0.980651137083077	-0.0168435289728643	
2158500000	-0.639613950758856	0.75617372729454	0.00388396986064361	0.00423879700320663	0.00115654505149144	-0.00200263089705985	0.993083483229347	-0.0141978348465868	
2180875000	-0.633443790502371	0.757873659808694	0.00402369617702722	0.00139290211537344	-0.00216446227051977	-0.0012904918401395	0.998354491822907	0.00093527763983639	
2203250000	-0.622420650977449	0.779676259970052	0.00516899948677092	0.000398474898143326	-0.0010343468398983	-0.00600493923432214	0.989676291607364	0.00801763770111366	
2225625000	-0.632828505138876	0.766438969987571	-0.00167108439624687	-0.00190247031069593	0.000366524912831594	-0.00121894853633751	0.981153601180808	0.0118111528663382	
2248000000	-0.607337165890308	0.77814030625132	-0.00502855350140764	-0.00334911461508794	0.00446729024252549	0.00509352614922861	1.00171272826044	-0.00815082068950495	
2270375000	-0.594937763782416	0.780989296193739	-0.00432349279010988	-0.00311362761410206	-0.00146250788395858	-0.00219029090403891	0.996683793332771	-0.0085757222598786	
2292750000	-0.613641599389341	0.793435138541182	-0.000806660571529505	-0.00697878898289343	-0.00547594077245386	-0.00386511458834666	0.990478387485847	-0.00778669434467675	
2315125000	-0.606072319939287	0.794760781925838	0.000129666737668401	-0.00298845759248195	-0.000478659592124673	-9.9605079023398E-05	0.985533474007805	-0.0113514178041745	
2337500000	-0.58398500584287	0.79606636575412	-0.000101771645486083	-0.00289779935553774	0.00140523972246176	-0.00236824165852696	0.994764707091734	-0.0258658392442542	
2359875000	-0.574734363175139	0.807445285090513	-8.55549888071337E-05	0.00087801462601815	0.000639825936440954	-0.00148104477732875	0.991627208216331	-0.0239786710085377	
2382250000	-0.562472393795271	0.816735582808377	-0.00119234295609599	-0.0031827038715896	0.00203456541323221	-0.00106707405524522	1.00784567914218	-0.0127920196472426	
2404625000	-0.570789425557086	0.818500833208929	-0.00243731473209035	0.000385224761465771	0.00159686048671537	0.00120977408005512	0.984394918827995	-0.0163863849068201	
2427000000	-0.5535539688725	0.821050679401774	0.001302760423983	-0.00320177789544807	-0.00439720266587464	-0.00423175557245465	0.992168681611229	-0.016038665762125	
2449375000	-0.546579625344634	0.835163625987037	-0.00577289893858047	-0.000429741770122294	-0.00282388692605201	0.00261375919506963	0.985216662057223	-0.00350686272071098	
2471750000	-0.542033628373193	0.84717872234231	-0.00778190505029629	0.00107467226732886	0.00146422986933075	0.00070317448533014	0.990666829390612	-0.0196584965735626	
2494125000	-0.53917406787161	0.840997640643852	0.000233939570506453	0.00752148561630412	-0.00194239050680962	-0.00116347067172171	0.99245737678318	-0.0109042532294649	
2516500000	-0.527115315461293	0.840210630897285	0.000133253115319583	0.00281041041432553	-0.000414710079002187	-0.00358840931879736	0.988728354339507	-0.0131667740378961	
2538875000	-0.512608858445022	0.849528004216259	0.0043044472687563	-0.00621483624494152	-0.00675818012674262	-0.00043004941030813	0.990066479291576	0.0130371877236242	
2561250000	-0.504141357699606	0.854543606186289	0.00100405318270622	0.00542391496711883	0.00507293743899093	-0.000440577760562895	0.988771668871222	0.00816346799366387	
2583625000	-0.507410380678463	0.861820914281604	0.00329845384227128	0.00179306804797356	-0.00418950826352365	-0.0047448052447888	0.997750192314012	0.00469994211567159	
2606000000	-0.506131480375448	0.862388312653642	-0.00163491185545525	0.00372221104238424	-0.00200095034444467	0.00136509973932523	0.977935956545136	2.11860906906707E-05	
2628375000	-0.483772791423944	0.852929458449743	-0.00067739342648163	0.00317502618150264	-0.00330264403270859	-0.000821655628737912	0.99568635134618	-0.00756746923113713	
2650750000	-0.476755773768522	0.852878617454253	-0.00160895947235832	0.00751134243742472	0.00177954592407175	0.000930058271939699	0.987251790443018	-0.0186772054562605	
