!Keysight Technologies N9917A: A.08.15
!Date: Friday, 29 September 2017 09:26:34
!Timezone: (GMT-08:00) Pacific Time (US & Canada)
!Model: N9917A
!Serial: MY53102735
!GPS Latitude: 
!GPS Longitude: 
!GPS TimeStamp: 0001-01-01 00:00:00Z
!GPS Seconds Since Last Read: 0
!CHECKSUM:1383951784
!Correction: S11(ON U)S21(ON U)S12(ON U)S22(ON U)
!S2P File: Measurements:S11,S21,S12,S22:
# Hz S DB R 50
100000000	-2.43288548555227	148.381218515487	-33.177344591634	-116.879698620065	-63.2829218277128	-44.2782803144107	0.0295762382193863	-9.12270457929284	
122375000	-2.44310003725272	138.094854055934	-31.1612654007894	-123.875220544608	-43.4391244578459	120.670824883838	-0.24632868493104	-11.1179547671247	
144750000	-2.78594781388131	128.913613861481	-29.3194671827243	-126.982898433115	-65.5463521518096	141.095551766363	-0.213010530671712	-13.7979186513118	
167125000	-3.05385820722599	119.286431673587	-29.4667655476166	-139.643550187007	-54.6482303290788	16.096140991498	-0.0256898302516824	-14.8884735861525	
189500000	-3.15512644552575	109.584026765234	-28.519500377732	-147.665994224869	-53.3929926983932	-27.6031261621406	0.00125297273901074	-17.371575134493	
211875000	-3.16775493771105	99.693798595657	-28.0584941405806	-157.027205478327	-50.0075478760487	143.847618480575	-0.0786327754397355	-18.5964260510341	
234250000	-3.51907317396294	91.9265404800232	-26.8318772521543	-151.315226292689	-52.3849315806116	-111.866998338031	-0.145071594499537	-21.4974175179144	
256625000	-3.87060107829955	82.526072845215	-26.4039348928624	-164.56677984311	-53.9283107234608	32.1484406337066	-0.115551881680899	-23.9601431725203	
279000000	-3.75483730301748	73.1964081684019	-25.4817641605082	-164.625092168361	-56.4133603807403	-110.184383934212	0.0106481966155117	-25.1825593346501	
301375000	-4.10008788085825	65.8856543483608	-25.0303887355668	-174.247705673678	-50.8904166598187	-53.7011708170934	-0.00595779416267972	-27.1878164648478	
323750000	-4.36243048301736	57.2695686992335	-24.7860075822438	-177.462607047952	-42.4775096704524	-171.72705701154	-0.283992446143923	-29.5247738594648	
346125000	-4.53341495774496	48.3723295612923	-24.0886732708437	176.066277234437	-43.1140179722248	-104.700029572586	-0.191269427360704	-31.4627822390259	
368500000	-4.45680239780772	38.8080501344423	-22.8116750670657	172.291402123338	-59.5306766370406	97.2469334522718	0.00101065649753471	-33.5211754160384	
390875000	-4.54020587008753	32.0339152539762	-23.3591275624736	167.425071228563	-44.2130594619442	-99.5299859498411	-0.0357714591731849	-35.0683827498793	
413250000	-5.12496656374374	22.1288035501521	-22.2449494942368	164.359009752517	-49.8560872252881	95.6813800640092	-0.223356397400566	-37.5580639027582	
435625000	-4.9182298431682	12.6360274858061	-22.2281973557661	151.126448258797	-51.0291972882533	-43.3244201565502	-0.0841598133116495	-40.6944638145318	
458000000	-4.86291931939054	2.9086617585426	-21.6887519656291	151.816279125826	-47.4703364978052	-109.759881798989	0.0444110698421346	-41.1075275389294	
480375000	-4.99737698952881	-3.63298468970517	-21.2020837728139	147.891202746927	-51.6373507750793	46.2879505084017	-0.0941602428709618	-43.2616310391738	
502750000	-5.23036960085988	-12.2014439237029	-20.9220845530408	142.060316229104	-40.4925943372169	-50.0863418969233	-0.216085566548414	-45.3003910808263	
525125000	-5.20331154361318	-23.4165863260308	-21.1330407543157	134.410365923283	-40.5901370604488	-105.411010838308	-0.0821437686450909	-47.8138995971904	
547500000	-4.78684196254577	-32.5565830027473	-20.3236985667177	130.361786352306	-44.5645655816033	42.757630301538	0.00771013953046353	-50.3741488759012	
569875000	-4.78829925302798	-39.9541464235025	-19.3974682136587	121.732936096256	-44.4948404633074	42.8393053518319	-0.0789928506403131	-51.103063639224	
592250000	-5.04827498763216	-49.7656867985774	-19.6082620410216	115.600228849714	-48.1619347256496	-179.439626215486	-0.242338945971918	-53.3224115386026	
614625000	-4.93285658310192	-60.47427649336	-18.9429785797948	112.057100199728	-47.6704594100815	136.638912777633	-0.229096731225649	-56.2886604963874	
637000000	-4.42693516629545	-70.5277725989022	-18.6812024357135	106.159931169253	-55.1274000128874	102.711383169294	-0.0307147520759961	-57.707363510759	
659375000	-4.09768447395458	-78.1870554342718	-17.8987688745003	101.429410470838	-45.8648075131923	-12.9764879461353	0.0233480396546655	-59.9875114778424	
681750000	-4.28248580772773	-89.1186190584728	-17.7899508539662	97.4835974681491	-47.6581347029198	-116.442723691291	-0.210633041307359	-61.4713276932456	
704125000	-4.02018120989141	-100.556517092349	-17.764378179883	87.0005900140578	-45.2932291395506	132.277277748339	-0.283555556543667	-63.4752270823641	
726500000	-3.46464925029322	-109.182235116956	-16.9081182029534	82.2347908863766	-49.7588312994415	-9.79697445716431	-0.0472032339564069	-65.4147153556764	
748875000	-3.61905290890542	-119.569137390535	-16.9718479232048	73.6685574407555	-46.8294688591161	143.107377429122	-0.0646528183194153	-68.0699985141489	
771250000	-3.43077845002314	-129.725843644184	-16.1856067592017	70.1512466285182	-44.3064651356242	-69.1866606381278	-0.210279032822993	-69.7278840611324	
793625000	-3.05368667394053	-140.378082088049	-16.2063584755457	63.1370571965292	-46.9363731506695	-98.4263276807388	-0.327936989495721	-72.2374958947254	
816000000	-2.82554764225164	-149.743353925509	-16.0931574906504	54.8309779226005	-47.9529628267132	-8.10478232092344	-0.151552787694377	-74.0302159388411	
838375000	-3.07051593137337	-159.469561605661	-15.9640319979934	47.131040436939	-52.0300315539267	-56.1392676451021	-0.00712244348149525	-75.9631518832449	
860750000	-2.82512240750055	-170.627085413315	-15.7964971645307	37.5279099912606	-48.6428846241694	-175.976225800275	-0.207065653382415	-77.9981311601461	
883125000	-2.44534973176877	178.67153372635	-15.3324195190922	33.8618957441371	-41.7867568812879	-135.607282358611	-0.284503998079352	-80.5872335128449	
905500000	-2.43752760424807	169.338675868767	-15.5995232941878	26.7185871731177	-44.9483675300915	124.014543728901	-0.0583233491137439	-82.4205932802052	
927875000	-2.61096248039953	158.873744008053	-15.7779880824835	19.4366124760014	-54.8516185522477	-131.597716635997	-0.0369545654570269	-83.9786339866895	
950250000	-2.47094428376976	147.637521980377	-15.7461409220356	13.0079375970975	-45.3081897546236	142.199974275343	-0.216539422931358	-86.5399193377921	
972625000	-2.36094060181147	137.797744147559	-15.5497739027732	5.9556098254405	-41.5578694357504	-102.518065154455	-0.300752095215885	-88.7561334369165	
995000000	-2.59067208778026	128.663728725192	-15.5094970357773	-0.780249863479932	-43.2984612486318	166.281745959563	-0.0316541998622194	-89.5605041172484	
1017375000	-2.85095200546124	117.406708656551	-15.3455117401442	-6.95885851250849	-50.4158245788928	-149.954469395444	-0.116243086650616	-91.8356350131696	
1039750000	-2.66023368424799	108.518625437809	-15.8666568211087	-13.1531315780013	-48.0388081258261	158.247324819804	-0.19842576364554	-92.8846573800844	
1062125000	-2.94709494179113	99.2550815942452	-16.0230450089247	-21.0475137187702	-51.2647053475733	151.18329814401	-0.262724087933506	-96.413728921562	
1084500000	-3.02606804908825	91.4026691144566	-15.9692795275197	-25.8918161569432	-59.661998106737	-178.93794093061	-0.356260494301725	-99.191056897721	
1106875000	-3.3329426994945	81.0491309885861	-15.9099108233736	-33.5016825606321	-45.2613788662384	68.7335184603091	-0.0554758690574691	-99.2355384181098	
1129250000	-3.41867151520885	72.998097532081	-16.3854301481287	-38.8479342365864	-56.6648898704304	-166.41244090777	-0.100297734277138	-102.499339635444	
1151625000	-3.33307243539251	64.7603025742963	-16.4540603602686	-44.8438846379164	-49.2885690329364	72.2538409077044	-0.361981225489182	-104.247959018687	
1174000000	-3.98955008423009	57.7556092240679	-16.7845058167846	-48.5671530022131	-42.3822691836735	-161.36947381671	-0.188358453123481	-107.444515924187	
1196375000	-4.08341480899572	46.7802344236715	-17.1021432444614	-55.3860081226741	-48.6800536533394	-77.9108468657201	-0.109871896440119	-108.228885389971	
1218750000	-4.10998704858048	39.2144427198021	-16.7059131243597	-60.7378010445591	-52.1815728808906	126.250684706941	0.0046988431456845	-109.946450455846	
1241125000	-4.12852451219173	32.7867188443968	-16.8592876535435	-65.4124346872609	-56.541906300037	111.828320565187	-0.191324446068937	-112.387063250857	
1263500000	-4.45723904134688	25.7327894984678	-17.4230670333526	-72.2372323264316	-54.9673853305535	-89.3432712443276	-0.494066728569322	-116.851208111181	
1285875000	-4.63654321448685	15.4062108660111	-17.3873923973292	-73.4833081882157	-43.843925578653	-12.0188747347933	-0.154692714721531	-116.83929829421	
1308250000	-4.50206503371952	8.53791612275415	-17.1831473117218	-80.08004718816	-52.5325518055084	128.680522891657	-0.264933803312197	-117.808240986487	
1330625000	-4.66723169665071	1.97925431776938	-17.4376335753922	-86.3727789092284	-53.0372965487464	101.850207134544	-0.260028020103903	-119.86305080077	
1353000000	-4.87342700013021	-6.255974174786	-17.643190099793	-89.5829780392315	-54.7879928320914	55.9126867899191	-0.340368718408537	-122.679041216406	
1375375000	-5.21909682102241	-14.51082548311	-17.7239374567818	-92.9773974874116	-44.7623453181102	99.9863901338279	-0.184291437093073	-124.494889964762	
1397750000	-4.74261493672202	-23.2547197386621	-17.3984512740614	-97.9978490430991	-47.97557422144	121.457909276229	-0.0131030242162551	-126.250777881441	
1420125000	-4.79043841590129	-28.4902999044451	-17.6126224660913	-102.812437441117	-44.8048242128419	100.256407003787	-0.39133425813446	-128.296064126995	
1442500000	-5.08932353905749	-36.9740330405461	-17.5453773684552	-106.05691314912	-40.2898184995009	124.451719718014	-0.279980259355061	-132.574404610559	
1464875000	-5.11176923594781	-45.5248126236295	-17.9902272514617	-111.797955731409	-48.890247593651	-178.043904293103	-0.298149941689373	-133.247114458103	
1487250000	-4.66525462958967	-51.9074361438441	-17.8260337223525	-117.041085357372	-50.3827981925724	56.0425473083533	0.0245190258682861	-135.246694752497	
1509625000	-4.764138565758	-59.2504208951973	-18.2131835358185	-121.681632451832	-52.1068362171849	-164.655443431394	-0.341974468618772	-136.832626535932	
1532000000	-4.98270441023114	-66.8596080872932	-17.5453241452022	-129.125029213431	-48.7284953207615	-110.200320197173	-0.312019701294847	-139.28661664633	
1554375000	-4.7397632374616	-76.8244859540058	-17.7655386821326	-132.59652805296	-45.3447501413159	-36.1547544957402	-0.221466575412167	-141.725023328909	
1576750000	-4.52785872248585	-84.0159090483631	-17.6339413268778	-137.528177199606	-45.5768123801675	-162.465240955934	-0.173757364349895	-142.773681016367	
1599125000	-4.22606563177022	-90.8654208127429	-17.8800911085165	-140.681015651271	-51.67914797109	97.8498113211852	-0.253932705572806	-144.582508258432	
1621500000	-4.47021364121833	-98.7887406695165	-17.5414277639271	-149.878864533186	-42.4369738672824	-44.1865548197522	-0.45013062521066	-147.846881988356	
1643875000	-4.12781154904322	-107.243868424264	-17.877662737043	-151.783213448969	-50.010891282041	-40.9414167086217	-0.325438468812658	-149.148651731142	
1666250000	-3.75518690919972	-116.444497544641	-17.7294760393884	-156.940838647945	-48.9518488030501	0.176150857302845	-0.0421814088143074	-150.495814442778	
1688625000	-3.53531320021229	-122.874629157737	-17.4750517006593	-162.097140186085	-67.2750917916784	87.7702096141405	-0.239544461500593	-153.387187627336	
1711000000	-3.62083106230375	-132.519600209261	-17.5342304615524	-165.158087303296	-47.5707230062937	-76.4744163895695	-0.383623128419797	-155.317501092441	
1733375000	-3.49872654038079	-143.413119265586	-17.8894967022893	-170.729195010254	-49.4599897562367	-45.7569657023798	-0.251461725050282	-157.437116811719	
1755750000	-2.91090155770614	-148.714464097527	-17.5284348916326	-177.579034405697	-52.254510502098	81.293337347055	-0.252107203852124	-160.253841032243	
1778125000	-2.78899012678524	-158.183272721232	-17.3088180479888	174.587421500996	-67.2928715979698	-156.373321664578	-0.280810564977803	-160.961630173095	
1800500000	-2.87887229777144	-169.107444619329	-17.5370609821228	169.132349060365	-46.4601511068198	3.98522734670107	-0.430811444418801	-162.361283507696	
1822875000	-2.57856144586353	-177.289304311273	-17.2608170943044	162.88192587838	-47.9341790071618	-79.3233524125079	-0.199963059379533	-166.379927531959	
1845250000	-2.35807093321475	173.773956384588	-17.5786452087725	156.934582344272	-53.5246003441228	-48.7819025409403	-0.228439244773091	-166.937245637856	
1867625000	-2.38886295043914	163.395645552439	-17.2407344208613	147.943365993904	-46.3155864023546	113.292565951814	-0.230662167501747	-168.817740063675	
1890000000	-2.35813504038787	153.38239170548	-17.6789878774399	144.460503711343	-41.7355736204144	-124.601125915034	-0.349316711733889	-171.575375706012	
1912375000	-2.18510538871596	142.264827682111	-17.9351594226751	134.914627623377	-36.5096527769652	-21.6736904361091	-0.305783064999391	-174.080100603587	
1934750000	-2.11844098000777	133.324229750611	-17.8546045416133	127.287118658099	-47.0651484534908	-92.7708784170722	-0.19004083710212	-175.19117107575	
1957125000	-2.29878513674515	122.533349585789	-18.6106449820404	122.193400410241	-51.8032254330817	48.7752366349441	-0.269139623772036	-177.212214370944	
1979500000	-2.39631755345274	110.175617584463	-17.949160591647	112.706536984574	-53.8491412156935	58.9770459684136	-0.298445053506902	-179.458063639399	
2001875000	-2.50172047840731	100.699904309817	-18.8313662218072	104.007689002658	-53.5757590474279	23.5858692637163	-0.428459956519249	177.014360712245	
2024250000	-2.65093937451173	91.1265076624907	-19.4216754218128	97.3608785419493	-52.09660922203	-26.4215006573918	-0.291984812490796	175.271686156138	
2046625000	-3.20752933814157	79.1352083475703	-19.7625196949117	93.5223117029355	-58.873278433628	-150.73157189061	-0.192371644654503	174.427336028424	
2069000000	-3.3326395989514	70.2260728639616	-21.0205355882206	88.260966768821	-47.9354298490346	67.9755630888518	-0.406739060871965	171.594521768896	
2091375000	-3.56490821005844	59.5077785807906	-21.1723783812546	75.6539374201821	-42.8684320867618	-79.9839965005347	-0.552287775927744	169.088169815119	
2113750000	-4.15432779947595	48.1384971114903	-21.7668727972871	67.1929515472101	-62.5955238752418	101.506744759355	-0.135520447070128	167.15713923241	
2136125000	-4.48063800285137	38.5598586138942	-23.1409024960024	64.6625757615799	-45.631395845065	150.625131146649	-0.176669850210824	166.04940000597	
2158500000	-4.80209822831832	26.2047258652059	-24.4492205245365	52.8337490723468	-45.2606478790859	17.1144312367703	-0.317754126294076	163.859942783452	
2180875000	-5.11610564727991	16.3753029738285	-25.3793137863729	54.7328987334564	-49.2341431383638	-18.9964579383638	-0.510053431728505	160.394551155912	
2203250000	-5.81104331126889	6.43741429981695	-25.9210722881549	55.89643692744	-53.1122955389829	152.2976223669	-0.220100125083356	159.068766224753	
2225625000	-6.03972037926765	-5.35850794528681	-27.4466666205077	36.9842880081817	-49.4258933904256	81.7548316219496	-0.245701113725124	157.216894829353	
2248000000	-6.16877025201697	-15.8735667128649	-27.8788508964741	40.2463816022228	-56.0484606209171	-145.157689704767	-0.321771775063887	155.629018047656	
2270375000	-6.46999033886886	-24.1671627206718	-29.5025315880436	32.5045485670139	-48.3249684171	-126.255020690705	-0.429490798253738	153.365056026649	
2292750000	-7.22376886215221	-34.9992532861393	-32.6922644950507	45.0249015927675	-50.6201853380425	74.4184005358864	-0.326713409564484	150.22782858299	
2315125000	-7.23338922855141	-47.6691110232642	-35.9871965883173	32.0237660853627	-56.8804735342942	39.5179331551102	-0.269537857651288	148.805827275292	
2337500000	-7.27230872297886	-58.1586242098319	-38.4798453419295	30.7516179331245	-61.027130479115	78.1891938887373	-0.346064033055481	147.627589726873	
2359875000	-7.42286710740122	-65.7383931609314	-44.9591319810001	17.2405630107868	-40.5417433504894	-141.697041856222	-0.469014242613702	144.512392602194	
2382250000	-7.65610753273956	-77.6146078740824	-38.9685966614253	84.9986268090013	-47.3214800970494	-0.291135882170788	-0.343800075475204	142.467885460219	
2404625000	-7.62215769853699	-87.6737200691698	-40.0623584100482	109.286723992892	-52.8640205893998	28.2547913614949	-0.244765744239648	140.592357132581	
2427000000	-7.09650771478133	-98.9295756233214	-38.2947741095301	141.372317131277	-49.1196127335241	123.237283018855	-0.28718144271972	138.222485814804	
2449375000	-7.31522884189682	-105.753594920777	-36.5860836475882	125.450458508053	-51.7444594832419	4.18867172987773	-0.449558797992472	136.078537321449	
2471750000	-7.27341596682913	-115.912586926726	-32.5586682365403	147.418065587527	-46.2980517644273	131.517789936405	-0.39859672309656	133.150029552719	
2494125000	-7.14648499733066	-126.436479132194	-32.6791035778855	118.025513475465	-50.8614944084913	30.2451498580386	-0.196338374970509	131.1197015106	
2516500000	-6.68271769353251	-134.770683388176	-29.4465159922295	136.097180392165	-45.1087390562733	121.648084313757	-0.344385809663039	129.939296020861	
2538875000	-6.41091477195269	-142.177090508769	-31.7872768024274	137.212090201958	-52.4478807767986	-91.7909710497097	-0.445067510367188	127.502525826747	
2561250000	-6.59664538816511	-150.633043049791	-26.2882658783551	115.897279791079	-38.2782917887535	130.636487281272	-0.393510420647776	124.76202585659	
2583625000	-6.05344955210655	-160.627969279011	-26.5459825229723	118.656070180939	-55.2620023776305	-13.4490260285121	-0.322127575411579	122.76098757798	
2606000000	-5.5509073093802	-165.656360582335	-26.3690756560286	116.689646622367	-47.0871066294541	-173.818375762197	-0.37491807825084	121.444032096111	
2628375000	-5.4381948685665	-172.332029688136	-25.3025156771678	115.662347120471	-46.848417078694	-25.3323849164691	-0.439405961096612	119.057251722462	
2650750000	-5.36993794712426	178.826672458196	-23.7495611414318	112.383970641191	-46.1460618029566	-32.9156689155209	-0.461609842093704	115.769252668877	
2673125000	-4.85660108613123	169.745461043865	-23.038128594586	110.201147187913	-49.126040308574	14.9499100775105	-0.356509480921771	113.790571785825	
2695500000	-4.37298876991373	165.181025560016	-22.6049980803155	99.3535598419176	-54.9053609956691	-134.447306630814	-0.331897673271896	112.546745614794	
2717875000	-4.15102977239608	156.639828651734	-22.1275773253308	95.2961014363997	-48.3293171480672	176.303627848468	-0.461599703598666	110.095965801325	
2740250000	-4.36153314230662	149.138018333157	-21.9908391112182	95.3439137355632	-45.2953067391805	-87.3971723936351	-0.505323950243129	107.542230194814	
2762625000	-3.74846318006124	141.643380058187	-20.1782904562793	89.4226340706082	-48.5004641878526	8.87182731466015	-0.356350962673028	104.419526613359	
2785000000	-3.33348806412514	135.380321935294	-19.8409591225766	79.0866995906225	-45.8500553333601	-172.033615858126	-0.296000565665416	103.301970129858	
2807375000	-3.29137932165315	128.722254939647	-19.0652417165031	72.1064797674759	-54.1111087074737	-102.462571449147	-0.367312722606225	101.548250513096	
2829750000	-3.22061287146099	120.264354295465	-18.543573477926	71.5156065903099	-61.9041247898882	33.4278425715975	-0.502284013921426	99.0319362972117	
2852125000	-2.6911424398037	114.832559957142	-18.4009376599692	66.6621730112131	-56.6325115401476	51.4427926457265	-0.407768906628454	96.5674421724664	
2874500000	-2.55184854664498	108.061861983644	-17.6602982322886	61.4996393359479	-68.1140028457155	144.602079928361	-0.314280543678338	94.6822822588741	
2896875000	-2.59534856758657	101.145961407342	-16.9547769389942	56.9283757034136	-43.025161805638	43.2229191683516	-0.489297316762913	92.3493634510408	
