!Keysight Technologies N9917A: A.08.15
!Date: Friday, 29 September 2017 09:28:03
!Timezone: (GMT-08:00) Pacific Time (US & Canada)
!Model: N9917A
!Serial: MY53102735
!GPS Latitude: 
!GPS Longitude: 
!GPS TimeStamp: 0001-01-01 00:00:00Z
!GPS Seconds Since Last Read: 0
!CHECKSUM:2144560541
!Correction: S11(ON U)S21(ON U)S12(ON U)S22(ON U)
!S2P File: Measurements:S11,S21,S12,S22:
# Hz S DB R 50
100000000	-0.0693548532332139	-17.2507750954888	-50.9861202230481	141.88604843598	-59.0545365279656	-131.454414710738	-0.00170418427050822	-9.22275636647503	
122375000	-0.233800978968148	-20.3557100016544	-42.2885067759968	132.976553081726	-48.8146843729564	43.5975019516642	-0.182630814608566	-10.7484580702136	
144750000	-0.253499180150548	-24.8865333749427	-41.4682915831462	81.0640406063883	-42.3452842127398	32.6706532282742	-0.221279737070026	-14.1991094324026	
167125000	-0.0640705314746706	-28.5342812113125	-46.8796969435546	2.5175495468911	-48.7742567037912	70.1967525665668	-0.0292801930796046	-14.9017077127668	
189500000	0.000899863990128029	-31.8498585651245	-77.0103936112109	-143.806517750332	-58.5423557130673	100.137556587347	0.0106068081863737	-16.9846393244302	
211875000	-0.332957554797914	-35.2339230385816	-55.138541421391	-41.5099278147093	-73.4504488511779	90.6068275389986	-0.165744026499114	-18.6769847509157	
234250000	-0.370140570028917	-39.4105930287346	-40.9909582928784	178.005740178314	-44.7339929556257	73.9858222634078	-0.180651068790309	-21.9040188470435	
256625000	-0.107937531133607	-44.5872637709198	-41.8225136240822	35.9974858290697	-49.7470757767255	11.9904758369093	-0.116453603690997	-23.8503015865314	
279000000	-0.0376110233808206	-46.6308069451531	-45.1272324368137	48.7648487322295	-45.0523298127065	20.6116470538863	-0.0393537812397238	-24.9684865659195	
301375000	-0.0907698488881294	-50.3558934901675	-45.9455034483281	30.858748522265	-39.9991846519046	49.191838284689	-0.0878499528344274	-27.0818644947895	
323750000	-0.330294201857196	-54.6484273058708	-43.8186888016937	77.9897372651259	-55.3578177456491	-51.6139004916637	-0.258361464852558	-29.6209530224593	
346125000	-0.168001575574499	-58.4482429190179	-43.9829766473627	19.0161339163216	-48.8876264311915	26.8615556304592	-0.115683839126125	-31.8988137986548	
368500000	-0.0806043476888344	-62.3534491556892	-44.158372932754	49.8580385151368	-48.6910952349907	53.3396292181518	0.0202111211278819	-33.2938141290954	
390875000	-0.221290301884838	-66.2976085874525	-42.6843496594088	29.213311828675	-51.1649540120412	5.59298469100597	-0.0320447139829702	-35.0549125671682	
413250000	-0.295429984748105	-69.7274276356169	-47.375255681072	-9.05182261119666	-43.3739955640437	63.0811804757811	-0.285299355222108	-37.5158940369015	
435625000	-0.201446641774833	-73.8157231781283	-46.5702518186803	54.4506792348724	-37.0487403390485	34.9334207766655	-0.109840482581609	-40.066783864258	
458000000	-0.108725823003058	-76.9794006429444	-42.1772274785244	27.0378798282021	-45.4883149847929	35.7968436287604	0.0292333034707774	-41.14847429229	
480375000	-0.144899147807537	-81.3219240529756	-46.9681213867558	53.8110769295558	-42.8563211605125	16.0423858926597	-0.0816504058492433	-43.8279479323471	
502750000	-0.240414139026895	-85.6096193116128	-40.8627146699634	33.823440053407	-40.3917697939891	28.8462658070967	-0.267605780521247	-45.4205316063097	
525125000	-0.118303070700021	-89.3234031042589	-45.9763544574511	45.2229682917168	-39.3296793571042	44.5396957371958	-0.131647123709594	-48.3220703690032	
547500000	-0.16150209696726	-92.7604153508164	-40.1339874899576	27.2294578504676	-38.0202073266467	25.0437923022174	0.0188048669367494	-50.207455774795	
569875000	-0.309906220633368	-95.5334161468527	-39.0107278472465	16.9173102103427	-45.1292446889423	44.5870554954177	-0.124643298177389	-50.9249393512864	
592250000	-0.295219218463367	-100.208710801804	-33.3607265998376	31.5501268567428	-39.8115983541363	21.5296447546828	-0.249119115084197	-53.7506675839751	
614625000	-0.308935946008708	-104.361815702965	-42.2131485756096	38.6985656299955	-42.9656027343252	4.12576159157321	-0.255143615201971	-55.8807352383983	
637000000	-0.240321355457776	-108.667832300791	-43.8673065254987	-5.67321175879908	-39.2980142648249	-4.17281831782404	0.008905407558618	-58.1637123616344	
659375000	-0.255407649085317	-111.01114131652	-44.9161793619653	9.30496123809545	-36.1741719750861	-8.02432477621628	0.0732946756404619	-59.9189398767095	
681750000	-0.409126715357488	-114.835711826731	-42.3203977582568	62.2509635216557	-38.3655505182245	-14.7143093519998	-0.168087999898591	-61.1973474855077	
704125000	-0.325144187817324	-119.400675572637	-37.1978362322612	-5.74814947220858	-41.3042044491241	17.1886740228452	-0.329111681349689	-63.8383825449652	
726500000	-0.138563489542796	-122.809867364289	-38.4787292426551	-11.4395352269114	-38.0115921168341	-11.0548037968335	-0.0630913755915308	-66.109363930891	
748875000	-0.467380240038224	-126.932275005085	-34.7429478430996	-24.442561417412	-36.2765027814406	-13.8365069039705	-0.011190294895734	-68.1021764746502	
771250000	-0.333524021799927	-130.253680172796	-38.902402409755	-10.2121672291939	-34.8761943318684	-16.6625498681573	-0.223914257933387	-70.2632893407755	
793625000	-0.29407463768002	-134.706118009138	-40.7861589197984	-31.4701580016727	-34.8190545202073	-13.2865330055746	-0.3879804632731	-73.267531198137	
816000000	-0.0910870594216479	-137.760338672605	-37.7776645853544	-34.1172094048264	-38.3582605629411	-16.6812001102881	-0.229224013358269	-73.9989694171024	
838375000	-0.415616162314989	-141.13590368752	-36.0738485393768	-22.3361651429882	-36.5744475150037	-14.8953877262779	0.0177280874449729	-76.2400582649965	
860750000	-0.409736753686218	-146.505794860538	-39.1664919019893	-44.5718940996348	-43.0532117398941	-35.0611048008136	-0.259282698946428	-78.7887576584328	
883125000	-0.466574526756144	-149.929455252896	-40.9057124077434	-61.3866969693951	-36.8017687932853	-22.487797913028	-0.323001201210162	-80.4834296728474	
905500000	-0.307287869092689	-153.348806155117	-38.560395992859	-28.1094711207615	-39.8805510997912	-5.09727715913118	-0.0883549004096638	-82.770360130781	
927875000	-0.464040640509795	-157.123979381043	-37.4544550968921	-16.3671506976937	-39.3011511855606	-9.56739056495031	-0.0388707077249917	-84.4179522976896	
950250000	-0.58285463500318	-161.788122617512	-39.2683300544885	-31.2977489086023	-40.3388396120479	-38.0390346065538	-0.161495565200313	-86.677821686795	
972625000	-0.34980811068488	-164.396006621517	-36.1061593358205	-64.7185647192174	-36.557120952294	-44.1951458727219	-0.308004063736044	-88.4317434992452	
995000000	-0.279021496961644	-167.446948557403	-35.6966402508348	-45.7330019407811	-38.8459172498597	-37.502285645701	0.0213023943701351	-89.7226909058729	
1017375000	-0.474278727582838	-171.415653929461	-39.4620705990261	-40.0472497042133	-36.6610463012359	-44.5443039355024	-0.144923004970374	-92.1760172042651	
1039750000	-0.595523094858544	-176.66991591419	-36.3751273164854	-24.3666728589272	-37.8559392790475	-43.2395674134166	-0.198623313340889	-93.6316743912285	
1062125000	-0.386580210853666	-179.864297651948	-41.3487322297188	-55.8706282055859	-39.4783816668097	-44.5957791527028	-0.191885288938708	-96.1477912593592	
1084500000	-0.353158396954325	176.877798088922	-34.9462499726154	-46.7799095490433	-37.6309077489379	-52.7697504311691	-0.356173096795913	-99.3026861965706	
1106875000	-0.533854111585089	172.876411673782	-35.4155432358506	-67.8062013350068	-42.049392865885	-47.3712607172216	-0.045907016809592	-99.6188423579684	
1129250000	-0.555574034917049	169.450293334859	-34.4831977391161	-57.6197983573899	-36.1036461356789	-44.0844731998276	-0.18282890932934	-102.818432817451	
1151625000	-0.477561951387117	164.7935605153	-36.851594783724	-59.7526899861281	-50.3397819728962	-72.7171909512485	-0.336134344323985	-104.203352328222	
1174000000	-0.360118372581207	161.709406240818	-37.3470512261631	-52.3729643897709	-36.7311817419205	-45.9612383320049	-0.214720826325762	-107.827582594799	
1196375000	-0.505938787958992	157.992160901875	-36.1257578720516	-68.9834484912533	-37.6176272586299	-53.8767919620302	-0.110192680411643	-108.459862913871	
1218750000	-0.583899190108691	154.016191336896	-39.068662941389	-92.6045473604919	-36.3501465276968	-78.4682847541059	-0.0926649635373461	-110.418511304716	
1241125000	-0.438082920195394	149.595292552702	-36.8584490066951	-42.3654587954783	-32.6454075297985	-56.9477401895062	-0.238516928794459	-112.691059627034	
1263500000	-0.375430787897222	146.467804834482	-38.4382516812336	-78.4563063376866	-38.2949794369484	-93.3136103943893	-0.447388338029265	-118.019215918656	
1285875000	-0.48094924608208	143.791066495366	-38.6488734594081	-79.0382313781108	-35.9630166311557	-84.475541493758	-0.191817044711761	-117.17865636707	
1308250000	-0.596725165884726	138.439914242126	-36.8373731251424	-98.0142063155978	-38.8969357715884	-82.7824556512348	-0.254781802573362	-118.395342214371	
1330625000	-0.597605496932434	134.493533256861	-40.3646770741323	-88.505261596673	-36.2243874168912	-115.100467232047	-0.255027293519459	-120.817958914578	
1353000000	-0.424579660448695	131.742306017446	-36.2455005168368	-100.048759172156	-34.9314392635361	-67.9664731569605	-0.314256431407386	-123.569840719373	
1375375000	-0.391858199865958	128.362973552275	-35.1139430825979	-70.0560428172526	-34.7116186463556	-80.6228474002352	-0.14106721165554	-124.800932725285	
1397750000	-0.704251869017942	124.753590886132	-40.6994673655807	-71.1623278841379	-36.5048662962739	-110.190132446004	-0.116159343618893	-127.013422004617	
1420125000	-0.530088083911	120.265152799767	-39.0508435410369	-78.2400627881888	-38.7443692286696	-114.074078851939	-0.360734209459265	-129.238002887696	
1442500000	-0.468534701793771	115.785589855737	-36.4192776362176	-124.620578015583	-37.8109487313958	-92.6801101968749	-0.351052620611822	-132.668830488158	
1464875000	-0.452827828746533	113.493058958556	-35.3712691581329	-96.5663528413563	-36.4526200527033	-95.9560610409928	-0.318525529537785	-133.767836124011	
1487250000	-0.644128779921371	110.120784861535	-37.4813927103591	-105.113184453499	-38.1900745720495	-98.0659235323301	-0.00512311892349767	-135.850412442902	
1509625000	-0.613269572343576	105.744109759757	-35.0394138480744	-94.1033374714517	-37.8976962294858	-93.3093415322008	-0.367607654504912	-137.353308619729	
1532000000	-0.451422865333665	101.534614837402	-34.6736640877149	-103.617024745471	-36.8668876183977	-115.308740837265	-0.371050513128828	-140.054188320317	
1554375000	-0.561734223604186	98.969726623034	-36.026638087499	-104.013431264837	-38.1310954642299	-117.645707432392	-0.287500096630488	-142.360838938726	
1576750000	-0.744516142642865	95.1962251812183	-35.7591011056008	-111.636490626173	-37.0972013635916	-125.03630528101	-0.137716784524044	-143.790296497978	
1599125000	-0.88619970503541	91.5067620653638	-38.9317665948445	-111.730357905296	-36.9052546443389	-96.7311817469423	-0.286757717117133	-145.138418451651	
1621500000	-0.380985310322621	86.6817475433569	-39.4076911082696	-108.760431382836	-36.3400802807271	-132.910922565802	-0.490209479557052	-148.58841974365	
1643875000	-0.481828010224884	83.7029237791316	-39.4481031646412	-138.218468839174	-37.5636487776834	-139.177363409159	-0.371178704166101	-149.966983317997	
1666250000	-0.64852032448269	80.1288048354375	-37.3840241052849	-114.278898134427	-38.5933248539628	-97.2756637868323	-0.0897622540958609	-151.616193794794	
1688625000	-0.543822981989384	76.1933606396122	-34.5056114450557	-117.629084243874	-35.3225302595661	-107.963779457033	-0.31156846725773	-153.933284052677	
1711000000	-0.517069163835304	73.4374128339858	-42.5886144038768	-149.61023941997	-40.4076918291585	-124.075344565989	-0.310995103419268	-155.990764859343	
1733375000	-0.56065548135178	69.4833068396309	-36.2796797753488	-134.103027561722	-38.5140995368328	-177.015041233482	-0.282719783409716	-159.311666729341	
1755750000	-0.728368490325694	65.3960838119575	-38.6361728444231	-141.973031789152	-36.8407248080375	-130.306502248279	-0.248794545283758	-160.983027340875	
1778125000	-0.632348878118814	61.4289555047194	-40.255784336779	-153.177721799608	-36.6493852872904	-127.68776429271	-0.373794480480935	-161.75985640311	
1800500000	-0.516049749873476	58.1798133870295	-36.3950013624966	-130.896889133787	-39.0992530272514	-143.469245584635	-0.488101860202882	-163.158489022082	
1822875000	-0.606184957498527	54.7699458644416	-40.0549983647927	-145.111431403768	-38.5898294989407	-168.443297888091	-0.280728582349646	-167.114049124702	
1845250000	-0.685231382375831	50.9134341931006	-38.2341462194391	-143.928138439042	-41.5170504076675	176.517832538816	-0.223388061342726	-168.249209788655	
1867625000	-0.718045617257654	47.0473488964338	-42.029677283677	-146.139635480995	-39.3374700063909	-176.836787468652	-0.235927194421424	-169.77397756568	
1890000000	-0.623678472615878	43.4604942555301	-39.3717510690429	-136.403558586953	-37.2440328431388	-167.831206590101	-0.38679556844213	-172.944738004201	
1912375000	-0.453064975716256	41.5189943970519	-38.6035740983047	-157.104665676239	-41.6719527741632	179.80921923407	-0.338843286024283	-174.858592254842	
1934750000	-0.680410349273212	36.6874572638674	-38.8608048395692	-133.827510151626	-39.2200773123365	-173.304398134338	-0.264808568474239	-176.779611286123	
1957125000	-0.722264071955657	33.1334746370277	-40.2161390910496	-156.418068996499	-39.8628025820053	-173.256911832602	-0.261080268121323	-178.256442727158	
1979500000	-0.500929400777646	28.6161738910241	-41.9482481623571	-149.018736275429	-38.6070066723355	-166.287355801985	-0.370156489782059	178.949349524742	
2001875000	-0.639859445533812	26.5101150685063	-45.5001998135246	155.832592426103	-42.4778227913208	-141.129321068275	-0.376580266925483	176.234354950534	
2024250000	-0.743344621564988	22.3205837540956	-60.4616395573278	173.985186580362	-36.7661064771889	-152.437013750566	-0.311243728299737	175.000096644343	
2046625000	-0.766790622041075	17.0717139389258	-40.4214409686553	-149.456133157467	-44.0968665676488	-123.962565926031	-0.244510991135703	173.920432738534	
2069000000	-0.513621816470355	15.8951412684462	-50.7030388460055	177.640563473672	-56.2412860430651	-140.879932414492	-0.408498058219773	170.92301578364	
2091375000	-0.593156765534888	12.5377485890823	-47.7329864396844	157.528090719654	-38.3840307310789	-138.386402310086	-0.488171425825692	168.188580739866	
2113750000	-0.820620298171393	7.5680198797783	-42.8227211284092	-173.965016423496	-48.6360557206654	-153.021613407114	-0.170857217108055	166.93044753748	
2136125000	-0.558511557281154	4.46211831596976	-40.7193968820864	173.135428204883	-50.1429269144548	-145.020529405843	-0.198158688174029	165.079374591682	
2158500000	-0.569171745560066	-0.0232045694451301	-38.7643701652279	172.823962557912	-48.4886443145118	146.884267276407	-0.426081365410095	162.902820309343	
2180875000	-0.604626641094818	-3.15815002572018	-48.507491528704	147.593942388082	-42.0745110648446	157.105811962234	-0.514203279759639	159.486348844069	
2203250000	-0.758963234454057	-7.10760225385291	-41.9608269048762	-133.863920330812	-41.7462932107321	136.589680024697	-0.23462417078034	158.160544276013	
2225625000	-0.725731895981074	-11.6034189699897	-44.4322065533033	88.2635957559266	-48.7410107477106	156.27481478354	-0.28124006624441	156.646564958858	
2248000000	-0.557129463539108	-14.8729225088181	-47.0508334186439	-149.988861068866	-43.031734223128	176.275125970991	-0.388826891999809	154.863229513984	
2270375000	-0.579245628038769	-16.9478566407908	-66.8112867316898	-25.3626985356199	-46.5456071966544	-151.616050588387	-0.502999243733921	151.532900237505	
2292750000	-0.802951247840499	-20.9801031845153	-43.3862831115553	-163.387849091503	-48.4976321613939	24.6229818796514	-0.401063007806977	149.219642819852	
2315125000	-0.765107850873642	-25.4319413831894	-57.3049024954326	-135.148873918	-40.8097495449237	151.133665823102	-0.266785645779763	147.963917530561	
2337500000	-0.612528123840084	-29.6036975273779	-55.9401747021224	62.4452170740634	-45.3162001637047	-120.186688742865	-0.370110680726492	146.709844531185	
2359875000	-0.446647369959424	-32.0706331282516	-45.3806358178941	-5.48097631636407	-46.1083190755633	3.08226963552445	-0.505327442360525	143.220409061296	
2382250000	-0.754053316048061	-36.7323838182878	-45.8345277837784	22.6501508912258	-51.2204257669688	146.327285398599	-0.38513635280915	140.379587736853	
2404625000	-0.781126388014181	-40.8967127194348	-55.2064995865706	63.8254570823729	-58.1802971869154	-140.184273325863	-0.208785019738718	139.807654759154	
2427000000	-0.587563973015528	-45.4781184885736	-45.6507334955741	-64.0332079391148	-53.2003399658723	22.9485619925173	-0.334814528045989	137.499317420723	
2449375000	-0.451146409139737	-47.1404115934038	-46.419493069545	127.280514860981	-52.3093686238243	-118.457629979433	-0.495891134360086	135.020201464287	
2471750000	-0.766115670380826	-50.3661223673857	-48.9031181068112	-83.1497125599736	-53.0161117788897	144.270095536	-0.374119470368824	132.446675748404	
2494125000	-0.891674763333522	-55.7844398832798	-43.5703853188239	3.21843112017672	-51.1204995638749	-14.5027691073371	-0.199470847227932	130.577618161225	
2516500000	-0.706464789561999	-59.7694775757158	-49.7417021082832	53.1321046717334	-45.3811693565847	-73.2109457906299	-0.362590467874805	128.542348049944	
2538875000	-0.493605654001176	-62.6046803682244	-40.2802885740373	-41.9230374211055	-38.3024718044757	-73.0897363154319	-0.491123122750169	126.527748843799	
2561250000	-0.580833481202173	-65.537845306392	-43.6371179844529	30.617140792936	-37.1364879264344	-79.3901010528487	-0.401366676088093	124.517108453186	
2583625000	-0.840306854203749	-70.9862254944984	-48.0311879362378	-88.7731351014728	-49.2516355976827	-34.8405974630513	-0.357510296681767	121.349472158208	
2606000000	-0.660126405246206	-73.5046289036909	-41.3754443506269	-19.1389430375852	-43.5980236984255	-48.1800079073899	-0.379254937640464	120.625897973746	
2628375000	-0.604438172848755	-77.4813285858096	-48.6686168824463	-138.46018859078	-45.3108403270456	-15.5196814393033	-0.470822099912825	117.902841434539	
2650750000	-0.713954577828256	-80.7418223695188	-50.0799676479453	14.9892825777087	-45.017956090765	-75.3635111976213	-0.54777717692641	114.593083719009	
2673125000	-0.878135474959933	-86.0112437825884	-41.6436986097911	-81.7325331109679	-41.6638362190565	-41.8053734940072	-0.37270123264715	112.441645823009	
2695500000	-0.676509303293095	-88.9804264814539	-37.1257736315251	-63.2751587986382	-43.7680273716789	-88.0289469681298	-0.349865722624387	111.419324107626	
2717875000	-0.465525593951293	-93.9641307610599	-37.0808273691798	-71.4458801476091	-42.6262246040951	-87.0789337709737	-0.511926991108466	109.261630245166	
2740250000	-0.631467936861073	-95.7778292099255	-42.4741769937807	-64.9492056800462	-51.1811664353959	-75.2965807530438	-0.537946321589672	106.129085856892	
2762625000	-0.950688620096672	-101.115009388758	-39.8361122779632	-113.385898606427	-40.9768809023274	-83.9729872556788	-0.292264777590409	103.63583284772	
2785000000	-0.758551946529368	-105.727600747885	-40.131988760796	-64.0628948698235	-35.6469208339776	-83.2081234154214	-0.268460585893829	102.22633838652	
2807375000	-0.487683262945809	-108.541029316349	-34.1234299732568	-102.218701718412	-39.739219652461	-119.806982824336	-0.484259647416588	100.845426846504	
2829750000	-0.681381265205158	-111.899631719398	-36.7518233544456	-116.08687247142	-37.929517027162	-95.5557308465203	-0.48238742144482	97.9538472264237	
2852125000	-0.853780240949937	-116.21703809437	-38.3971804931084	-92.231582609486	-35.8953098479007	-121.775325554294	-0.402672099968138	95.294836268161	
