!Keysight Technologies N9917A: A.08.15
!Date: Friday, 29 September 2017 09:14:36
!Timezone: (GMT-08:00) Pacific Time (US & Canada)
!Model: N9917A
!Serial: MY53102735
!GPS Latitude: 
!GPS Longitude: 
!GPS TimeStamp: 0001-01-01 00:00:00Z
!GPS Seconds Since Last Read: 0
!CHECKSUM:1633571390
!Correction: S11(ON U)S21(ON U)S12(ON U)S22(ON U)
!S2P File: Measurements:S11,S21,S12,S22:
# Hz S DB R 50
100000000	-19.2866777175132	-151.149957469506	21.4606015622524	164.736323898578	-25.0346272432549	-1.13948224429773	-20.8729427935137	-51.7572590494326	
122375000	-18.3786709660025	-163.95149926091	21.4507638550948	162.397325639611	-24.095922520727	-10.2896071213136	-21.7416313447527	-66.3057882855979	
144750000	-19.3131332899958	-154.58640310896	21.4808762639281	158.999504201603	-25.5527645909962	-11.0981764076009	-19.2699334916928	-64.8033698821271	
167125000	-20.3009774709776	-162.177529541208	21.4520226044708	156.366860441629	-24.5456955164205	-12.9296524195685	-19.1734379181069	-65.9162925022484	
189500000	-19.8303650556334	-171.76322378983	21.436016585208	153.538962705032	-24.265000804868	-18.3797940312047	-20.8411463821819	-78.5357861933792	
211875000	-20.8703866582591	167.995720525814	21.3106452690756	151.099885173644	-25.0417781893017	-16.1426930683041	-20.4822156714981	-65.1181214177456	
234250000	-19.013588355906	167.744650911072	21.4159431739445	147.751708781902	-24.4028885813751	-23.1830028939882	-20.6604181044204	-76.0557917480058	
256625000	-19.9004328521309	173.293972493145	21.2933949079019	144.51582658656	-24.9802486834433	-26.3267341915014	-18.6239175050333	-91.4882632933034	
279000000	-21.0412250100459	174.491090413939	21.3206032599149	141.592600698767	-23.899887850569	-17.5781834988102	-19.6065833157052	-73.0955170893883	
301375000	-20.911879519683	151.782795885547	21.332234773173	138.900201264286	-24.4828478085523	-28.2599351003892	-20.1655141407677	-103.179766110071	
323750000	-19.3445585059565	156.712766235166	21.2988014244677	136.122216301294	-24.8212755291555	-27.7126046320585	-19.3399459921272	-101.528268413687	
346125000	-21.0152235672251	164.082914075182	21.2950122631594	133.010816268676	-24.1749737739264	-32.4911587356035	-19.294042884364	-102.903315902836	
368500000	-21.4537707212898	148.754387721819	21.3671440141821	129.891432829433	-24.6971862389504	-32.7211508287584	-18.9234613834597	-106.257991357832	
390875000	-20.206453226687	137.679046673554	21.2897870689289	127.363508693829	-24.9837258975302	-35.1690161779638	-20.3582148289887	-111.542566747518	
413250000	-21.5081484464197	142.327723306326	21.30441686681	124.141013176436	-24.8543670893048	-37.4393739116886	-18.7682301731687	-119.914534572841	
435625000	-20.502687942975	124.85453598085	21.3468684818134	121.18699714985	-23.5380731686151	-38.6453413341487	-19.0646332767528	-121.067487152572	
458000000	-21.4164151572264	130.939832329633	21.323555439943	118.340205703644	-24.8908173862127	-43.7574779685397	-18.8486437584997	-123.823681861134	
480375000	-21.689432291963	125.033546321049	21.3016419367555	115.316063403199	-24.5305728303387	-44.7486689629589	-18.922078506776	-134.653653593002	
502750000	-19.7679868613545	128.178410554791	21.1878097524417	112.663533316003	-24.3061656514082	-48.8487724335642	-18.8772659538019	-145.613818992073	
525125000	-21.2201018066569	124.207194554183	21.3317097989339	109.355675895765	-24.046867703791	-47.5841935807464	-17.8330132684931	-142.022463840597	
547500000	-22.3689781896665	117.477103941031	21.1915842440978	105.960387326428	-24.4531011998098	-52.6842248803712	-17.4413703346148	-144.905822697931	
569875000	-24.2981790201151	108.136492609423	21.201202442411	103.844061973798	-24.225963130139	-48.2769522719644	-18.5241360642033	-146.045650745096	
592250000	-22.2104071441221	108.113422402733	21.2485187605507	100.305315726847	-25.1547032434444	-58.9211066076307	-18.1354161029191	-155.136751356135	
614625000	-20.9047613335529	112.492219634951	21.2024474135533	97.8059078542985	-24.3165083660438	-57.8021774533084	-17.3612747124255	-160.933925791242	
637000000	-23.0351308891369	112.070840137485	21.1725227232042	94.2468531825538	-24.0602105855831	-60.85827955953	-17.7401293136896	-157.639945740902	
659375000	-23.0662006163131	105.257891957801	21.2537253107135	91.6428194090445	-23.663272210668	-61.8917884131625	-16.0403541587991	-162.32143431845	
681750000	-20.6112812543673	95.3379629076727	21.166137380561	88.5132783192069	-24.4112299806329	-66.5602327169765	-17.3598037046786	-173.980981029865	
704125000	-22.9579903889262	116.006057179172	21.1296755435201	85.0893595088618	-25.4261279523751	-66.2365216998897	-15.7095071432759	-175.488978294262	
726500000	-23.8345486443494	102.505026522231	21.1245310409246	82.1579872418067	-24.6831097090262	-73.1115514092409	-16.249280660639	-179.999773222844	
748875000	-22.1065387583826	83.1557195279287	21.1012758060136	78.5834327531822	-24.9335616612443	-74.719454386839	-17.648017676378	171.802398888044	
771250000	-22.2895350240033	83.9760638965928	21.0409710767867	76.451652042971	-24.4412629592453	-74.6143708765219	-16.9272656319971	165.172842957469	
793625000	-25.367462412202	93.3931345100527	20.9915924357527	73.4406244891915	-25.16862616345	-77.6201688874852	-15.5706793485447	168.38881365003	
816000000	-23.7052494852733	81.3018226790732	21.0112551800735	70.7970585270931	-24.636118490844	-73.0514451701564	-16.9474738164571	163.195991167598	
838375000	-22.1983213306296	72.446126339545	21.0471981006618	67.7607510804774	-24.736817502264	-88.4536033754869	-16.3746562805499	156.9423389744	
860750000	-22.7879493491677	58.317590658713	20.9336320820221	65.2092885166445	-24.4096578693782	-85.4861694055343	-17.3101303710326	149.90385038781	
883125000	-24.0490309333642	60.5017943563833	21.0420336797322	62.0420198665798	-24.3423078127831	-86.6150937658326	-15.4471779499371	155.345586985297	
905500000	-22.4608352491362	66.5109712668143	21.0377569948348	59.4626867967551	-24.723612405625	-79.8333633076488	-15.7003799000895	147.167199647149	
927875000	-24.0846550959883	46.176633568445	20.9498840859639	56.2100236420926	-25.155576814713	-90.4265231742854	-16.4160020030563	142.550966719854	
950250000	-23.6221868376919	44.4682873390668	20.9735960087831	53.5844952885284	-24.9732863893104	-94.8065120237703	-16.75822710994	137.235823617392	
972625000	-23.4672886133924	61.5215153102827	20.964207568318	50.3462562149186	-24.2677095960479	-91.587340201539	-14.7461898975338	137.067282691756	
995000000	-24.7670545368803	58.3236507076071	20.9622094045902	47.6409875596138	-24.3663426588938	-92.6946543323512	-15.1147023540145	133.381571951884	
1017375000	-26.0189332025377	38.081749634082	20.9730056036982	44.1612683124922	-24.6586394196104	-96.1531075900224	-16.0415885051566	128.370414704978	
1039750000	-24.9344413866984	47.1391828419373	20.957031514039	41.347578893443	-24.3006591039576	-98.4811309727297	-15.7801922261106	122.894140406296	
1062125000	-28.6874498157658	20.6870423289184	20.9441174050296	38.2057356281256	-24.6724925245129	-102.706578620249	-14.7090106916394	119.466600936262	
1084500000	-31.9824347798615	33.3700424880675	20.8959324611764	35.6444694031139	-24.081865506296	-108.479682656745	-14.7109424446238	122.576637223229	
1106875000	-26.3029447119871	19.5175968446374	20.9021091005975	31.7221940509444	-24.6476546279971	-104.103835711314	-16.3890867392015	109.493876225937	
1129250000	-28.0689009520798	12.8351379045198	20.9020465898005	30.141572907531	-24.4296743471056	-105.010690551229	-15.7176757008911	112.181967686381	
1151625000	-25.0415697799066	49.4128633110947	20.8201027436802	26.400675448029	-24.0341823905114	-109.663712189474	-14.5657462051155	102.867148778444	
1174000000	-34.0195353144921	18.2943411031566	20.8146135177879	23.6484336963777	-24.5115674752313	-117.022619498114	-14.7030957483887	108.003766514376	
1196375000	-28.7808351915403	-16.2397045408145	20.8105075104357	20.2659189168259	-24.2359334459506	-114.18937276958	-15.4985933478351	99.1804801403151	
1218750000	-26.4718378127743	-7.7239407891347	20.8401607373044	17.5837663634529	-24.1638011425116	-114.982005722898	-15.7125413162623	96.2700111214238	
1241125000	-25.6774766830114	2.02686597683197	20.7937109583797	14.2002983999708	-24.301514250823	-124.829802404947	-14.9071437908105	88.7607528346581	
1263500000	-36.8927220566658	-20.1390855569288	20.8391516426397	11.2568481922397	-24.6753835924863	-126.613408759539	-13.8530799857957	95.3859345784376	
1285875000	-36.8303577179166	-49.8679799508558	20.7830123717767	8.97016763871503	-23.62184086309	-126.468826398721	-14.8635776200943	89.0372808732502	
1308250000	-28.3843798848802	-27.7212110250434	20.8751088185844	6.23659683278619	-24.0309239876011	-127.752212350062	-14.8281012274934	75.7124692936926	
1330625000	-26.5220478464711	-5.18082875847613	20.7947046412503	2.85651576132198	-23.7600299598637	-130.354114513598	-14.1121739921952	68.9993821875319	
1353000000	-30.3683243850862	-32.550382421204	20.7402056115722	0.200562802963186	-24.5966999958031	-129.093671292462	-14.1651990997329	76.8035888137959	
1375375000	-31.9349498597485	-23.0465960314557	20.6574376290219	-3.17357645137483	-24.8283779296138	-134.965777639295	-14.5870180144645	69.7688386751983	
1397750000	-25.8735697757582	-36.9577458605821	20.6766833811788	-5.95070690270716	-24.4245620375047	-143.066553508023	-14.7783346630107	58.2639826427686	
1420125000	-28.3716029109285	-52.188728949334	20.6670115179617	-8.23506230324407	-24.1484250283297	-140.659557230437	-14.7452976067215	59.9737058366928	
1442500000	-30.1215050022959	-21.1240327299832	20.6268242834466	-12.2150913111037	-24.5447469860361	-134.343905797366	-13.5486394966861	59.2217259721489	
1464875000	-28.778611086557	-105.031428409294	20.6159926839493	-14.6302359461921	-23.3996655380449	-143.979322758318	-14.6795690077359	62.6089259596698	
1487250000	-23.9386822288229	-79.7669577053494	20.5805473147084	-17.3891300585708	-24.4755792445616	-139.556721485061	-15.8087528993971	51.7148901839402	
1509625000	-31.9690482888661	-79.6743182049578	20.6696114590146	-20.496671078283	-23.8378538809183	-146.09431426431	-14.1825409801108	47.9257770832974	
1532000000	-26.9692590204187	-53.5961842182453	20.5521146747351	-23.2089669031248	-23.638695377522	-145.680903017086	-13.5534718577122	45.5220425269521	
1554375000	-25.2499284097478	-111.721867356471	20.5954552107102	-26.8546430457108	-23.6504944525741	-151.874744060706	-14.7722023338216	44.6009424979481	
1576750000	-24.7213024620855	-93.3813680912151	20.5336479340868	-29.5719751244888	-24.3525926547757	-155.53574700785	-14.6943300612224	34.4751312216974	
1599125000	-24.3729514521546	-103.967285295655	20.5539132841382	-32.3577474991512	-24.8530265959961	-156.072966441572	-15.008104773473	29.2599382468992	
1621500000	-31.5158486763448	-91.6660487394936	20.4903863439909	-35.1305778036891	-24.0426363568013	-153.026866664142	-13.1316114305234	33.0512279209947	
1643875000	-27.8117773323885	-124.529775283416	20.5228869669749	-38.4877485328109	-23.9543230939045	-161.116323191518	-13.9437835017577	29.9426984216646	
1666250000	-25.2321735120313	-109.730558135013	20.518941920281	-41.0018214134845	-24.5280333751553	-167.135365891373	-14.5034353854984	20.4461653687575	
1688625000	-23.2485035379975	-121.765684248948	20.4766948903527	-44.3767472817388	-24.7051690503247	-164.477681715999	-15.091475576748	16.5966328687339	
1711000000	-26.5542888363339	-131.356297939673	20.5111110916763	-47.2677546932183	-24.0579057884398	-169.580239353481	-14.3802417331994	14.3827445134598	
1733375000	-24.7919922074502	-142.610629256167	20.4057782881387	-50.1697755034951	-23.6221871777125	-170.123975348138	-14.3739003855032	13.7944084339848	
1755750000	-22.3858825634195	-150.428319001848	20.3514811056971	-53.3312412275898	-23.3284005527839	-172.934283650171	-15.3115556985363	12.990341815244	
1778125000	-22.4678054184842	-144.222984292671	20.4480974812121	-56.0613477237994	-24.4840980192799	-168.636989893026	-15.1920333470363	4.81528220676357	
1800500000	-25.0225015360397	-143.389660769906	20.4333567783006	-59.2361728789624	-24.3845549232502	179.186330724289	-14.0137807436379	0.0847993734272525	
1822875000	-23.8045482392225	-147.492215767965	20.3381415897628	-61.5489368486931	-23.6749754376072	-177.515944642124	-14.1946545983562	-1.29122962649074	
1845250000	-24.9492361489502	-139.671101679428	20.3349472038105	-64.5141516600688	-24.9153252655804	176.547851302848	-14.1321734621075	-5.01574238361701	
1867625000	-23.1758717171223	-161.938999828781	20.2678029418637	-67.5214631443238	-23.9392127571836	178.210811850786	-14.9643808514426	-9.97157248323424	
1890000000	-22.3098859983319	-153.933911984242	20.3271345747398	-70.6710067093212	-24.0609973979422	171.913315010307	-14.3977803751379	-13.2086186826702	
1912375000	-23.3217566980569	179.684975736352	20.3136285223662	-74.2831549224037	-23.876703221361	170.916780761069	-14.6070022673839	-11.289644803403	
1934750000	-21.082576585542	-167.595576612889	20.2406820560219	-76.4604610951752	-23.4659033922983	170.603300009281	-14.9104354550439	-17.1640694934448	
1957125000	-22.1958777364124	-170.858892303319	20.2676001798366	-79.9301660114125	-23.3373477511284	165.29029048362	-14.2618727228807	-21.8281883173869	
1979500000	-22.8493864285451	-166.499501567035	20.2339269834486	-82.3625162189067	-23.5120806395081	165.074516896555	-13.8368995747894	-23.9301827330208	
2001875000	-21.2013795945685	171.619607852253	20.1915794702528	-85.2170882428115	-24.5850115306293	160.615742022455	-14.4084082844477	-25.8240879471417	
2024250000	-21.7606991654771	-179.764094131719	20.1312248507811	-88.6917216811492	-24.9029430908129	156.921870985776	-13.9938027265928	-30.6823282945372	
2046625000	-20.483885280181	-175.849904436928	20.0704397778368	-91.5383289028735	-23.8907245580658	160.115721307758	-14.5644490216526	-35.7624017867167	
2069000000	-19.8645809709811	169.724781099186	20.2078868879862	-94.0412761924494	-24.2943069342689	155.33489001194	-15.0573564194913	-36.9242416332734	
2091375000	-20.5744664466805	162.430304936708	20.0925983575771	-96.911484246756	-23.985528270224	151.196858003322	-14.7491657439334	-38.7382631204731	
2113750000	-19.03557785801	176.437128498074	20.0447618893657	-99.6282578999207	-23.9137271461741	155.366551410352	-14.3305381965542	-49.2061682614376	
2136125000	-19.7184741060767	167.576637696777	19.9803133292491	-102.839943789657	-23.8075670594644	148.780176536237	-15.0398976809017	-48.1083270496553	
2158500000	-19.8583424388707	176.031710693771	20.0458439102944	-105.252850910112	-24.1637355909664	139.631626158104	-14.0442112801699	-54.9372452437003	
2180875000	-19.7598071676398	153.492664807861	20.0083719132862	-108.852137510729	-23.7756634969901	141.338131530126	-14.5242713342047	-52.2439481484813	
2203250000	-18.9258660305218	158.798142335763	19.9537120967677	-111.415364360858	-23.4891762125147	142.309876290161	-15.3731043231481	-60.590416073874	
2225625000	-19.56012507511	153.971982641899	19.9672519919253	-113.958810243755	-23.4667487441147	138.324527783346	-14.8758495873921	-61.8126585859326	
2248000000	-20.2542554143561	160.612411011831	19.9425042614087	-117.069736309284	-23.3185712382427	135.737772437731	-13.7949197597207	-64.6461372024398	
2270375000	-19.4700446131423	151.292178650302	19.9235360413514	-119.92458542802	-23.3442066632609	133.722557312337	-13.9203681089549	-66.262721427444	
2292750000	-17.6602138728926	143.86037780868	19.8399321361115	-122.519912145037	-23.2073722794636	128.004892986385	-14.8917561668326	-69.3813026839828	
2315125000	-18.3559915710837	155.263709119324	19.8008382392404	-126.246766844777	-24.5369933826267	129.018366656778	-14.8017254733016	-77.4868608389687	
2337500000	-19.1280541051995	153.16437574316	19.8019591628069	-128.943149505293	-23.6161644764714	123.759603738636	-14.3700372357471	-76.0970707958135	
2359875000	-18.5324121014903	150.447456547914	19.8106736659059	-132.23051299018	-23.166993956109	124.934427546096	-13.9941391738992	-81.8532302918654	
2382250000	-18.4361463588853	143.342854797755	19.7416348966028	-135.236307688997	-24.5351803093609	125.416416912219	-14.6377394102353	-79.2910452296995	
2404625000	-17.441072919199	141.83461079322	19.6927777435886	-137.428266246192	-23.8132825895845	119.404670069203	-14.6082841639573	-88.0356197122778	
2427000000	-16.884455016293	144.953065206842	19.7331098199151	-140.547284692897	-24.1422285988548	114.681832707572	-14.35223615432	-92.3566497381443	
2449375000	-16.6630052541487	129.191089247937	19.7749282012585	-143.242986368164	-23.8562494202482	116.130687267488	-14.3739461271578	-89.4060649216784	
2471750000	-16.9830650751294	129.636241366947	19.675460434011	-146.619613063906	-24.3148489804187	112.331295782809	-14.5302284864566	-94.6760273067273	
2494125000	-16.2160131625989	131.201586888737	19.5896383273131	-149.251724418304	-23.2395983303083	111.83054453891	-15.5473026983246	-99.0199301940101	
2516500000	-17.422746856734	128.143669396704	19.6053626332969	-152.445817853379	-23.6074733596716	108.127315684567	-14.6468717062455	-102.107639506988	
2538875000	-16.8013651667749	122.541011024502	19.6036968396895	-154.51547147656	-23.9366847476395	104.556218990802	-15.2800262876124	-102.613112906611	
2561250000	-16.1408049467521	119.826179529368	19.5525926513601	-157.839152577264	-23.0049983180568	104.140989825355	-15.3395716612678	-107.329343215789	
2583625000	-15.4714401414414	118.174464757422	19.4894740504922	-161.369965285452	-23.4247043005377	100.875347827035	-15.8822682816	-108.624219934062	
2606000000	-16.6994917278985	118.179858106611	19.5411526539941	-163.34861581758	-23.5198087940325	101.318829298279	-15.2340639811095	-116.128620379665	
2628375000	-16.4677321986383	118.065417062732	19.4176877784872	-166.102084828285	-23.2244348375018	95.4483473210678	-15.1464560230634	-116.201465475845	
2650750000	-15.8171741806659	106.657748383361	19.3362794971441	-169.926000293249	-23.7043596445235	87.0180369539881	-16.1790939861182	-112.950005319281	
2673125000	-15.8087392231823	111.691249865633	19.4709566643576	-172.912481063699	-23.8706322973756	91.9055967354793	-15.5937827368659	-125.086896814465	
2695500000	-15.4468178514161	111.294497731076	19.4288428582678	-174.956167936383	-23.7955346468902	92.4659504481996	-15.4466887149337	-128.505668944602	
2717875000	-15.1243848984745	110.031119873426	19.3719922031486	-178.170817941544	-23.4599248388613	86.9980340438971	-15.5258644239125	-122.032336061665	
2740250000	-16.1539467214854	98.6708246042106	19.4143331585583	179.087414024122	-23.8142878314114	80.8549533273531	-15.3310204182914	-126.432332850251	
2762625000	-15.2067264513393	104.016443322673	19.2691984789588	175.670722111025	-23.8393095624335	83.8689077295344	-16.0138673000008	-133.800329993174	
2785000000	-14.8449457662141	105.625385643996	19.2978471387977	173.259375756752	-23.3665091116544	77.6793143615291	-15.7783695415381	-136.349322524837	
2807375000	-15.4569547528497	100.431496425694	19.2726118611376	169.676679381763	-23.903374108593	77.2968528965501	-15.7420286954834	-139.816253136316	
2829750000	-15.2335995825935	91.7714421333285	19.2135176171794	167.375013654049	-23.0631909281637	75.0157266548217	-15.7928415059226	-137.747879150677	
2852125000	-14.3358448214235	92.4419336026331	19.1766081855976	164.657962168388	-23.2291974417688	71.5103061716544	-16.4844711517103	-147.576663266183	
2874500000	-14.5558768522952	93.852368777855	19.2070572343816	161.703267012158	-23.8061200968603	65.973095333408	-15.6459167768473	-150.333978324004	
2896875000	-14.9361287446979	90.9963049449516	19.1288710440577	158.128754329183	-22.932335575908	71.0829531546815	-15.717589306626	-148.570797148749	
2919250000	-14.5232474414564	84.9792248583706	19.1531499000876	156.264421185288	-23.1178246267481	70.7247277157866	-16.2496596622804	-148.768504833867	
2941625000	-13.450564557691	86.8609913087257	19.0676989402617	153.068620181509	-23.9234977715293	70.4713971136876	-16.461346616955	-157.608596883521	
