! AWR Design Environment (8415) Sun Oct 15 14:44:39 2017
! Document = 'Single_Stage_Amp_Full_bias_at_6mA'
! nPorts: 2, nXvals: 200

# HZ S DB R 50
!Freq DBS11 AngS11 DBS21 AngS21 DBS12 AngS12 DBS22 AngS22 
1e+008 -0.39875121 -36.300467 -15.544356 -86.821145 -89.606235 -176.07115 -20.83902 153.46386 
2e+008 -1.4872591 -71.621119 -8.153993 -80.991639 -76.089803 -168.00164 -19.098713 125.54881 
3e+008 -3.1525202 -106.48646 -2.060668 -85.483525 -66.434171 -171.25352 -17.197156 94.842732 
4e+008 -5.0384091 -142.09428 2.424112 -93.730624 -59.409503 -178.52062 -15.397102 73.38729 
5e+008 -6.77909 171.57727 6.9441831 -102.83448 -52.873168 173.21552 -12.431033 55.490167 
6e+008 -6.7497073 124.79312 10.555624 -116.33654 -47.723486 160.50346 -10.458653 36.351924 
7e+008 -5.8818924 87.237859 12.975132 -130.49096 -43.858353 146.98904 -8.5729061 24.291203 
8e+008 -4.8815353 53.902704 15.198706 -148.38829 -40.541262 129.94171 -7.0786258 7.979767 
9e+008 -4.1280671 23.587683 16.881705 -168.17978 -37.767325 110.89022 -5.9652233 -8.4637142 
1e+009 -2.9009184 -3.3610679 18.700109 172.8963 -35.054207 92.736298 -4.5593167 -24.795664 
1.1e+009 -2.218764 -27.676854 19.939153 153.60655 -32.985048 74.196554 -3.609153 -41.574279 
1.2e+009 -1.7874491 -51.217029 20.934395 133.39564 -31.265672 54.905642 -2.7734848 -57.73861 
1.3e+009 -1.3483126 -73.208885 21.706575 113.28471 -29.780203 35.514708 -2.3170631 -74.523219 
1.4e+009 -1.149944 -95.411293 22.349993 93.254285 -28.524883 16.414285 -1.94732 -90.171709 
1.5e+009 -1.2689906 -115.91683 22.565692 73.740064 -27.723255 -2.2299361 -2.1741243 -105.60691 
1.6e+009 -1.6572086 -135.90007 22.480076 54.348762 -27.234743 -20.731238 -2.4423396 -121.03507 
1.7e+009 -2.0482525 -154.85138 22.400704 36.037166 -26.799736 -38.122834 -3.0092758 -135.14619 
1.8e+009 -2.5564804 -172.27206 22.136645 18.894982 -26.558978 -54.425018 -3.6096832 -147.95367 
1.9e+009 -3.1828151 170.49966 21.891879 2.0689452 -26.354136 -70.221055 -4.5209111 -160.36354 
2e+009 -3.8991261 153.88871 21.499854 -13.769896 -26.277449 -85.209896 -5.6180091 -172.10398 
2.1e+009 -4.530763 139.4062 20.958875 -28.403623 -26.376599 -98.953623 -6.9250899 177.5971 
2.2e+009 -5.2371737 123.3036 20.627951 -43.207474 -26.29398 -112.87747 -8.3396698 166.15704 
2.3e+009 -5.9422981 109.87481 20.152894 -56.820031 -26.365758 -125.66003 -9.7405893 155.92389 
2.4e+009 -6.9088613 95.048479 19.610363 -70.733682 -26.532679 -138.67368 -11.737264 144.25064 
2.5e+009 -7.7414382 81.642315 19.197916 -84.035825 -26.549947 -151.26583 -13.425697 132.53086 
2.6e+009 -8.5025212 66.885068 18.809663 -96.968456 -26.598435 -163.46846 -15.967302 117.90743 
2.7e+009 -9.1955068 51.789028 18.408871 -109.68021 -26.664662 -175.42021 -18.652219 96.659049 
2.8e+009 -9.8956926 40.312118 18.020257 -121.39413 -26.751406 173.70587 -20.809141 75.437764 
2.9e+009 -10.592772 24.874277 17.617556 -134.45462 -26.841726 161.45538 -21.816424 38.072286 
3e+009 -11.321076 12.575732 17.150455 -146.56656 -27.021181 150.25344 -20.081709 3.1547578 
3.1e+009 -11.974578 -2.1082433 16.593262 -158.96224 -27.301098 138.70776 -18.987712 -15.300089 
3.2e+009 -12.064085 -17.093948 16.295629 -170.6878 -27.312472 127.8422 -17.370627 -29.364547 
3.3e+009 -12.191593 -31.299093 15.948475 177.29694 -27.390693 116.62694 -15.994106 -38.395614 
3.4e+009 -12.193314 -43.336572 15.627059 165.81435 -27.449447 106.10435 -15.302665 -45.193569 
3.5e+009 -11.740652 -55.320029 15.198755 154.32626 -27.623828 95.506256 -14.326153 -51.508819 
3.6e+009 -11.062878 -67.929848 14.94245 142.23616 -27.624936 84.346159 -13.842171 -54.729795 
3.7e+009 -10.720098 -79.921445 14.65085 130.18176 -27.66706 73.191757 -13.633553 -56.912181 
3.8e+009 -9.9819882 -93.830858 14.279548 117.86104 -27.801473 61.82104 -13.244341 -58.145946 
3.9e+009 -9.3422424 -104.50142 13.989671 105.80376 -27.841037 50.733757 -13.106825 -57.657082 
4e+009 -8.0961892 -116.46093 13.698286 92.180105 -27.891417 37.960105 -12.628406 -55.867424 
4.1e+009 -7.0580562 -128.14238 13.390095 78.773829 -27.978515 25.443829 -12.040254 -53.322346 
4.2e+009 -6.1499762 -140.43573 13.061393 65.353181 -28.074281 12.913181 -11.464464 -50.620117 
4.3e+009 -5.0500317 -151.59251 12.650213 51.994287 -28.265047 0.47428663 -10.649427 -51.168501 
4.4e+009 -4.1101795 -163.41489 12.187617 38.067183 -28.499181 -12.552817 -9.6224186 -50.635334 
4.5e+009 -3.5255528 -175.85911 11.583936 24.485517 -28.88958 -25.234483 -8.6972595 -50.544402 
4.6e+009 -2.6811509 173.50132 11.050525 10.114022 -29.216498 -38.765978 -7.5206899 -52.284491 
4.7e+009 -2.0338681 162.00026 10.473838 -3.6374105 -29.592267 -51.60741 -6.6837386 -54.911519 
4.8e+009 -1.5811194 152.01805 9.7464423 -16.816466 -30.108338 -63.906466 -5.9530402 -57.955297 
4.9e+009 -1.2908726 141.54414 8.9709888 -29.818414 -30.688521 -76.048414 -5.2122333 -61.607107 
5e+009 -1.0964473 132.79915 8.203795 -42.062701 -31.248837 -87.382701 -4.566369 -65.230292 
5.1e+009 -0.85711048 123.5044 7.5532592 -54.819838 -31.703859 -99.247161 -4.1239622 -67.997119 
5.2e+009 -0.88376725 115.37626 6.6213199 -65.836176 -32.441254 -109.32618 -3.6507553 -72.171272 
5.3e+009 -0.86360907 107.46857 5.9371622 -75.837456 -32.93898 -118.5273 -3.3827925 -75.1289 
5.4e+009 -0.8055362 100.03882 5.1490703 -87.672597 -33.541407 -129.5226 -2.9971133 -78.763032 
5.5e+009 -0.99219096 92.325502 4.1897693 -97.527132 -34.317071 -138.50223 -2.7216555 -82.074293 
5.6e+009 -1.0456693 86.012056 3.4127954 -108.38887 -34.911372 -148.44887 -2.4557951 -84.570785 
5.7e+009 -1.0890579 79.730348 2.7036467 -118.79342 -35.443241 -157.99669 -2.2226397 -87.363908 
5.8e+009 -1.2793178 72.988657 1.6516344 -127.41388 -36.318786 -165.72388 -2.0976195 -90.371586 
5.9e+009 -1.3932885 67.77314 0.86416523 -136.27424 -36.93464 -173.70662 -1.8922115 -92.863392 
6e+009 -1.1748811 61.706527 0.087934726 -149.74024 -37.54043 173.73976 -1.667314 -94.824553 
6.1e+009 -1.2812854 55.973224 -0.545847 -159.03664 -38.00505 165.31742 -1.5341263 -96.949627 
6.2e+009 -1.4505671 50.040669 -1.6556733 -167.33312 -38.946671 157.92688 -1.3820462 -98.795389 
6.3e+009 -1.4654994 46.120107 -2.3183003 -176.08482 -39.440766 150.04896 -1.255321 -101.28369 
6.4e+009 -1.7379484 41.21766 -3.2997922 177.36479 -40.254869 144.40479 -1.1148083 -103.08024 
6.5e+009 -1.8818502 35.675996 -4.278765 170.00331 -41.067968 137.91818 -1.0337235 -105.21981 
6.6e+009 -1.949333 31.522368 -5.1970462 162.74271 -41.821646 131.56271 -0.94533678 -107.16525 
6.7e+009 -2.029108 27.040622 -6.254872 154.30553 -42.713414 123.96185 -0.80874716 -109.131 
6.8e+009 -2.0872167 22.497049 -7.2300942 147.41757 -43.523863 117.93757 -0.71418429 -110.93285 
6.9e+009 -2.1154658 18.721636 -8.3108404 139.99713 -44.447188 111.47292 -0.69120568 -112.70996 
7e+009 -2.1158109 15.145368 -9.6521657 132.87329 -45.632311 105.33329 -0.64860917 -115.00416 
7.1e+009 -2.012555 11.159183 -11.3354 125.94311 -47.147291 99.276719 -0.57851464 -116.96182 
7.2e+009 -1.9937328 7.4986958 -12.909749 119.925 -48.555037 94.154995 -0.5801678 -118.68446 
7.3e+009 -1.939449 2.970742 -14.560841 117.01192 -50.046278 92.08208 -0.56631447 -120.45989 
7.4e+009 -1.8460044 -0.5509408 -16.260202 114.63638 -51.587774 90.576377 -0.52740078 -122.24929 
7.5e+009 -1.7884267 -4.5903129 -18.138874 115.12908 -53.29937 92.00848 -0.53400005 -124.09304 
7.6e+009 -1.6935454 -8.4274116 -19.311894 117.61777 -54.30723 95.457771 -0.52095042 -125.79775 
7.7e+009 -1.590049 -12.085259 -20.213604 120.66701 -55.050169 99.199999 -0.55848484 -127.57825 
7.8e+009 -1.4970897 -16.264631 -21.099676 121.12071 -55.778676 100.38071 -0.55632433 -129.44628 
7.9e+009 -1.431264 -19.998672 -21.609479 125.90991 -56.153478 106.18353 -0.59131658 -131.41719 
8e+009 -1.4115137 -23.585953 -21.659642 124.76628 -56.068758 106.06628 -0.61438971 -133.06261 
8.1e+009 -1.3431459 -27.266108 -22.078967 122.96549 -56.299259 105.07393 -0.69402808 -135.13662 
8.2e+009 -1.2816236 -30.440592 -22.363431 119.10948 -56.398381 102.05948 -0.73952893 -136.83396 
8.3e+009 -1.2439129 -33.459998 -22.733563 117.3155 -56.613899 101.15581 -0.84139241 -139.07414 
8.4e+009 -1.2021363 -36.591807 -23.262688 115.11617 -56.989642 99.866171 -0.93703419 -140.97467 
8.5e+009 -1.1886513 -39.711113 -23.397396 115.17308 -56.971187 100.41264 -0.99932119 -143.18929 
8.6e+009 -1.1118661 -42.843006 -24.025333 112.78472 -57.446511 98.544722 -1.0936173 -145.57297 
8.7e+009 -1.1113556 -45.342979 -23.877328 109.77779 -57.143837 96.508293 -1.1492933 -148.0671 
8.8e+009 -1.0542699 -48.133256 -24.134939 107.62262 -57.248527 95.342622 -1.2833843 -150.67776 
8.9e+009 -0.99781763 -50.720562 -24.139492 106.70773 -57.107537 95.306213 -1.3876377 -152.59363 
9e+009 -0.97528228 -53.22511 -23.980044 102.90271 -56.803937 92.392708 -1.4423517 -154.77272 
9.1e+009 -0.94238188 -55.723394 -23.640443 98.530672 -56.313465 88.704245 -1.5732039 -158.24855 
9.2e+009 -0.838957 -58.375597 -23.968924 96.281131 -56.492739 87.161131 -1.6975202 -161.22759 
9.3e+009 -0.80081777 -60.624284 -23.730396 89.568099 -56.110274 81.232419 -1.8078536 -163.85972 
9.4e+009 -0.76386806 -62.894765 -23.349583 81.932961 -55.58743 74.402961 -2.0185218 -167.82612 
9.5e+009 -0.6891604 -65.326165 -22.549879 73.557461 -54.632455 66.859348 -2.133424 -172.10001 
9.6e+009 -0.57189271 -67.664307 -22.332204 64.158287 -54.261304 58.308287 -2.3174886 -176.49522 
9.7e+009 -0.58274704 -69.956723 -21.557433 48.370185 -53.35443 43.387592 -2.4815299 178.23273 
9.8e+009 -0.52055019 -72.396983 -21.736715 30.647898 -53.403749 26.547898 -2.8038433 172.7651 
9.9e+009 -0.45837579 -74.964823 -21.123172 14.373052 -52.582934 11.052842 -2.9922611 164.31955 
1e+010 -0.3754011 -77.579409 -22.632585 -6.5491222 -53.888666 -9.0691222 -3.4185809 151.62758 
1.01e+010 -0.32505086 -79.868836 -23.139238 -36.428201 -54.244234 -38.431573 -3.4180686 140.12523 
1.02e+010 -0.2552993 -82.305552 -23.745105 -54.876482 -54.700704 -56.336482 -3.506498 122.00074 
1.03e+010 -0.25640825 -84.809521 -25.060028 -81.47383 -55.863113 -82.300018 -4.1235187 96.673036 
1.04e+010 -0.15456959 -87.02535 -26.619278 -105.72422 -57.271419 -105.89422 -4.2054161 71.231602 
1.05e+010 -0.13144344 -89.678248 -27.313382 -142.67204 -57.818498 -142.24749 -4.4668401 39.045106 
1.06e+010 -0.075056306 -91.534906 -32.71109 169.53176 -63.070679 170.57176 -4.0334417 4.1905854 
1.07e+010 -0.045167918 -94.051491 -29.670926 132.23791 -59.8982 133.99543 -2.2035354 -19.121236 
1.08e+010 -0.022509967 -96.006272 -29.797072 91.604683 -59.894046 94.094683 -1.5540779 -39.472092 
1.09e+010 0.0085330399 -98.398355 -29.5983 86.199114 -59.537498 89.344987 -1.1239007 -52.588112 
1.1e+010 0.010949472 -100.51515 -30.79085 59.711314 -60.574256 63.531314 -0.78265461 -67.438386 
1.11e+010 0.036481225 -102.74454 -33.608473 46.515516 -63.266716 51.05898 -0.82575653 -77.560484 
1.12e+010 0.060331313 -105.233 -33.226708 24.1385 -62.76253 29.4185 -0.51241745 -85.754952 
1.13e+010 0.018510954 -107.64455 -34.502979 5.3164614 -63.873956 11.10278 -0.42506314 -92.579225 
1.14e+010 7.2133495e-005 -110.14483 -34.672071 -11.764139 -63.879909 -5.4441394 -0.36210522 -97.7987 
1.15e+010 0.024963781 -112.47488 -35.535545 -17.894476 -64.616334 -11.013291 -0.35527927 -101.80167 
1.16e+010 -0.034627263 -114.79579 -36.437317 -34.663175 -65.39231 -27.203175 -0.27574593 -105.21875 
1.17e+010 -0.093186335 -117.34297 -37.059326 -43.297043 -65.858967 -35.211516 -0.22499327 -108.17521 
1.18e+010 -0.17768473 -119.33871 -37.116072 -56.921063 -65.762799 -48.191063 -0.16688382 -110.56131 
1.19e+010 -0.33533828 -122.72148 -37.751253 -71.767827 -66.304336 -62.533321 -0.18322532 -112.59411 
1.2e+010 -0.37623727 -125.47682 -37.223597 -81.764935 -65.684238 -72.014935 -0.16586232 -114.60269 
1.21e+010 -0.44827539 -128.64783 -37.024086 -89.788074 -65.319814 -79.217677 -0.12023921 -116.67788 
1.22e+010 -0.63711677 -132.098 -37.312754 -105.04161 -65.447618 -93.631611 -0.13915588 -118.44129 
1.23e+010 -0.76918761 -135.0205 -37.433914 -114.00953 -65.408251 -102.13275 -0.12426002 -119.91085 
1.24e+010 -0.94567445 -138.79197 -37.927516 -127.58801 -65.743381 -115.21801 -0.13393932 -121.48552 
1.25e+010 -1.1363955 -141.98896 -37.627424 -139.21045 -65.329915 -126.31896 -0.12746439 -122.89299 
1.26e+010 -1.383826 -147.22403 -37.535385 -148.89175 -65.125006 -135.46175 -0.11469186 -124.08824 
1.27e+010 -1.5293013 -150.97909 -37.849157 -158.82491 -65.281146 -144.75945 -0.10459386 -125.27988 
1.28e+010 -1.8356187 -155.44462 -37.862698 -172.2978 -65.140423 -157.5878 -0.098360275 -126.34557 
1.29e+010 -2.1517844 -161.53635 -37.756565 178.60015 -64.932274 -166.31481 -0.088669154 -127.36552 
1.3e+010 -2.5512806 -167.72548 -37.644368 171.35042 -64.719259 -173.16958 -0.090667782 -128.3222 
1.31e+010 -3.0060238 -174.89324 -37.844975 160.05901 -64.760634 176.05706 -0.093054673 -129.20832 
1.32e+010 -3.4837041 176.52388 -37.502003 149.68299 -64.25986 166.22299 -0.079308864 -130.05782 
1.33e+010 -4.1135862 169.23231 -37.15138 137.37251 -63.760683 154.37282 -0.092036315 -130.76941 
1.34e+010 -4.4436106 158.50077 -37.167764 130.16357 -63.631605 147.64357 -0.090645558 -131.6161 
1.35e+010 -4.9647296 147.54967 -37.032466 121.11058 -63.396179 139.2031 -0.07826061 -132.49443 
1.36e+010 -5.6115932 131.06488 -37.309075 110.88952 -63.574907 129.60952 -0.06934171 -133.27078 
1.37e+010 -6.1148208 119.30804 -37.608508 101.18776 -63.705948 120.34575 -0.070227451 -134.01943 
1.38e+010 -6.1141423 101.75303 -37.650292 94.3408 -63.581272 113.9608 -0.069837213 -134.75124 
1.39e+010 -6.2564217 83.893333 -38.179885 87.987386 -64.021849 107.88091 -0.062630913 -135.47244 
1.4e+010 -5.7137366 68.494974 -38.112498 79.690107 -63.866388 99.870107 -0.054467778 -136.10988 
1.41e+010 -5.5414425 53.159646 -38.876633 73.439445 -64.50065 94.286269 -0.048850875 -136.74495 
1.42e+010 -4.6883246 39.138019 -39.103778 65.084816 -64.600359 86.614816 -0.041810756 -137.34286 
1.43e+010 -4.2096112 27.982842 -39.648028 59.742462 -65.02151 81.701983 -0.041848672 -137.92029 
1.44e+010 -3.4782735 19.484142 -40.068259 53.596217 -65.320429 76.006217 -0.038030997 -138.46857 
1.45e+010 -3.3126753 9.5602549 -40.670218 47.885408 -65.784285 70.862485 -0.034232952 -138.96399 
1.46e+010 -2.8919589 2.2676982 -41.306598 43.375891 -66.284778 66.935891 -0.028246727 -139.43608 
1.47e+010 -2.4899914 -4.9266966 -41.924533 37.684304 -66.772717 61.649867 -0.028882453 -139.89973 
1.48e+010 -2.3959343 -11.268567 -42.335695 31.371989 -67.055706 55.761989 -0.029688755 -140.35969 
1.49e+010 -2.2707442 -16.731583 -42.940543 25.656089 -67.529546 50.44073 -0.02462544 -140.75822 
1.5e+010 -2.1506475 -21.575853 -43.52911 18.89938 -67.988719 44.09938 -0.025539733 -141.18271 
1.51e+010 -2.1471268 -25.32866 -43.871423 14.830582 -68.209301 40.326597 -0.026015199 -141.59305 
1.52e+010 -2.2716496 -27.549434 -44.417804 10.156618 -68.635649 35.966618 -0.021764516 -141.95554 
1.53e+010 -2.0184882 -30.010378 -45.020729 5.5070066 -69.142751 31.739747 -0.019080272 -142.36 
1.54e+010 -1.7631319 -33.271651 -45.368488 1.6505311 -69.396418 28.320531 -0.022693733 -142.73315 
1.55e+010 -1.6123616 -34.615772 -46.35804 -4.7375594 -70.251985 22.382355 -0.019981142 -143.06039 
1.56e+010 -1.3266962 -38.053671 -46.905703 -10.632387 -70.667895 16.957613 -0.013159709 -143.38963 
1.57e+010 -1.1177007 -40.77889 -47.553356 -15.458536 -71.23279 12.379531 -0.010855475 -143.72617 
1.58e+010 -0.91093952 -43.47658 -48.415391 -20.775623 -72.013202 7.3243772 -0.011380216 -144.03143 
1.59e+010 -0.92711386 -45.615867 -49.596736 -25.485896 -73.077305 3.2806099 -0.013022701 -144.32803 
1.6e+010 -0.85550152 -48.399226 -50.564197 -31.241647 -73.930734 -1.7916473 -0.0098867076 -144.60116 
1.61e+010 -0.7799707 -50.222383 -51.879707 -38.380666 -75.139701 -8.3795617 -0.010521208 -144.86842 
1.62e+010 -0.71835581 -52.322371 -52.793292 -41.72177 -75.949449 -11.15177 -0.012590926 -145.14347 
1.63e+010 -0.70376985 -54.271537 -53.758973 -47.663219 -76.768014 -16.456222 -0.012213369 -145.4099 
1.64e+010 -0.66191142 -56.053826 -54.910329 -54.402489 -77.774328 -22.532489 -0.011747202 -145.6779 
1.65e+010 -0.62009377 -58.103382 -55.833029 -59.49312 -78.538701 -27.446111 -0.014727663 -145.96269 
1.66e+010 -0.58096667 -59.989053 -56.63196 -63.675004 -79.180627 -31.425004 -0.014311492 -146.24789 
1.67e+010 -0.5140776 -61.806993 -57.802336 -71.709848 -80.245837 -39.142682 -0.013812887 -146.52662 
1.68e+010 -0.48724989 -63.718737 -58.529065 -75.674568 -80.868259 -42.774568 -0.013388919 -146.8139 
1.69e+010 -0.45139788 -65.420421 -60.040732 -76.578588 -82.273936 -43.451975 -0.011472028 -147.09421 
1.7e+010 -0.43770028 -67.214606 -61.807481 -77.259484 -83.936397 -43.889484 -0.012033939 -147.3703 
1.71e+010 -0.40334463 -68.865311 -63.683686 -75.847148 -85.70469 -42.000746 -0.010334865 -147.63554 
1.72e+010 -0.39254588 -70.509805 -65.474211 -67.682403 -87.389562 -33.342403 -0.0086599335 -147.88541 
1.73e+010 -0.37267035 -71.753467 -66.923908 -55.590263 -88.756841 -20.698574 -0.0092245278 -148.12125 
1.74e+010 -0.3651635 -73.358743 -67.49779 -38.408903 -89.251194 -2.9489034 -0.0047319251 -148.35717 
1.75e+010 -0.38335815 -74.690354 -67.064875 -20.711029 -88.647391 15.262176 -0.0032549175 -148.59675 
1.76e+010 -0.39225792 -76.001513 -64.688405 -9.9364905 -86.101783 26.57351 -0.0033033822 -148.83836 
1.77e+010 -0.39323507 -76.991139 -61.250963 -9.3651888 -82.541341 27.362707 -0.0040306781 -149.07441 
1.78e+010 -0.39969483 -78.050126 -58.845516 -15.002903 -80.01473 21.967097 -0.0039231105 -149.33562 
1.79e+010 -0.37573594 -79.188224 -57.66018 -26.52411 -78.68865 10.726467 -0.0088866657 -149.58588 
1.8e+010 -0.33964057 -80.374597 -57.025189 -36.407791 -77.913874 1.1522093 -0.011728757 -149.81855 
1.81e+010 -0.31497493 -81.696533 -56.683301 -46.03968 -77.47468 -7.9690456 -0.014738666 -150.07721 
1.82e+010 -0.302713 -82.895784 -56.229407 -55.877128 -76.926303 -17.277128 -0.015583994 -150.31948 
1.83e+010 -0.28664964 -84.201016 -55.559682 -62.044253 -76.100582 -22.996844 -0.011398551 -150.56653 
1.84e+010 -0.2591098 -85.349202 -55.219578 -70.33524 -75.605595 -30.80524 -0.010068155 -150.80838 
1.85e+010 -0.21938447 -86.410508 -54.61287 -78.193078 -74.847292 -38.485348 -0.0086806125 -151.00796 
1.86e+010 -0.21230896 -87.462886 -53.967192 -83.950055 -74.049236 -44.040055 -0.002350267 -151.21151 
1.87e+010 -0.19921573 -88.431577 -52.338572 -92.043503 -72.291505 -51.929659 -0.0031496008 -151.45168 
1.88e+010 -0.21558324 -89.504803 -50.810188 -105.06566 -70.634858 -64.725659 -0.0039620862 -151.67649 
1.89e+010 -0.22283505 -90.364782 -49.53318 -117.95724 -69.208078 -77.482372 -0.0025338258 -151.89713 
1.9e+010 -0.27951574 -91.252984 -47.91332 -144.63994 -67.439705 -104.00994 -0.010340387 -152.1338 
1.91e+010 -0.28849052 -91.688755 -48.542071 -172.95363 -67.932969 -132.26209 -0.016162584 -152.35386 
1.92e+010 -0.2516999 -92.460811 -49.149654 161.34096 -68.40558 -157.87904 -0.016667466 -152.61132 
1.93e+010 -0.22851369 -93.252022 -51.663096 144.54855 -70.797978 -174.72547 -0.017483071 -152.87756 
1.94e+010 -0.19212548 -94.274669 -53.437144 130.25588 -72.450765 170.94588 -0.01602472 -153.15349 
1.95e+010 -0.19429864 -95.335386 -55.455349 121.52004 -74.371333 161.86382 -0.017636619 -153.445 
1.96e+010 -0.15665289 -96.321757 -57.180036 113.12994 -75.996252 153.14994 -0.01927983 -153.70131 
1.97e+010 -0.16679376 -97.228362 -58.366377 106.15656 -77.192657 146.48703 -0.013952283 -153.95873 
1.98e+010 -0.15805731 -98.10171 -59.83497 99.206067 -78.672135 139.84607 -0.015183062 -154.18028 
1.99e+010 -0.15240023 -98.996917 -60.326008 93.852251 -79.090301 135.25681 -0.015833984 -154.39791 
2e+010 -0.15247643 -99.770186 -62.101109 85.672365 -80.796188 127.85236 -0.009210704 -154.59541 

!Noise Parameters
!Freq  NFmin(dB)  Mag(GammaOpt)  Ang(GammaOpt)(deg)  rn(normalized)
1e+008 8.7870885 0.96491047 36.124415 91.789778
2e+008 7.6178504 0.87849933 69.827688 14.146891
3e+008 5.9166394 0.76939032 99.675579 2.8531292
4e+008 4.7439156 0.6636075 125.20185 0.75997476
5e+008 3.6318104 0.54742571 149.74363 0.22477699
6e+008 2.9348368 0.45393505 172.56676 0.13430419
