!Keysight Technologies N9918A: A.08.15
!Date: Thursday, 07 December 2017 12:35:14
!Timezone: (GMT-08:00) Pacific Time (US & Canada)
!Model: N9918A
!Serial: MY53103150
!GPS Latitude: 
!GPS Longitude: 
!GPS TimeStamp: 0001-01-01 00:00:00Z
!GPS Seconds Since Last Read: 0
!CHECKSUM:0457660447
!Correction: S11(ON U)S21(ON U)S12(ON U)S22(ON U)
!S2P File: Measurements:S11,S21,S12,S22:
# Hz S DB R 50
3000000000	-1.31179045351102	-121.051515671988	-41.8506025169039	-101.523432233186	-48.3201123187548	-145.795455831481	-0.0957963596134234	-0.37094751920177	
3020000000	-1.10829041261614	-123.464170298465	-47.2107606849405	-47.3238127838509	-51.3772032843313	127.789715858044	-0.182269427932302	-0.468395200383032	
3040000000	-1.11808477557119	-124.909716295757	-44.8311284575965	20.1969431552409	-45.8015928660764	-125.927460482375	0.0346849157632344	-0.497737939200267	
3060000000	-1.14100270653185	-126.170963757362	-50.7469163191103	-79.3311377461273	-47.9996894108237	-30.2025783777136	0.00992358574233421	0.372192712058731	
3080000000	-1.2533377721381	-127.809570839027	-44.8475956938293	3.13155958786615	-51.3894366205327	170.820445273219	-0.156477148521233	-0.0696059541538294	
3100000000	-1.36683469339654	-129.541940162175	-45.2853926100971	-51.3940409764177	-44.1698483525336	170.046381900449	-0.0316300561347205	-0.351237473548362	
3120000000	-1.12934608450512	-132.086123601122	-47.423408210757	104.170633978682	-46.6356247861544	103.60023544864	-0.185677592781354	-0.363982663317805	
3140000000	-1.06296988703335	-134.189686981231	-47.7940764976159	-144.935342428757	-58.6714478644868	121.367866814157	-0.0642352296371748	-0.189236057624003	
3160000000	-0.96187550069267	-135.887003929839	-58.9636250652553	-44.7640614838613	-48.4201309494389	-67.6853264313502	0.00934444102962441	-0.617330548473245	
3180000000	-1.0707835638453	-137.807573357176	-46.7772179348055	81.1180797437753	-49.3302641903267	-94.1531864914924	-0.126002521021632	-0.734030690994837	
3200000000	-1.62983983957758	-137.655812865822	-48.6221253037754	91.2917383700626	-50.7771618021108	69.2471312866421	-0.00476166499549673	-0.267716462975968	
3220000000	-1.29288427852198	-139.539173569542	-46.4277152505709	133.778992691917	-46.1683197256975	-11.1776480161813	-0.0343262654477316	-0.169833330902763	
3240000000	-1.03723593169451	-139.879780862755	-49.8703885241661	-68.3776850126633	-47.7561570136708	-82.4786589423513	-0.180306488902035	0.599643210596476	
3260000000	-1.07652739982954	-143.430452888824	-46.2978882734939	-146.582756908625	-47.1682652127036	-121.043416122731	-0.0250663128586242	-0.520939769634181	
3280000000	-1.08110217584433	-144.857928181297	-46.9593568532781	62.5440775663013	-54.1482472026841	148.253539637618	-0.113509761870349	0.0658140968751985	
3300000000	-1.25699142952816	-146.328410631837	-46.427410076459	-129.961302088159	-49.6668763384347	-8.29126940917774	-0.197227491839305	-0.110108245878552	
3320000000	-1.13538874094301	-148.197336291978	-43.5877417556617	-173.834694565085	-58.1925667018896	56.6272090076768	-0.110352812737659	0.331736215998093	
3340000000	-1.03757435113071	-149.277479925366	-60.7632575851806	-165.619824108438	-58.0892237361389	98.7050118398972	-0.0667199815524814	-0.568277661424914	
3360000000	-1.02875382043797	-151.206987988968	-45.6646038848787	53.4953359545899	-45.5988638008333	-58.4443530382291	-0.084258444717527	0.274424706291691	
3380000000	-1.26386669610007	-152.483378375779	-47.596584367132	28.3946854940197	-48.1876072266827	-91.5048655862228	-0.127503868497746	0.675373800820708	
3400000000	-1.04594920199817	-154.496598663877	-42.2769855827985	179.859770642205	-47.6510247009771	28.0605418030107	0.0347441297565708	-0.0806368998773349	
3420000000	-1.0019087038567	-155.526613702828	-49.6751003666415	129.239187602821	-47.0346981301525	9.26730630065591	-0.115816485073199	-0.693390304982416	
3440000000	-1.1278657431619	-157.43570928774	-58.0996889640943	96.5293465890928	-45.717250233369	-10.6352282457043	-0.113613851352231	0.541064189184936	
3460000000	-1.28275671524674	-160.051473121891	-53.0113555206075	2.50195428285806	-41.65695583111	-35.2683630293454	-0.00911413281031339	0.625932187718901	
3480000000	-1.15543060952847	-159.130956148811	-42.0887876508337	-19.0504522316085	-42.6487211901867	129.384065025708	-0.0994148198606126	-0.863530119776355	
3500000000	-1.18816996342054	-161.588148714523	-45.8223504729669	144.372797893006	-51.4246759229551	-122.501593847527	0.053926654240955	-0.505841150613687	
3520000000	-1.16224743737916	-163.163467047849	-46.3607004112882	177.464036579066	-42.9736470872705	-103.942903673241	-0.103632278832721	-0.877180205951017	
3540000000	-1.09316580651505	-165.624158338219	-47.768720030699	97.3617755587517	-46.4133713013691	-21.7685154884583	-0.071787903616759	-0.897488972219146	
3560000000	-1.40381625814165	-167.39176539955	-53.3815234778004	62.3616645864279	-41.5719171617066	160.113404500325	-0.0771430413684073	-0.562495470075147	
3580000000	-1.36614868930947	-168.568289767216	-50.4113840474417	-106.746777818449	-45.0648069600631	-85.8308851680358	-0.000739259253160081	-0.273194612363545	
3600000000	-1.49416621381168	-170.189984168386	-40.9586222134856	-51.0587511435943	-51.0070475822773	-4.89554225302454	0.0479555905414038	-0.14938350817949	
3620000000	-1.47183655124243	-171.717893139241	-50.952805001953	130.369173438	-50.4079342771483	-21.0462535888135	-0.056411028415897	-0.243026207741685	
3640000000	-1.45921975924076	-172.560289502672	-46.5274090457465	-130.399643066411	-48.9413426750176	173.28288926266	-0.0795777381955982	-0.570960747620984	
3660000000	-1.64277193480309	-174.379567251717	-47.3510281383485	171.435385692537	-55.8667371296706	-27.264691586433	-0.193027727729548	-1.44426626260261	
3680000000	-1.41150129905109	-174.709274721194	-49.0868640976935	77.6377347380334	-44.3718066481114	-105.367932578731	-0.0830524489781055	-0.514565339992626	
3700000000	-1.5618915883387	-176.528130260551	-53.071551205902	134.186402352845	-45.3552608127523	179.421908591419	-0.125066209070512	-0.310005345871198	
3720000000	-1.45153951833504	-177.649709252565	-44.9988804216754	176.969799247207	-70.8213172042383	151.673757279849	-0.0995621196206469	-0.404657789444799	
3740000000	-1.49558057724386	-179.136086731962	-50.6704205840721	-86.3690558605927	-50.8937820186311	-151.633210522836	0.00197924384091851	-0.570287091122755	
3760000000	-1.32483212698636	179.359693235005	-45.0521783389907	-157.091175735091	-46.6242181537449	-114.855464609274	0.0307562944493594	0.285398149579917	
3780000000	-1.5385545051867	177.927471888837	-44.8176567921087	-74.1079371291052	-41.5546859607372	-3.94424737497885	0.0699227714068632	-0.846634554490006	
3800000000	-1.23968865387885	177.178297223055	-43.3866063215848	71.473611872106	-44.6145168627756	40.0960350405252	-0.00824445044609187	0.0716347212391562	
3820000000	-1.41855288761349	175.876735957321	-46.1580874820342	4.45122726438958	-52.4170533974783	112.043575058631	-0.0616355031061968	-0.216285589848887	
3840000000	-1.43764537003697	172.612693049184	-43.1564685162195	-119.683539036814	-46.1170023773822	-174.356664132127	-0.0338127450161411	0.548338902914573	
3860000000	-1.49282204885596	172.050664983339	-62.4083755234837	106.9074419187	-48.1616145237208	-134.191007157864	-0.0233953083382646	-0.661175865029232	
3880000000	-1.36940347969357	170.407015903482	-56.7868298281567	-36.5503162496961	-48.7998847062662	-168.718947208087	-0.101232782188798	-0.26402731727282	
3900000000	-1.3895426342169	168.986517724651	-51.441506399981	73.1355092637582	-53.8124031386005	69.6736535195729	-0.0862299941752619	0.0034869634406805	
3920000000	-1.31755914091041	168.32231304541	-61.2752666383921	166.217472083009	-44.1700305551265	173.188107514973	-0.0978527633969556	-0.0694552883420507	
3940000000	-1.58792300208196	166.897669081282	-48.8321408192153	-47.9698844498152	-46.5777555554176	118.526517825382	-0.0994159986091389	0.456078317678004	
3960000000	-1.34463977992019	164.639536597288	-43.0003052224993	23.3004222527262	-43.8106208384103	-43.0443304369842	-0.0280629555582694	-0.803070693580596	
3980000000	-1.34986077613068	163.110688101828	-66.2619077623757	36.4595677138365	-46.2603720925253	10.3272016552831	-0.0632655411916039	0.123491747898172	
4000000000	-1.41711198357357	161.699481201706	-56.0071874143316	164.022619460046	-46.1599691969309	-106.197921712272	0.0149708540847975	-0.630704281489875	
4020000000	-1.40783118875853	159.897911369606	-53.1127519850658	15.5376477340456	-59.7529597112202	69.8037976003335	-0.116421221701847	-0.428022686812332	
4040000000	-1.38332755865945	159.128564287964	-47.727171681975	-128.125831206276	-55.7668408712189	-64.8997720102338	-0.0414300906314787	-0.186945276181234	
4060000000	-1.3246567678465	157.331346211925	-42.5510955302507	104.416637531329	-41.6496071905605	7.44509808626382	-0.0848051606499999	0.116972387552204	
4080000000	-1.47658147238798	155.63511888257	-44.7428958327777	-90.2823516026938	-43.679893858319	40.1821143797392	-0.136784787607065	-0.0160743623530212	
4100000000	-1.44240446088121	153.419337908143	-49.2581692370854	149.760278378974	-43.8347911433045	-172.686535745463	-0.104224615251131	-0.120655577608296	
4120000000	-1.50199852287587	152.52197615713	-40.674156918076	87.6653147947454	-46.8395430316862	-92.1263475036693	-0.0275257931197035	-0.487686017567118	
4140000000	-1.45318631582653	150.549412225285	-46.8055342034978	-108.427170862952	-44.1259895877517	-159.236792243996	-0.229698687449893	-0.456741645730262	
4160000000	-1.43598463294547	149.162464184681	-54.2471410621744	115.288977446744	-50.4541680319479	71.4988999837077	-0.123065463592239	-0.589760752361378	
4180000000	-1.49231499869973	147.946516011352	-54.928658623484	-46.5927457642066	-49.3449309178773	65.898545264514	-0.157170621489478	-0.676172964273475	
4200000000	-1.37439404273653	145.590193256996	-50.7335949181107	150.595817364029	-50.2860070033762	-166.395128961374	-0.192624970702713	-0.429696340703421	
4220000000	-1.46912362825324	144.696318304955	-51.6492268096052	-23.6832125066107	-47.2207326647355	-159.617312834651	-0.0110330987183571	-0.367955099288131	
4240000000	-1.48844324016242	143.223495758793	-54.587374414172	66.9800779465513	-69.2679881871836	140.74378836247	-0.0763450150808025	-1.32410453553906	
4260000000	-1.66333708959231	142.464753475073	-48.7099139669763	-174.165597752668	-46.4508266584932	32.8792386380144	-0.0611842059150009	-1.22003239968516	
4280000000	-1.72868804325672	139.516890632139	-51.3920597204292	178.084184267143	-51.6929029195769	114.70892628969	-0.0721182654683268	-1.10677757543191	
4300000000	-1.62450502355164	138.878849865599	-61.6117521940599	14.847337158371	-48.0232309695171	-16.8176362118358	0.121374341937453	-0.307266646897912	
4320000000	-1.5213366177492	136.842069215341	-53.8986828735185	-96.7450201705474	-44.8171052008423	-53.1658953032508	-0.122181537048099	-0.0753063960979015	
4340000000	-1.69342855290092	135.843373236707	-40.7699189176908	-84.0931867547242	-47.4195634149555	-27.4231788621033	-0.0915695145668953	-0.861783160129963	
4360000000	-1.70423963944614	133.980758323345	-42.7300600549051	136.795614940939	-50.1613371939588	3.58807588869095	-0.152464882493046	-1.75605076864628	
4380000000	-1.59294085326958	133.005109612194	-39.6358187286661	100.312508176476	-53.5638164849376	-108.28587264307	0.00441167766881267	-0.657312344989129	
4400000000	-1.68814560519514	131.098002386897	-49.1590195522083	100.788561262492	-48.3183808141538	168.030946612863	-0.0391625621431035	-0.0427013146199905	
4420000000	-1.7016456463717	130.31684492067	-55.7425815502916	60.8308715237239	-48.915586741705	-44.0642482478433	-0.0525034347293117	-0.705485298785254	
4440000000	-1.58391132987895	127.765259970514	-50.0615026661648	-109.477499734504	-52.9331732366926	-28.0467132556878	-0.027550671965983	-0.030494896609494	
4460000000	-1.68283522039656	126.582047364718	-44.7894155399647	-74.0679123418172	-47.281087363248	-43.1012947277213	0.00857498668155904	-0.174980643866655	
4480000000	-1.84670110888624	125.289970837039	-51.8360477390881	96.3784705396264	-55.5794319912705	-129.859964093308	-0.116981758674882	-0.667734002638526	
4500000000	-1.65838376717181	122.882203708359	-52.2120631929655	-175.918910643879	-48.7577624917796	168.913767323645	-0.0656542344073606	0.148399252627362	
4520000000	-1.88969267129325	123.170984906872	-53.1158787168994	-120.934305339671	-47.0318158243937	-23.6874294519345	0.0209348435112159	-0.41413305262428	
4540000000	-1.78471291625539	121.050766728245	-45.0344633506958	-2.58445540102852	-45.3632883989422	153.554150504046	-0.13685606433463	-0.922071304329605	
4560000000	-1.81728922291255	119.782189540637	-57.9363722037726	162.869713072395	-49.8056773849665	141.83542103906	0.0499997444987016	-0.367488028982395	
4580000000	-1.75404064071425	117.944438524536	-59.9817702172606	-8.20951412269304	-48.4934619225916	-94.8649657313712	-0.0928111181578144	0.186604005202709	
4600000000	-1.89597246936278	116.04517278615	-46.204134737075	-115.620397434712	-45.7827184727843	53.3617023187933	0.094494253056724	0.412060692887479	
4620000000	-1.8713842711885	114.427632010348	-47.8289152230029	157.788567273876	-52.4590867175522	-60.5830229490191	-0.208056754685021	-0.6458349442009	
4640000000	-1.92759260531091	113.274646348011	-51.584801207678	131.268025294237	-55.4497388452599	101.608404890753	-0.252503656277082	-0.157097910278062	
4660000000	-1.88322621102132	110.85909530615	-44.9368032912037	-103.270061599643	-49.7737279525041	-135.027232790273	-0.141381477636115	-0.146623184212015	
4680000000	-1.96495909042091	109.142183986938	-47.4176012523176	25.661140407108	-42.6012540271896	29.0676991436306	0.0164647790773342	0.0926568696084564	
4700000000	-1.98528530833217	107.89828312619	-45.5778688211923	76.1103345654749	-46.4446993489082	-167.91516248943	-0.0663576797448931	-0.548140661000386	
4720000000	-1.9980054472667	105.903883605113	-48.5378843895207	-70.5734790132345	-53.4711836776799	-34.0288030522247	-0.0710652489545211	-0.623941872566231	
4740000000	-2.11355511120742	104.461915223325	-49.5602312693077	59.2312396667973	-46.8145095118015	95.9878431683255	-0.00223483855190426	-0.567896125442102	
4760000000	-2.03538279769433	102.191911892077	-48.7074213560983	-126.842773618449	-51.3028082517868	8.8088637710175	-0.0357636000408227	-0.0870905923108796	
4780000000	-2.02817718718284	101.00890864572	-53.0034237487512	53.8193611504858	-44.5687721361293	80.6671193226728	0.0725655591777515	-0.368167738848898	
4800000000	-2.13582627395786	98.8602736717893	-48.2907373458556	169.083021467798	-56.6500881392832	-175.275060661495	-0.0080896596661738	-0.360614093413386	
4820000000	-2.16376584431391	97.3589691005468	-46.2517395109903	106.876656419878	-66.9522394978158	126.757020518669	-0.00714774431894245	0.468683367237642	
4840000000	-2.1680762387892	95.9306834093237	-47.046933174871	23.2852314062863	-40.5298472228092	-106.68314184055	-0.0533449463164561	-0.863873449473923	
4860000000	-2.29940160972306	93.8500253181365	-54.6899075722738	120.680743656393	-51.7937564822964	-44.3144905901894	-0.0644108863731747	0.180001366360869	
4880000000	-2.36219793992135	92.0205330363187	-62.2537825432946	-119.520447106862	-60.5702502057411	-145.771325212723	-0.0192994430834918	0.05599846654415	
4900000000	-2.26190573423195	90.528455169777	-52.3377689239698	147.503314724855	-44.1940396677312	166.160113922459	-0.0571782869017764	0.310486469768971	
4920000000	-2.47784512465925	87.7478132653531	-49.1898478595185	-160.720689860348	-41.5101958069783	56.9494123346283	0.0362582866424592	-1.00348453367997	
4940000000	-2.52939834995854	86.0382335810048	-46.9070819065404	155.255382146541	-51.327603323779	-134.327954158108	-0.0334416696473912	0.232172755872516	
4960000000	-2.71394357395185	84.4083668622588	-54.554896726043	112.075250690503	-41.4989329530182	-86.6042619977939	-0.0783263807221162	-0.644483800767919	
4980000000	-2.6578623408653	81.7194944809497	-62.83677921475	-60.8487332150057	-49.5269392559428	-159.558634201576	-0.0954578911826893	-0.458230360052415	
5000000000	-2.66552487370134	80.0402825525791	-46.8598354794568	12.4962145644259	-48.9239592082149	66.7969477567315	-0.0492857326255464	-0.13431622882757	
5020000000	-2.73970908652643	78.0533081275857	-58.0314236306213	14.0588647331232	-49.1840590340974	-33.3092680293327	-0.0471504614951491	-0.752067316030523	
5040000000	-2.84800491422409	75.303733752511	-53.4405716470052	-61.2701282242767	-46.0711321115564	63.9374168585861	-0.0789375874563927	-0.446227810413942	
5060000000	-2.97516473003178	72.8584461590105	-47.4161049006413	-81.8150604144381	-41.4612492650551	63.619689948079	-0.0408306287579251	0.942659475485992	
5080000000	-3.11157958846323	70.6500810435321	-55.4120313481542	-45.3838382280488	-43.2356299787547	82.8062067732371	0.0991065613146435	0.0524681353300318	
5100000000	-3.23851167132305	68.8930707304221	-42.306331935661	-90.0996835139835	-47.0091882877138	20.4514720687098	-0.124034913966552	-0.412779355093432	
5120000000	-3.34289057830695	66.6298705504031	-56.1642209264651	5.91632899633819	-46.0725403656259	70.5337607652452	-0.165314316316405	0.381365154935964	
5140000000	-3.59341912009852	64.2300236140723	-47.278904527107	110.751380784886	-47.9656760824068	24.1947090599869	0.0584854242068854	-0.521986280991581	
5160000000	-3.63296085024963	61.5123278571727	-50.7090567687854	-18.9246447617095	-50.5346266625224	-119.890423181422	-0.141744916755498	-0.472344305133846	
5180000000	-3.80901807366112	59.6515688939823	-44.0919761500176	22.5814557654118	-47.2641540177292	-100.328449385051	0.037900506815827	-0.882043806725526	
5200000000	-4.05696635612297	56.5565581742852	-44.1632624383718	63.5200571783371	-41.4602735390319	65.4949675614815	-0.0627744775231613	-1.27750034812024	
5220000000	-4.2239042132702	54.2577050379216	-48.5994081876604	-71.4347208009747	-44.8658722329889	-12.288824777742	0.00709612869283085	0.0774640816512709	
5240000000	-4.47635496914211	50.9310918684603	-45.4448066034292	-32.9314514239785	-40.0710588248359	-169.889830002978	0.0413541419282992	-0.57090534358188	
5260000000	-4.70169064089716	48.8085896702774	-54.4799753562885	-5.47639774992111	-43.7522243005548	174.148997522028	0.0678316160223475	-0.218733970960362	
5280000000	-5.0020105763435	46.9037312940989	-44.1876910795183	167.512943955315	-47.8478474010709	96.1289459859312	0.0333801638703646	-0.0288110028345705	
5300000000	-5.26492272151957	42.1867296373817	-46.7601139787434	-32.1321171603241	-50.7705875770437	-31.8055308668233	-0.203146770850291	-0.909271904410224	
5320000000	-5.36231558938963	37.8799295845873	-47.1502549811576	67.4585298728652	-53.5994034064857	130.022718062614	-0.148985256575979	-0.638447952806373	
5340000000	-6.06857632325466	34.3471084091932	-59.4777274246782	154.685398726157	-50.6771618123485	-76.8232803491844	-0.068710490020247	0.42417696951255	
5360000000	-6.51485466470621	33.771346653204	-51.6668695286843	103.682782059769	-44.0028579378487	-165.634563099078	-0.0867051583763539	-0.638205592058293	
5380000000	-6.97635989629087	31.7394089411349	-47.5865686386825	-12.2679335492273	-53.3910402627429	-84.5307464234214	-0.111600750277268	-0.0614133350260177	
5400000000	-7.42976374053959	30.4454679650286	-56.7358023207029	155.817268409607	-44.2295793877442	-163.358253231882	-0.064001806867548	-0.241891794557477	
5420000000	-8.24702248754698	27.60117705151	-46.9429483392642	93.6243293286754	-43.8045857422352	99.2843212166326	-0.144147346730982	-1.70299761515609	
5440000000	-8.53341346109032	26.2011529504472	-51.9605643598492	17.9682491288064	-48.554873498462	-141.964861858976	-0.0455882358203466	-1.32532212231732	
5460000000	-8.49915548855799	23.443559784665	-54.1785026335715	-126.419716629109	-43.1706107935789	85.7159611001817	-0.0126857286504644	-0.117329015034699	
5480000000	-8.79310659601954	22.13217969272	-48.9441512869658	32.4894563873551	-50.8282936172138	147.78822557526	-0.054762084715535	-0.347194751111815	
