!Keysight Technologies N9918A: A.08.15
!Date: Thursday, 07 December 2017 12:36:18
!Timezone: (GMT-08:00) Pacific Time (US & Canada)
!Model: N9918A
!Serial: MY53103150
!GPS Latitude: 
!GPS Longitude: 
!GPS TimeStamp: 0001-01-01 00:00:00Z
!GPS Seconds Since Last Read: 0
!CHECKSUM:1375759840
!Correction: S11(ON U)S21(ON U)S12(ON U)S22(ON U)
!S2P File: Measurements:S11,S21,S12,S22:
# Hz S DB R 50
3000000000	-1.26411125638032	-110.681097227354	-48.1664409366481	-163.327762497838	-42.0908716506855	-96.3393115867827	-0.121741543830222	-0.475303125199255	
3020000000	-1.0156087802696	-112.341142383645	-61.8917996006411	-174.616737343074	-53.3035484672865	52.0473611446619	-0.168321800387463	-0.488613664218222	
3040000000	-0.913284249700109	-113.918086232464	-58.5141504273199	144.736357333344	-52.0752270284421	67.2081330014796	0.0836319686902304	-0.87426721846618	
3060000000	-0.969196086336618	-114.279850375347	-47.3837698452265	107.408540177618	-46.2078457412092	-118.518191918357	-0.0056026653454756	-0.210255393109983	
3080000000	-1.10183975710748	-116.406069651579	-48.8617316480287	-49.9263021817425	-50.3089198573393	-114.176236331536	-0.114254001181758	0.0790373509769298	
3100000000	-1.17927976305784	-118.203855761164	-52.2587214913039	56.527016887792	-43.330253667562	4.66093300866293	-0.0410168091415368	-0.089320005903471	
3120000000	-0.983186544019824	-120.356149389523	-51.7814005318936	25.1486410402333	-58.2790177128557	38.4870979316545	-0.139927222626607	-0.22492756464263	
3140000000	-0.88817707316121	-121.546051873248	-59.7112433376252	106.666006370972	-44.3602125177962	-35.2732852992278	-0.100960880691779	-0.432084411979761	
3160000000	-0.900235087465795	-122.826535427957	-46.2729810883421	-92.8296376421441	-49.0388881645302	134.238239205859	-0.0343933773452607	-0.553222205237837	
3180000000	-0.890031770655879	-124.079862368246	-51.0591354685106	-51.2241977382653	-67.2532457310168	-143.638281822621	-0.0927489035238593	-0.772771538676944	
3200000000	-0.955126034771119	-125.946294682852	-54.9969572690114	-37.8705655048611	-51.777552522606	-81.8789370364387	-0.0358746147861281	-0.598319220950325	
3220000000	-1.08639733175371	-127.354335787449	-53.3799709280034	169.198381266387	-45.1411975435503	-43.0262373625743	-0.0740631588378344	0.322086576656406	
3240000000	-0.833594567267225	-127.117451727601	-49.2099304145963	-21.0981579005163	-55.6148257643355	57.4343233735251	-0.144218155461956	0.684424586984705	
3260000000	-0.970958562269242	-129.85308987588	-53.4949523775939	-175.035344811694	-55.8395434099694	47.1745726406032	0.0103074910902723	-0.612375673410935	
3280000000	-0.955751480923069	-131.34612249604	-47.737127099385	-19.4134394960683	-44.9493133032012	-10.5113942360492	-0.15700543213089	-0.0796599946757141	
3300000000	-1.13285583396732	-132.735943259206	-52.8878387112171	-81.0272505003529	-53.2245218174919	168.567913568039	-0.0931026228179985	-0.201416140936211	
3320000000	-0.935020643067131	-133.571644465012	-46.9288002319547	107.021471948165	-43.9912134151644	116.004395467031	-0.0662777544945037	0.149331129997376	
3340000000	-0.803542676465818	-135.023280361142	-52.5190522545594	51.0065800504783	-49.1298794043663	51.7641627589702	-0.0563587692119997	-0.954333726863139	
3360000000	-0.86222930951523	-135.901966065702	-50.5651970217716	168.82592384643	-42.8708657038896	-7.73407903378052	-0.068131125165318	0.51221466478532	
3380000000	-1.17433219813902	-137.496170297617	-53.5727135896623	-105.148643691779	-60.6677535432637	-27.0066630486408	-0.172934914624614	0.339380245475118	
3400000000	-0.957198237069398	-138.768757661782	-46.3281332713901	-41.6633947080743	-48.4096547149412	-126.712428589636	0.0234689270137869	-0.244206031431963	
3420000000	-0.797029812235832	-139.682649499203	-57.0195609052917	137.57406158308	-44.324310327695	78.4948316704603	-0.114858296269453	-0.160014358619058	
3440000000	-0.776441632074238	-141.749067891363	-61.5747973244076	117.169709869007	-52.5740071913538	-66.0531838679423	-0.047378913576145	0.331036370639876	
3460000000	-0.988569862163332	-144.076248050627	-53.2087107652074	-67.0892067787427	-40.8634789665914	146.950630884344	-0.0985747421399544	0.829713737042778	
3480000000	-0.975740328020749	-142.9243704123	-39.5663920621209	-82.9528801837586	-53.7413436499278	161.496442961874	-0.188535219181627	-0.775444975461493	
3500000000	-0.960060465454092	-145.110601648909	-56.9828640259928	77.4652320031481	-51.1113154722449	101.501320599507	0.0144066024461056	-0.979062790053737	
3520000000	-0.96126618763415	-145.951241232798	-58.327169011832	78.5551795041497	-49.8267736477821	68.8607436375947	-0.0803522732992267	-1.09791307170987	
3540000000	-0.91948736926042	-148.190796693875	-54.5638206136498	83.9987851605276	-50.3229043126753	-167.589903008573	-0.0243650210661425	-0.820192804690042	
3560000000	-1.15206765430755	-149.458021551964	-53.979867284699	137.724645151489	-45.4337812461237	135.906145197744	-0.0792985850138953	-0.378330218668074	
3580000000	-1.08749712542111	-150.375314339184	-43.8853654244742	-103.261796797867	-54.7369325146199	113.18653534238	0.0036988257849201	-0.0630582544085579	
3600000000	-1.07247289123068	-152.00272433395	-46.4880199736353	-80.0937632332186	-46.1614501088373	-136.202574035903	-0.0691881088649078	-0.0380852965497559	
3620000000	-1.05960619023977	-152.891535366214	-50.1526343505051	-40.9398973319135	-60.8235273668608	-124.321916818394	-0.0982599852971065	-0.358616133715897	
3640000000	-1.0212244420245	-153.362185271226	-52.1951387873198	-0.119902033635977	-45.747677345446	-62.5009230489551	-0.13629778961823	-0.618575263313932	
3660000000	-1.23860908646826	-155.543806635686	-55.7118844705324	-115.939888848005	-56.1205585172018	135.511500157657	-0.203414367554448	-1.44896705492021	
3680000000	-1.15180883357059	-155.818020319358	-47.8779544235884	-73.7791667568848	-51.6490781122162	-82.7222680154364	-0.0804751539547894	-0.336366432528536	
3700000000	-1.11920421747673	-158.094298193905	-44.1965089941515	-147.856842122339	-49.4810835956409	121.215740543877	-0.113899476527955	-0.947249880634458	
3720000000	-1.10051819467817	-158.587851211604	-47.1833760429581	74.443106183003	-53.4065375585052	-111.076652774223	-0.0882448387058853	-0.240505083975318	
3740000000	-1.21327276499091	-159.244150233758	-53.2218791660167	111.05019761651	-43.5316333055167	-76.693689831323	-0.0358764120204006	-0.731072544665602	
3760000000	-1.08134875965967	-160.970444002734	-44.981502662733	99.5649041000116	-56.6976777523623	112.136575612028	-0.0592690587279755	0.550218942525051	
3780000000	-1.24203012854895	-161.613583502143	-45.3615871666322	63.5569242387161	-48.45903250045	-115.554967243561	-0.0141042739074244	-1.51345252273761	
3800000000	-0.928459707940483	-162.389102316457	-45.1514804859377	-68.2914902974473	-50.1999467790752	105.381262033003	0.00210430196969189	-0.03041918226206	
3820000000	-1.15847713416326	-162.742129885327	-48.1467947214839	-149.190194519511	-56.6938912538485	115.784812400664	-0.104833212482964	-0.735653572100026	
3840000000	-1.08123717428207	-165.518568767961	-43.2611144822216	129.695584312753	-54.1770412994033	16.8958231847659	-0.0216902940044903	0.344964036126597	
3860000000	-1.30781310048962	-165.914615462937	-46.562685877989	166.045895482615	-47.0743226218219	34.8800852170084	0.000814847646153259	-0.920834195071177	
3880000000	-1.00430368832835	-167.814471534672	-47.9971251224535	95.3576874022668	-43.2197055458162	58.6771083611982	-0.121753840646346	-0.519706388546988	
3900000000	-1.00377932574823	-169.360676974926	-45.647721697205	59.5730209046539	-45.1798771698746	20.8037671163809	-0.0733075734382683	-0.230242030336598	
3920000000	-0.965054560362695	-169.265108419497	-53.7594338023703	175.843125256375	-46.9220380415326	83.7614525404112	-0.0463970736450611	0.242684660098623	
3940000000	-1.17475307755527	-169.958076091233	-54.6265113277288	-33.5172503397592	-42.1198816697885	95.0333426677112	-0.147632893501969	0.741258417185284	
3960000000	-0.982602962874777	-172.556876349575	-42.6014333153147	-64.082139017443	-41.4890181500989	113.728223066031	-0.0971474673299831	-0.977621692589531	
3980000000	-0.94149425952923	-173.61429941827	-55.8496152101176	-68.3985651274014	-53.0586094024894	-12.1361114102889	-0.0919610744807658	-0.278924872101241	
4000000000	-1.01886110463179	-174.984921474409	-44.8117142315322	-71.4294163526356	-40.8501265673195	-68.0693326622486	-0.0632793194380508	-0.360782331140952	
4020000000	-0.872647708354324	-176.683141178265	-46.5091191494796	170.492233215868	-52.2618743168438	-23.5570203875208	-0.110673549642005	-0.368795076862756	
4040000000	-0.991081531694789	-177.033233281239	-53.3042981867196	75.50820695737	-53.1122845905859	-143.682060036657	-0.103796481797789	-0.158357512723303	
4060000000	-1.11303782680096	-178.543217392636	-47.0377114285828	-43.5735234758909	-41.6229274097882	-127.829452996069	-0.12082591241321	0.170615234695921	
4080000000	-1.01851925671134	-179.968340322546	-63.6523299770675	-29.6374360113101	-47.7621172399394	-113.800040494899	-0.0302824846383855	-0.328315224173417	
4100000000	-0.964030696897758	178.597939374235	-52.9477117968997	120.572689910303	-54.7004480171197	-83.7115439894792	0.00266990383884867	-0.0910537128156327	
4120000000	-1.04940020109921	178.06085949803	-58.0949789288211	162.308220929831	-46.2427292647198	-46.09848023611	0.0148483340186282	-0.49248966743563	
4140000000	-0.988353985214646	176.302173126271	-38.8234281291099	-94.6644551399939	-44.4972780933424	135.342306493354	-0.181353011370278	-0.33454222175598	
4160000000	-1.05303924166242	175.202705499852	-37.9027077435353	20.8922706254442	-47.657344839662	39.3307956927915	-0.145970912399619	-0.723047161451091	
4180000000	-1.02808025491846	173.753039777377	-53.2889935301098	7.37819854591722	-48.5091076284696	-79.7756407009885	-0.180097247294397	-1.029082366771	
4200000000	-0.886473083595299	172.393367862509	-47.7453553146929	-138.933159421131	-46.3798732975031	0.680631604501918	-0.190572807795271	-0.852331198282661	
4220000000	-1.05200014856052	171.115856244977	-50.2985805943853	109.262533376053	-48.5751365245149	148.365719704703	-0.0773121114079213	-0.445818477784256	
4240000000	-1.0750389438901	169.728418521071	-47.7149116144601	140.876952281676	-54.4094320106511	-125.735066363499	-0.136840726868318	-0.946796417147071	
4260000000	-1.24499095923302	169.477898638846	-40.5534271490966	160.77439147712	-52.864802577815	68.4088464658505	-0.0387199875511536	-1.44286948335871	
4280000000	-1.32241616674608	166.868384789775	-56.871381373256	-159.061427547492	-48.1696504596076	147.490360099916	-0.100684719342639	-1.11951125459396	
4300000000	-1.20296482372524	166.421426134211	-52.6128439560735	-60.2425099728091	-45.2120182833363	-128.348505944902	0.171820627002094	-0.413739182850961	
4320000000	-1.05918116478498	164.394074543187	-61.7756231654008	-95.2069976718645	-47.2701992075129	-97.7175474321265	-0.105298080489858	-0.256510338855239	
4340000000	-1.12674867432041	164.749222872331	-50.2090422505977	-156.785164503012	-54.4047780072962	173.226623379676	-0.0939940053596478	-1.10806349919904	
4360000000	-1.1659419347085	162.925182818362	-42.9650841351921	-15.8543038589104	-40.5275418063697	-128.475355290389	-0.165932047884705	-1.14264268589631	
4380000000	-0.960655409866158	162.931705834572	-42.7535537000048	55.2247717467219	-46.0589629163799	-77.042608666785	-0.0579822971516078	-0.836725772629702	
4400000000	-1.12884248804008	160.521352895836	-59.51446756483	140.548386849845	-57.9437048411481	-72.8803395443559	-0.0904983290507335	-0.118731433117534	
4420000000	-1.21333355731771	160.027157046917	-50.4855936087422	-16.7224989707064	-47.7458706988399	-34.0479452852936	-0.0456964142672483	-0.865453447456637	
4440000000	-1.05437502982757	158.486061513391	-44.5243584433973	20.3083715204856	-63.2214147726412	-111.120620834697	-0.0285047060294612	0.180567889078898	
4460000000	-1.12251228275203	156.690060475928	-45.5650418773606	19.6769156055942	-48.9100407214284	67.2660467386821	0.0253249748380746	-1.14033369184112	
4480000000	-1.20569885750552	156.385801553783	-53.0463956104855	-77.3721174461891	-43.6712058124571	36.3114249204714	-0.0629442203429941	-0.505310615582686	
4500000000	-1.06513257318186	154.100013649437	-63.3350857187252	141.312578577238	-44.5938914886762	-32.2934441534072	-0.0304420243741954	0.202453501853408	
4520000000	-1.27434257688329	154.501093048087	-47.9202494883061	-112.008819380011	-49.9855062647485	9.61382968033819	0.0132404493456295	-0.426091288359536	
4540000000	-1.14695114171733	152.391287727443	-45.6392420806162	142.793162353193	-48.9639093099973	-76.1871990594723	-0.119386556061207	-0.945163071608503	
4560000000	-1.06284522677698	151.294481886138	-45.40718923929	79.9671594839956	-49.4883448900231	-102.194559364997	-0.00314274483913694	-0.483956511145465	
4580000000	-1.12621374782982	149.812673291965	-46.3732550971433	1.67818761961459	-44.1950814148507	75.8313358839611	-0.0224335454508447	0.0290747951290856	
4600000000	-1.17523397445408	148.697998733649	-52.6623577163933	-32.4021012057409	-56.4536551604763	-112.861131619228	0.0243198992991305	0.551302250057875	
4620000000	-1.25477890600032	147.645423169791	-45.560384071525	-56.2451472825049	-47.9913274817113	-55.3395022998013	-0.251561562031097	-0.65480025169595	
4640000000	-1.23129190103612	146.244447230728	-45.3533973495017	155.071918577506	-45.1876677783805	0.988785962860928	-0.252873767727734	-0.082042392450886	
4660000000	-1.17681285089083	144.288338108344	-45.2966942665275	167.412711970831	-45.7719686960275	51.4344284852789	-0.208678860036078	-0.0667034962046067	
4680000000	-1.12887974792457	143.93212269166	-42.9275761670383	-15.6462580566421	-52.9777676307211	92.7794379591241	0.00520922634942163	-0.376474381216609	
4700000000	-1.2794511061309	142.823513292638	-46.3980407331485	-108.053879696137	-48.3829362182945	135.843348536861	-0.11057408687829	-0.742085080726511	
4720000000	-1.20407898129654	141.257449673246	-47.9707914734926	-14.0560505701431	-60.6434713112181	129.953916025551	-0.108285606627054	-0.68968923224607	
4740000000	-1.29409347248398	140.218311285074	-46.9027037500015	39.0088384880262	-52.3495791160549	-100.321727496036	-0.000425855095231377	-0.606921269712848	
4760000000	-1.13811238053017	138.502235036994	-45.8870793737259	-95.4439620032409	-41.1519523568289	-67.7588581448301	-0.0262766689870601	-0.855148742553176	
4780000000	-1.16742573365959	137.756150073871	-45.0832912169791	143.363305750605	-48.2652968134957	-124.195797670164	0.020492001702797	-0.195497658347879	
4800000000	-1.27042403878094	136.061237907955	-46.6483058315469	126.724564464347	-42.4224768352172	143.985536639624	-0.0850126196648742	-0.288768823562992	
4820000000	-1.15534898864338	134.32030489804	-45.8807258750501	19.2311987439184	-45.5711873589857	-86.412422251356	-0.0438787557847309	0.3471078967624	
4840000000	-1.18261602428229	133.880514684934	-49.304024239301	-151.951277577138	-44.8085204068336	91.8064890967671	-0.252190975039907	-1.38322362817352	
4860000000	-1.17132117461231	132.288056587308	-55.5174971507906	-78.2367024648791	-40.4253843391457	-177.672340698254	-0.087744722892491	-0.312488458748685	
4880000000	-1.20970976548494	130.568640120532	-47.5723678657246	-158.575056986055	-44.9199316458327	114.255063980262	-0.0737080763666923	0.0584714825440159	
4900000000	-1.14624146867977	131.066286080127	-47.1377307599248	167.22816817359	-53.9152076067931	-72.1779190722907	-0.0609667973117796	0.0372095226808732	
4920000000	-1.39015390701775	127.58092102565	-43.1399411260529	92.1093349122463	-43.3358574819531	10.7140550248767	-0.0534565937120229	-0.93968154789411	
4940000000	-1.32539635992363	126.233567123159	-47.5556669332906	40.3493241384719	-57.0278414598015	-83.7971101619081	-0.0200041844227097	-0.184272453346572	
4960000000	-1.31327514994577	124.23113716074	-44.0660755315695	89.1164022741599	-45.51281448517	-99.4878992884273	-0.0444088472458191	-0.853649129781538	
4980000000	-1.3131608965052	122.349346038528	-51.7636533072444	43.5686968131949	-52.2397587163355	47.024331743608	-0.147714373966395	-0.414069635001353	
5000000000	-1.41195186330775	120.903958792097	-49.3633967775899	-38.6468301489243	-45.7818980275421	79.4905368653721	-0.0765777068210637	-0.368156464521762	
5020000000	-1.42968933338065	119.765346802699	-47.9654068187822	42.0654086197264	-50.3893679780194	-159.151830782203	-0.120774185186581	-1.16646619834197	
5040000000	-1.37074590832715	116.845246286866	-71.5061389205367	-109.236656012332	-49.6845854572902	6.62091602483112	-0.113422935482466	-0.374243324240617	
5060000000	-1.54604584637564	115.419663214253	-49.9242206226413	152.65654214652	-63.1441814357198	123.37145395209	0.0141814597434227	0.351643059930509	
5080000000	-2.20372520451551	114.556195298978	-46.488803918714	2.71480566734669	-44.1433956485177	-131.443820867578	0.0941459451907456	-0.0552433184574613	
5100000000	-1.75671496753078	114.698474137153	-60.8271098626514	140.828544005158	-41.2561204454148	79.7362919228083	-0.101890047399428	0.0825852122428675	
5120000000	-1.58744284234114	112.818018198644	-50.7153112053333	-169.160580050925	-46.6283500968589	6.60352342110403	-0.151409698928701	0.404964734532889	
5140000000	-1.59375779326735	111.042392499463	-48.1561838092578	100.067877479719	-43.7831337987885	156.2901923377	0.0107266707474289	-0.320020343129517	
5160000000	-1.75235521475791	108.380673364408	-44.6277817858267	90.500278253	-43.0416712751231	-134.09392897791	-0.105529138011611	-0.315247791351146	
5180000000	-1.67451219244055	106.883680148179	-49.8909133901117	124.475976514071	-45.7440679249661	-56.0885773706807	0.0559042692337295	-0.293566159927423	
5200000000	-1.74182594040208	103.562293777702	-47.2858439010999	30.6796786701781	-47.3990132338087	91.7056260188735	-0.0492712947635284	-1.57478316460227	
5220000000	-1.81929908318374	102.362983009025	-44.0471883005818	47.1013747877629	-53.9610673998835	86.5478397366774	-0.0210858230038836	-0.123968816612995	
5240000000	-1.9165864302436	99.4027700324252	-65.4287519407699	9.20117213531874	-43.4850590352465	44.2977132295146	-0.0647976074508226	-1.33260109653851	
5260000000	-2.11541239730603	95.9127033238407	-43.8673555747075	-58.241374471683	-50.5410423554825	-152.342452064542	0.0095595748063568	-0.586838845245971	
5280000000	-2.08732995125722	94.2234767664698	-44.3111046847588	-153.826297311323	-50.5502296615391	-41.0387124442528	0.0506528009341264	-0.447806370175215	
5300000000	-2.48245091986513	89.4011079816766	-46.3488014642458	-178.094539975131	-49.6834623938299	168.944122599367	-0.22904463098101	-0.796852744124465	
5320000000	-2.88127355663451	84.6793579112661	-50.1802543739183	-41.9831456761827	-46.5761716404587	-41.6595513782959	-0.160544012093781	-0.847920575136206	
5340000000	-3.75853381133381	84.4072922312846	-52.7766853347028	106.245892776937	-50.7697081258286	141.177485355075	-0.0355527155399442	0.530267531226558	
5360000000	-4.17985640371385	87.3247806429132	-43.9499732625196	-177.248694123258	-45.0054340620644	-62.8500888993409	-0.0737149207605182	-0.472014619110876	
5380000000	-4.17415712039425	87.5192445837236	-49.2229677207579	143.403480244842	-49.0665148973026	-5.40572239979343	-0.0717160684034568	-0.146856416155986	
5400000000	-3.9912583532119	86.5706597323632	-45.8214730188065	159.562145473376	-54.3284306441585	-122.630909313709	-0.160308278042938	-0.841951579743555	
5420000000	-4.16522295474201	83.4457931926538	-43.7268585535907	46.014686516426	-42.2807885157203	92.0477205643309	-0.123968164203142	-1.55419187521	
5440000000	-4.2355668658815	80.1719296961438	-50.2044426922146	143.724086028966	-50.8528853657284	-41.4320921162231	-0.015066988912471	-1.11810990994379	
5460000000	-4.54256217688802	74.8990333900697	-49.1104405393168	-69.3457621026136	-43.787588611768	-125.313557069125	-0.0964416012463017	-0.537892246531954	
5480000000	-5.04003863966938	70.2858676811057	-45.9926726987324	134.063224539609	-58.3507284128849	-75.4770562050108	-0.0368265734980761	-1.19557940169058	
