!Keysight Technologies N9918A: A.08.15
!Date: Thursday, 07 December 2017 12:48:40
!Timezone: (GMT-08:00) Pacific Time (US & Canada)
!Model: N9918A
!Serial: MY53103150
!GPS Latitude: 
!GPS Longitude: 
!GPS TimeStamp: 0001-01-01 00:00:00Z
!GPS Seconds Since Last Read: 0
!CHECKSUM:1459497167
!Correction: S11(ON U)S21(ON U)S12(ON U)S22(ON U)
!S2P File: Measurements:S11,S21,S12,S22:
# Hz S DB R 50
3000000000	-9.27386422012003	22.9459028761523	31.7689934641667	76.6669999823176	-46.6412323001685	15.0596685607353	-11.3610735970497	-125.744379504328	
3020000000	-10.0388913821393	18.3253872308939	31.6827576292074	69.3220269123121	-43.0752240615191	99.5350535768322	-10.8949792876178	-132.723680418315	
3040000000	-8.57714108519921	9.9499896965366	31.7078186658284	61.1620720703031	-44.4009111217243	31.6376289547791	-13.1682003375465	-139.468005638197	
3060000000	-8.87054932325509	7.55388987791679	31.5848316317797	53.5110731311045	-47.6673847569321	148.156160594198	-13.2852126938722	-156.842688248019	
3080000000	-8.46944305489264	1.08632897351203	31.6064283836128	44.3072566306332	-50.2785786693622	-131.8752987877	-12.9887360406013	-168.393077271206	
3100000000	-9.08384390135734	-2.33451630153446	31.5996701826642	37.1163516131077	-57.0532730719797	-6.70769720043022	-12.7766677929231	-168.133785549732	
3120000000	-9.21731103544495	-8.23265246255275	31.6391234860697	28.8489212931285	-55.9374078196982	-62.9419552682184	-12.9760692605158	-179.049220746179	
3140000000	-8.94352905404797	-13.4141745657319	31.5406574987461	20.8299355259586	-52.4809576669413	47.4232145005066	-14.5172384177064	168.418871999576	
3160000000	-8.55204804439053	-8.60782149935392	31.5795952990591	12.6134365632882	-41.3481991012956	-121.97492399319	-12.9968282243582	148.724287004484	
3180000000	-9.40813236171573	-20.5520824644356	31.4802362387827	4.76340864935459	-64.6878267432717	167.116080529163	-14.8367221707789	149.704621523626	
3200000000	-9.79791274963056	-22.1921519747134	31.347052362966	-3.95386275748406	-47.816601155185	53.302066069552	-13.606338124165	138.083851063103	
3220000000	-9.14827525870557	-27.75160422932	31.3835929650608	-12.0428616962167	-54.5798907764235	92.8679168054761	-15.035786290111	122.982194557902	
3240000000	-8.70114541022699	-35.4749181891941	31.322322231764	-19.3181979362911	-53.40859709062	69.0334012240944	-15.7994808336382	106.219049389715	
3260000000	-9.21576704343979	-41.0900204246273	31.2732513578417	-27.4027955997775	-48.0865818797957	120.148847939017	-17.1194500016523	89.539365049744	
3280000000	-10.5263126666494	-45.6348156850625	31.1446849660876	-36.1916583528278	-46.6911647146881	126.063098713377	-16.7079237831649	100.978364916761	
3300000000	-9.49575112000965	-43.1633769686336	31.0729004053176	-44.3571352222572	-47.1119014678799	86.4737866245992	-15.2293976124794	84.3176168220133	
3320000000	-9.11244985496005	-52.6496132074471	31.1130263754567	-52.3940447560811	-51.5452001296953	145.261200409332	-14.8631376230202	63.5936787849329	
3340000000	-9.47828150216231	-59.2226154620569	31.0553269971173	-59.8521276937039	-53.5866870738573	-35.9695792933722	-16.2244009290071	45.6952446949997	
3360000000	-10.4262899164468	-61.0516125471347	31.0635242558756	-68.1770496409947	-45.6251540716359	43.5624191120424	-16.6004543722107	52.617985699475	
3380000000	-10.415807920638	-67.8663288693324	30.8842326634769	-76.6159885866485	-46.8622899102031	149.445810405537	-17.0000793563567	36.6718665442374	
3400000000	-9.62325293667032	-76.6751179392737	30.864339078548	-84.3830684590319	-49.7810593896656	-102.148044012853	-16.0457730578885	11.4061190083632	
3420000000	-9.89722443962739	-81.5442878861186	30.8547219052038	-91.6539389053791	-43.4701959301658	-61.216741138291	-17.0053490964809	2.07534100691063	
3440000000	-9.17973044987456	-88.0743004494173	30.7755291672044	-101.400013386008	-49.094087612399	77.0617026369909	-15.6638500795322	-11.5983963969953	
3460000000	-9.86546120442651	-84.5593645498926	30.7475401307657	-108.343178740902	-61.0468584810015	126.42624860533	-15.7842960705547	-6.15007953772503	
3480000000	-9.76065096323499	-96.6407347790592	30.6838011704172	-116.540712289085	-43.7745514640535	-150.660410397811	-15.7116984064616	-34.783416365643	
3500000000	-9.45328190815326	-95.2041935498353	30.7350588769939	-124.244442941029	-48.5455385253402	-168.184900266886	-14.4300484472006	-32.4761864023912	
3520000000	-8.7437756144358	-100.85132476292	30.6708954427927	-133.070604096698	-55.154788579991	135.824766685924	-13.8884532080484	-43.4838236496764	
3540000000	-8.77030259971009	-103.049758195839	30.6007241469764	-140.615378585473	-44.8080284094863	-121.446842797886	-13.2757604492809	-42.0213474843131	
3560000000	-8.98832147496377	-109.692612206208	30.5447408560544	-148.61944308825	-48.0751433963847	-56.5813009212845	-14.019531598925	-51.5538675890519	
3580000000	-9.43920289911683	-122.816671855794	30.4419053088263	-157.335996387968	-44.2858198607444	-103.76694858666	-13.8153554469245	-72.3845469766417	
3600000000	-10.0265855598408	-121.491794210858	30.3818726100343	-164.925070159818	-42.8925582298605	-143.988511358519	-15.5459149648517	-70.3925357531601	
3620000000	-9.08978284868541	-129.402393395678	30.3641481348309	-172.739809808826	-50.133558424507	98.3796839001172	-14.0619240201615	-80.9586445406027	
3640000000	-9.11275824327031	-127.16541150896	30.3375710124301	179.63903181045	-50.842964683504	-69.3099239512144	-14.5377902555539	-77.2695783564745	
3660000000	-9.29530000512195	-134.50577505804	30.3212975383766	171.05020909464	-48.6846665865087	4.36127587160107	-14.13277880832	-90.2006677801511	
3680000000	-9.42584951122826	-143.753965689775	30.2324819061327	162.979223037406	-50.8159440930669	-163.201143276433	-15.0507502803259	-103.874393612409	
3700000000	-9.16838581889285	-147.668217725218	30.2820602656161	154.581672079754	-55.1273882785206	132.869881685786	-15.1115411695132	-104.066998827062	
3720000000	-8.82897892356144	-154.15539445852	30.2116864977246	147.091881712232	-42.9356731347278	115.063376157222	-14.8926742361251	-116.181249966128	
3740000000	-9.44623478634693	-155.447865223206	30.1740268213365	138.429024732659	-53.8226473449964	46.3652740131623	-16.8789745859612	-116.03660623415	
3760000000	-9.64656145032511	-161.846970490825	30.086186046729	130.091800766648	-47.3312230767046	114.601803027294	-17.9166749800086	-125.804052435828	
3780000000	-8.49850732097947	-159.009463275012	30.0616588411032	122.00148354791	-38.5324422371974	115.472838334463	-17.6357440878634	-111.885463350425	
3800000000	-8.94683890025765	-171.065488100827	30.0998224029339	113.861413142599	-51.038619959712	33.4684800954715	-18.3198236987722	-138.448108119509	
3820000000	-9.75110929915129	-171.145764605549	29.899431167674	105.653339660356	-47.916833950495	9.2485742738743	-20.1168281218874	-132.758105776358	
3840000000	-9.44618505776412	179.006796022131	29.9184899099277	97.4802956884843	-52.2205282840538	95.3517406138359	-20.5551933740141	-152.16221830787	
3860000000	-9.65049339781827	174.175308256319	29.7510428009169	89.536517970374	-51.4709946431304	-158.743962313646	-21.49341213361	-163.98185869219	
3880000000	-8.56434171448647	171.743938480426	29.7582069892815	80.8924332021344	-44.810476817866	61.576242183193	-20.0063017507176	-148.788729514728	
3900000000	-8.51682708039541	170.277494940229	29.6231504988416	71.621100481341	-50.5396107229379	-169.910164133622	-22.8702905296063	-140.399492222334	
3920000000	-9.7898558687465	166.156342485778	29.628927121205	64.8832320606643	-44.1250613891584	65.8592019709477	-31.2303488762323	173.700019002577	
3940000000	-9.49439350699553	161.508887061693	29.4872473524859	56.5212851001415	-55.6002978106273	53.2301168984024	-27.9646862973456	-156.248231634855	
3960000000	-8.6195478898392	158.066396997896	29.3488205331557	48.2261632447831	-47.2373467388694	64.8055463753169	-25.3878292607562	-114.369050358125	
3980000000	-8.14398620362889	155.059970502448	29.2352966531696	39.1159677602846	-44.0621324031358	133.935877033865	-22.8667132289091	-106.035763884526	
4000000000	-9.68434766335197	146.780046986554	29.2922194087371	30.8844906428874	-41.1573376864508	72.0166748329537	-36.262575705684	-38.5836107546933	
4020000000	-8.95263633144122	142.959641272973	29.0884399841787	22.8432310461876	-55.4245507856805	-127.240132354671	-27.2619040046651	-71.1766137604125	
4040000000	-9.31292535294062	141.998242736025	28.9278131792095	15.3295046416756	-53.3776630912922	150.681823771774	-22.4786045199732	-63.0466757584636	
4060000000	-8.69890648903297	139.359491189577	28.8050271147913	7.06014701312376	-54.084146559121	-135.98333308061	-18.7653041516318	-72.1458305130242	
4080000000	-9.02432260803088	135.113231552392	28.6754905622217	-0.915937921542947	-44.6669590344337	-7.01966828705836	-19.4602745855486	-74.3900972349453	
4100000000	-8.47414702667927	131.076637275088	28.5182391477721	-9.13858173714711	-54.8201969151601	-3.93338212932251	-18.0195269008715	-77.9650062720064	
4120000000	-8.65109407415971	129.943323859609	28.3297762636241	-17.1407584548272	-42.7759951176127	36.3753970063834	-15.5138748759503	-81.4868755150071	
4140000000	-8.2667143128874	116.66701069165	28.1700856720404	-24.4433725473479	-39.7859333599537	-58.1680216431049	-17.7555585986543	-102.186914032634	
4160000000	-8.77492076169932	114.852876524052	28.0833875939252	-31.8136688759154	-37.7109967148142	-17.3411575697904	-17.3094072255281	-98.8268078244356	
4180000000	-7.74389227265593	118.160871187891	27.9109864425154	-40.0109126545312	-44.2909095805912	-113.811233802158	-13.1916760325456	-103.830214940781	
4200000000	-8.2040092934333	117.061781958901	27.7525437133079	-48.5999706960559	-40.5256071577718	12.232416959953	-12.7017324255337	-98.6692906014837	
4220000000	-8.26715265251349	108.34644334267	27.6346344065125	-55.8765148579853	-46.5243935679091	-174.554276891273	-13.815513786924	-107.981627196949	
4240000000	-7.41600232933099	105.852402079524	27.4761821678477	-63.5749603525059	-54.4578051434188	105.202616129356	-11.8874951926765	-118.978737322874	
4260000000	-7.27136591082602	100.434761120037	27.3358599275065	-71.4657886660741	-45.3047237286097	166.703412369335	-11.1388299180876	-125.411180274945	
4280000000	-7.51975186745813	95.4791216249918	27.1211215178161	-78.8310970095732	-45.2635510596805	-118.777278722379	-11.119689497672	-127.308801701966	
4300000000	-7.34560461393191	92.8924947200805	26.9885918443273	-86.451436986702	-41.2785658880079	-42.3730013213703	-11.0531655881204	-129.020493596972	
4320000000	-7.47557988036531	85.5433006975461	26.9152209636987	-94.3918820664215	-55.1660256281086	-127.744454333352	-11.2192021084944	-136.332591898828	
4340000000	-7.51244854376918	82.2358305326849	26.7541460346212	-101.177065064217	-56.1121790185883	-71.9177019917718	-10.7146208492436	-142.771029676482	
4360000000	-7.50633264974303	78.2908209639854	26.6189573834056	-108.95820084593	-62.2078072942475	27.6754115212871	-10.3660224558604	-144.466522277427	
4380000000	-7.5072940059117	77.7276367941138	26.4682205904157	-115.926381652024	-45.9554846498624	-78.1166501774684	-10.182145337765	-148.747249813042	
4400000000	-7.36038264616433	71.1504467201982	26.3404589552025	-122.785470648639	-52.4015404931508	-1.09234406958499	-9.85523423350697	-155.298698879683	
4420000000	-7.43316642836824	66.6687258391945	26.2467962598919	-129.877132821706	-48.3190268861337	-137.911186743364	-10.037920167822	-160.015348140174	
4440000000	-7.62013796653623	62.0754055431234	26.1158853999295	-138.326972695666	-47.7526782328719	-2.9438772061051	-10.2137510382599	-169.258426353276	
4460000000	-7.96871066560511	60.6818761998811	26.0138826120128	-144.857916721819	-53.6359320246786	-56.1108960574744	-9.82596178049816	-167.590646515188	
4480000000	-7.7416783435181	55.1577919826651	25.9208554449251	-151.371500895191	-56.8347690966649	-156.370841395063	-9.51911072844926	-173.067917866121	
4500000000	-7.8045393488033	48.1639976981417	25.8240332550459	-160.677530385837	-50.4118893803026	-82.8286231122092	-9.80385117351061	178.210592090722	
4520000000	-7.54328730138677	47.5098298580059	25.8623655861261	-165.435928152451	-47.473160728276	132.361008994861	-8.67099638912195	-178.252007245512	
4540000000	-7.78988607460126	45.9381146408241	25.6748855514317	-173.666940365989	-53.3533377422864	-168.120807850265	-9.33770977519768	173.596083519781	
4560000000	-7.9902611710022	41.346369385913	25.5938866348911	179.188634273357	-50.1033439890128	-123.995434574934	-9.61726837851683	166.868115866321	
4580000000	-7.97319731053012	34.769516228102	25.5123574909581	171.398247322274	-44.6990380447026	-169.577769259387	-10.0453906617905	159.940264191893	
4600000000	-8.07668408521682	29.9048704559369	25.3734314561546	163.962043739677	-47.5297831038838	-78.088990585356	-10.2099499867531	153.005543386009	
4620000000	-8.13391974274069	27.4795525718462	25.3856974165709	157.090783260917	-59.1404018747323	131.601301787018	-9.70859246592809	152.712406628527	
4640000000	-8.52034891645234	26.4624374643669	25.3478855369987	149.795952491526	-53.975469336173	3.02953682850209	-9.97315725970962	149.912986073393	
4660000000	-8.84637759046473	20.5783318630583	25.2465717667019	142.68576400713	-45.4040174920634	90.5757692797832	-10.1235017358231	146.029154591143	
4680000000	-8.57361487647108	14.724568369095	25.1993020883924	135.116672186824	-53.3592402041761	-66.2031068281802	-10.5814396242419	137.513494842632	
4700000000	-8.58986391225916	13.1682612198047	25.183079775021	128.229290906039	-45.2554227959991	107.365860800659	-10.555310250159	135.481734789151	
4720000000	-8.65071926630267	11.4404274733418	25.119033616098	119.860608457258	-43.2593320206651	120.001639529534	-10.4740747153115	130.693823754866	
4740000000	-9.30822664619658	5.88916737201576	25.1632122056743	113.160264596528	-56.552599787499	113.961818815474	-11.6144430514567	129.167636584785	
4760000000	-9.79167536697318	2.78919274435629	24.9121741109875	105.541288683419	-53.0843192389072	114.961275118245	-12.1884466644393	123.506668583838	
4780000000	-9.32974711922017	-1.55596045121363	25.0002114704874	98.1564089201408	-40.8622224490272	11.3485641899193	-11.7277105403416	116.206232536	
4800000000	-9.56233564755382	-3.41043164062451	24.9511551244987	90.8986480184409	-49.0515126101268	51.4005849230752	-12.5271329969173	118.675081248774	
4820000000	-10.2734860076592	-4.01201889282945	24.8498603943064	83.6576266589778	-57.5212537426889	-25.0768148719948	-13.3112617816268	117.191964009266	
4840000000	-10.573735449783	-10.9176143461049	24.8505261014121	75.7784450649756	-45.0055170088226	71.9652556644875	-14.2385245036926	117.56518595683	
4860000000	-10.3406980935381	-15.7228656095673	24.8087291053588	68.5471486994769	-63.5574963504204	-65.3253159395648	-14.5356204396358	108.472149493011	
4880000000	-9.92355627362189	-17.2325761298801	24.6754926794485	60.6252196620613	-42.3607887616136	29.9357972915242	-14.3102859595646	108.105372959576	
4900000000	-10.9230886656185	-19.2462550526566	24.6542930590656	52.9087123365736	-44.2806324710488	-19.8712370311316	-16.000305426843	113.957007216338	
4920000000	-10.7559104328981	-21.7577374014272	24.5686160761258	45.2197688096529	-50.8986689810857	12.8441313368757	-16.2374585205718	115.654499955495	
4940000000	-10.98522591658	-26.4188485956899	24.5185528548439	37.7144637655773	-40.6551731655314	-31.7090998917196	-16.2685741936205	108.774408187784	
4960000000	-11.4460521546331	-30.769085968636	24.4215107970148	30.5177300700738	-48.5932669841541	118.477065802161	-17.4168317716967	119.835076457893	
4980000000	-11.2632615717249	-33.7739170296113	24.287457769863	22.9739582891984	-51.6353286999109	37.7302111894606	-17.2938971623788	116.269894661584	
5000000000	-11.6571933684089	-33.6646713781082	24.2452607931829	15.5629055570551	-55.7758578666261	-59.2599938797825	-16.8242124077263	123.207625903463	
5020000000	-11.9157264004276	-36.9640786026531	24.1445010812007	7.51166239374884	-43.3896932526866	-24.7185386404176	-16.6411509858802	130.420156119796	
5040000000	-12.2320850978048	-39.5912049303681	24.0897647732273	0.592386728942983	-43.6256228266409	75.2392756907562	-16.0963503461181	134.753085913901	
5060000000	-12.5160684369927	-44.5382082763446	24.0246042651584	-6.41281357311392	-50.4374081316538	-119.608423713788	-16.0601965756226	134.103150523458	
5080000000	-12.2517294296929	-49.1244466727022	23.8869590456135	-14.1543969227023	-47.5822824189516	34.2181856779787	-15.9273845041898	129.619734730081	
5100000000	-13.073609597908	-50.7163579186815	23.8377572688539	-21.1376897987282	-40.3264838851637	22.4070327334404	-15.0479863806376	137.485995510987	
5120000000	-13.4291898901351	-53.8612645765567	23.8137435038335	-29.0991989318604	-45.4858965909491	2.07685488532463	-13.9796221453422	135.380984471882	
5140000000	-13.4076275809336	-62.5223781081679	23.7103669430651	-36.3165741736594	-59.4051231304054	-150.974216241664	-14.1653925677586	136.111334016743	
5160000000	-13.2407335095927	-63.349163714693	23.616822203089	-43.2640022529699	-42.8370764523153	26.9918784770757	-13.5918912670142	128.419947044053	
5180000000	-13.5364238616315	-70.1581607809326	23.4527408877972	-50.4812877256589	-50.4197791577807	48.9791179222866	-12.9531106725247	127.714109872033	
5200000000	-13.7737414234945	-70.682517310936	23.4061492872149	-58.1824503335805	-46.1331886253017	-113.73617258172	-11.9201283239972	125.969000861179	
5220000000	-14.7166681486059	-74.5824976158775	23.4157620495562	-65.1607746031533	-50.3110571161976	158.512572428007	-11.8374499164648	124.524256200694	
5240000000	-14.3427075123952	-74.2886633532733	23.3285828546731	-72.504749029602	-51.5753100199448	83.9916997210876	-11.2464771846316	116.889543766722	
5260000000	-14.8073440476955	-77.5183816907992	23.216072374749	-79.1884078743552	-51.6803106821276	-127.562364970879	-11.107793335025	113.044396513256	
5280000000	-15.5954910898601	-85.7330163832233	23.1630444023401	-86.161282857887	-49.5613392100475	3.84246878868482	-10.5838286379825	110.720446124569	
5300000000	-15.5849072794021	-91.3814684918343	23.1092296980295	-92.9266968276499	-41.1093535248729	-116.892864217036	-10.5141717229723	108.472231515578	
5320000000	-18.2109111696281	-94.7547791697581	23.1106772057132	-103.306872273573	-47.3888924096618	-135.517029532612	-10.5148784318461	101.907443451684	
5340000000	-15.5993966961346	-101.629906978914	23.1674763338551	-108.095691258967	-59.0958265056565	11.9996979448085	-9.60371692597271	96.4420165603878	
5360000000	-16.4001001644767	-101.261765226665	23.0313200419199	-114.101981802323	-47.6583032361008	35.5990280747289	-10.1748552898972	93.9557405131877	
5380000000	-18.0624891250525	-103.085956256642	23.0195826102816	-122.045669828385	-52.702369648093	-19.7354049865996	-9.88672698318159	89.6181197093718	
5400000000	-17.3298330877673	-109.663904650785	22.9195050122015	-129.237519863501	-46.7620897097013	-73.4344902329862	-9.92139381615866	83.8769059047385	
5420000000	-17.1213645074918	-116.484855469259	22.9935025226336	-137.463089435958	-41.0532617989831	-72.380893156461	-10.3177338206432	76.6410626763852	
5440000000	-17.8495008747624	-117.490226518763	22.9724187208403	-144.754423302204	-43.7455423774007	-179.897293160528	-9.87526539917924	70.9644205391307	
5460000000	-18.4612887928818	-120.394289122517	22.9066810731158	-151.475142624118	-46.9428444956184	171.353190657505	-10.0362508576302	66.6314531533585	
5480000000	-19.4084114842684	-123.755688412726	22.9459351480294	-159.56023088504	-46.5965146907595	-86.8810331959601	-10.2142832224526	62.1538556141395	
5500000000	-20.1118832567755	-130.405104797708	22.9300099406133	-167.192704360163	-41.0957172668777	-143.381470756357	-10.9787542436874	57.165275744161	
5520000000	-20.0967725562595	-123.646526478287	22.9334407786986	-174.478960579035	-40.6737674161472	-163.063352670443	-10.7669774049643	51.4992228411545	
5540000000	-19.3943339357051	-129.475431072096	22.979592120398	178.317065611132	-41.4415028642198	-141.567427107439	-10.7785331001542	47.1647745206439	
