!Keysight Technologies N9918A: A.08.15
!Date: Thursday, 07 December 2017 12:42:23
!Timezone: (GMT-08:00) Pacific Time (US & Canada)
!Model: N9918A
!Serial: MY53103150
!GPS Latitude: 
!GPS Longitude: 
!GPS TimeStamp: 0001-01-01 00:00:00Z
!GPS Seconds Since Last Read: 0
!CHECKSUM:1991148116
!Correction: S11(ON U)S21(ON U)S12(ON U)S22(ON U)
!S2P File: Measurements:S11,S21,S12,S22:
# Hz S DB R 50
3000000000	-8.28289309654594	97.6681762306104	-13.1969968988218	151.132104825918	-13.2297641887662	152.261512395296	-12.9925415848012	47.858122388794	
3020000000	-8.11740475540407	98.4428508806281	-13.3769601043522	149.317566170168	-13.2599755998506	146.911251012497	-13.4949094930189	45.0371560474487	
3040000000	-8.16150282301999	95.0443999289301	-13.5218118988567	146.256981380542	-13.7096486965069	144.849763926152	-13.1726195911229	40.3482122410878	
3060000000	-8.34744451138162	92.6299576460403	-13.8621835375789	140.458214297517	-13.6085659340794	141.36477723694	-12.9403802063941	38.7889939286094	
3080000000	-8.31409068395049	89.1333158318251	-13.6331857049356	138.483315990025	-13.5261755496581	138.948829571353	-13.5511732635033	38.177858572124	
3100000000	-8.05517838522706	88.4780068335161	-13.7959041229647	131.584194044607	-13.6451358209771	133.732472070615	-14.0151527315121	33.7337107529716	
3120000000	-8.19855363137749	87.1028094560142	-13.6932115985153	131.461893179066	-13.4653339640517	130.857069718959	-14.1421358714474	31.4520896032137	
3140000000	-8.32077011940277	85.4868716991096	-13.8144587939788	127.981346587346	-13.7960026538711	128.593510553862	-14.4790284352671	26.9568813403804	
3160000000	-8.18637897880625	83.4270159823457	-13.946559242644	124.910817671979	-14.059670849347	123.615997337314	-14.0275836169778	28.1146665918151	
3180000000	-8.20337271455917	82.1226582907063	-14.1217519691106	120.026085198788	-13.8166557172063	119.714042678922	-15.0650926449316	25.1095662122462	
3200000000	-8.50021175192735	80.3260036575505	-14.1247832370593	115.438495168973	-14.2638218546349	116.566320681195	-15.0980996346191	23.549816976864	
3220000000	-8.24837290189526	77.5712738004028	-13.9502256604045	111.110910790794	-14.3975107445335	113.350249906473	-15.0930139262367	18.7954879440702	
3240000000	-8.65186471830673	76.469450858152	-14.196786602029	109.413444112223	-14.2560862722612	107.823333232387	-15.5494411655157	18.9703814507294	
3260000000	-8.63185563216784	74.522871157925	-14.5878452130542	105.4323797716	-14.2410302334195	105.01378556619	-15.3106049616014	12.3906156955937	
3280000000	-8.76382178094234	74.1448748750261	-14.3516937101494	102.221984279409	-14.3660795588399	102.645888348497	-16.112166839833	14.3525891677337	
3300000000	-8.81140486117159	70.1137323146002	-14.6460167445445	98.5900604654219	-14.4042449117345	97.7828609289359	-16.8774415153463	8.64775386098389	
3320000000	-9.15067545806355	68.7025695782571	-14.7774016529434	94.2491399787888	-14.6461339971594	95.2363727341854	-16.4386268508107	7.78114048595184	
3340000000	-9.08283845699371	66.9940049995641	-14.7674492531353	91.1634898455924	-14.6006329029156	93.8454295861871	-16.8899877920983	5.53856932672377	
3360000000	-9.32114148138933	66.0160408450552	-14.6736174246307	88.8695522665617	-14.8817302845156	88.7270302264951	-17.2332714773189	12.4770060503675	
3380000000	-9.31074306236658	63.4130537711368	-14.7411101961321	83.5557527321925	-14.8240700648834	84.5832919757978	-18.0807515180605	3.75946252038841	
3400000000	-9.67579544208272	62.7221918893653	-14.6874065647958	80.6915238910556	-15.2437423455118	82.0536196132462	-17.8403928297246	-4.14907935626767	
3420000000	-10.0268373959348	58.9497676731609	-14.8972927585287	76.4681628669867	-15.3347208422872	79.053705313861	-18.3033898029991	-4.1653194304307	
3440000000	-10.3355854356426	55.7950611374253	-15.2241062272487	72.6510388343737	-15.2777043310665	71.6237071478661	-18.3414681327335	-3.66477873193606	
3460000000	-9.84609027032686	56.5946417223195	-15.5480739847645	70.3816556179562	-15.180836691136	69.8368725651684	-19.0951448552241	2.59248270861378	
3480000000	-10.4641408034751	55.9826598676864	-15.4589477696277	67.769916191442	-15.206548222434	65.0176911059132	-19.8562186109985	-11.5535810236624	
3500000000	-10.5369405169384	53.592712790387	-15.5454518837908	61.4660805259578	-15.5066477346277	62.5218116986353	-18.4750004566474	-10.4751749853429	
3520000000	-10.8208542845287	47.6172695083967	-15.0270364611098	58.280142945748	-15.1097696994	60.8845078998466	-18.3900776451212	-14.4446968703523	
3540000000	-11.132205764654	47.8395122617133	-15.8875925139473	54.4205315095046	-15.4625054874142	56.1677677324653	-18.9279554715725	-10.8117169617548	
3560000000	-11.2135300884271	46.3770701130983	-15.4531114192777	53.1949759297678	-15.5163343199459	53.0936363152743	-20.4433794082554	-11.4091476181104	
3580000000	-11.6395747470458	44.8775237020394	-15.5058079832607	48.2840479048407	-15.7316534633516	47.7065300379268	-20.312306621698	-13.8956192386166	
3600000000	-12.1906564582798	41.2301841469798	-15.6382114535466	45.1004416072749	-16.1837893457904	43.3351590724893	-19.8595801011368	-16.3069372832852	
3620000000	-12.4938031785762	38.9368212274028	-15.7667388179975	40.3201207613668	-15.8420898693404	39.3624738767938	-20.6093028810382	-16.6922202568416	
3640000000	-12.7903667822462	40.035730382974	-16.0748076497919	36.6432146435308	-15.7150255568588	36.7423449051265	-21.1972616515151	-12.1029595023942	
3660000000	-12.8306213766568	39.7674180061519	-16.2869432327357	30.250880518832	-16.1797056547836	33.2620522671196	-22.1725516781313	-22.3209535077676	
3680000000	-14.0584518617651	38.8724401326073	-16.1286428860336	29.5980969075556	-16.3174747867456	28.2228639215612	-22.3590888721158	-26.0957131118196	
3700000000	-14.0229477533801	35.632006555834	-16.1081938617407	23.6213779708693	-16.2961968852995	25.393956706267	-21.4118882424712	-26.6552740680677	
3720000000	-14.8543335114453	35.5581211948591	-16.3198808228421	21.7191836929907	-16.8145703639468	23.6924366208236	-21.7722181258969	-23.1072071690641	
3740000000	-15.0143748344084	34.2256455931629	-16.0125474148737	18.2088628283188	-16.357041545951	19.7810039637067	-22.6314335528949	-21.2870817255404	
3760000000	-15.744013282243	36.4855017471912	-16.4636486750297	15.4759739285327	-16.7223718979946	15.2684808401411	-22.7854111541702	-20.8070846763443	
3780000000	-16.9165203695745	33.0388844896082	-16.6823459865027	8.63015399412214	-16.6619285705041	8.92949727168411	-22.3274357918213	-24.2088709614209	
3800000000	-17.8956045460376	36.1687700264498	-16.3833687614751	5.91305380768842	-17.0358858424457	8.44528209046911	-22.1153158567327	-22.3287811260053	
3820000000	-18.4414286360749	28.9686110850674	-16.744743904931	1.70136639429976	-16.6991735251853	2.99997736973177	-22.9248400598034	-24.4551647842693	
3840000000	-17.948525607527	38.5548692484756	-16.8165684748664	-1.3068180529046	-17.0679052696881	0.30323188933338	-23.5023736294488	-15.695361303751	
3860000000	-19.4075302329441	39.0172926111777	-17.2610800055004	-4.9411153360101	-17.2874235733092	-3.51076003989971	-24.8910875560574	-26.027635809014	
3880000000	-21.6789048192308	45.835652744784	-17.4220564764146	-6.47850792730278	-16.889524317919	-9.13508946474705	-24.6099666056028	-30.925965703187	
3900000000	-23.0509896782821	50.3126257389829	-17.5934074566968	-13.3328664700972	-17.1922941584232	-12.4146200528086	-23.2766103058531	-24.5726488662686	
3920000000	-23.8993503092386	42.6613679636181	-17.6060753481863	-14.810203654401	-17.2479337517281	-14.1191182435986	-24.3603678033546	-24.6606114032655	
3940000000	-22.6710710937914	55.8529796007166	-17.5928727814571	-19.6550233596115	-17.5448672615014	-20.9778029723219	-25.4163626390226	-25.3478622003115	
3960000000	-23.47561752266	81.3568230739936	-17.3979399125566	-25.7864170185194	-17.6729701845549	-22.1696556217475	-24.3036289240348	-29.9034494706977	
3980000000	-23.4101144514068	89.5356608443151	-17.9930918773278	-27.8609665569691	-17.7659963740688	-27.412852369021	-22.3291268218285	-33.0498171493904	
4000000000	-23.8182969868788	93.9379790229147	-17.9592880346608	-32.8224099755199	-17.9306298582439	-32.7531171661691	-22.7421778094204	-32.5660334739044	
4020000000	-22.785855664411	101.168426127683	-18.1353132940603	-35.7789601841857	-18.3250566649811	-36.8188133486311	-24.0513640995764	-24.5100951293797	
4040000000	-21.7816246297841	111.144619554074	-18.2648195022255	-40.7342607454103	-18.0765071061532	-39.749816124476	-25.24006603246	-27.5042335934398	
4060000000	-19.9742401314838	113.979271333539	-19.0057672378485	-42.25268944183	-18.4722217904944	-43.8592092581607	-24.0114643247983	-38.5336892587478	
4080000000	-19.1794389189608	122.220295617118	-18.5002889188861	-46.7969842966948	-18.7026714165946	-49.5823286644475	-24.3400432484662	-37.2194475423632	
4100000000	-18.6791897858099	119.280134735924	-19.1342238782776	-53.0847653788145	-18.3692676552278	-51.585463409397	-22.4515450933046	-34.2762760920542	
4120000000	-17.747079747254	114.934305153282	-19.1573323525821	-54.529627717631	-18.5241366666395	-56.3494501888457	-23.2730824953444	-31.4239264782542	
4140000000	-16.343462093851	119.41493446235	-19.1264924303919	-59.6919766948999	-19.1695427952331	-57.4088936296827	-23.8860009672248	-41.0472146059086	
4160000000	-15.5878757713214	120.783206759378	-19.4850978252221	-64.1078557800913	-19.775811038805	-64.2118173832106	-26.2240898039942	-44.6517232449623	
4180000000	-15.3668686285667	121.975863069721	-19.2292259642629	-65.9188952207162	-19.8303139852803	-60.9257558004463	-23.3068289921538	-42.3151272235979	
4200000000	-14.7197914477786	120.32880351225	-19.9435614879589	-74.2299266330387	-20.0156113813533	-73.1604553269699	-23.056243801309	-34.25207641249	
4220000000	-13.777495934341	117.416016374414	-19.6217934282405	-71.8152342531841	-19.9446667243005	-71.9343258759447	-24.6429238257551	-33.5880262765863	
4240000000	-13.1908836030209	117.249503407553	-20.214884105989	-82.6392011799388	-20.1643090551636	-77.9608983249653	-25.1045295422309	-45.1555293408675	
4260000000	-12.9926506542135	116.808998922285	-20.4705676233073	-84.2559361658708	-20.4777546539414	-78.2441720909611	-23.1837187093665	-54.6205134040842	
4280000000	-12.4733744361524	112.482676414494	-20.6308012040382	-87.9366990250815	-20.8872184767756	-88.5319478201048	-22.8566681963351	-48.6789827248389	
4300000000	-12.3786139798644	113.106027678708	-20.8472049314265	-89.5036827041146	-20.8431477560455	-88.539158688634	-21.9027338408121	-37.5876188100494	
4320000000	-11.4336672342338	108.911399165567	-20.5837496415436	-96.5902090607565	-20.7521945185554	-98.6187260037775	-23.6828881970291	-46.3098272065618	
4340000000	-10.980977870686	105.848852477684	-21.5489244146338	-99.1090042625262	-20.707909655956	-92.4826194363995	-23.9242786309613	-50.9586330675832	
4360000000	-10.5012783075307	106.102627643198	-21.2808937795262	-103.198839185777	-22.3118113947946	-101.969896299676	-21.2552970834533	-56.9916944563965	
4380000000	-10.4889136510303	106.446768057952	-21.4997452733615	-105.650968013837	-21.5779351778928	-103.379284914147	-21.9167716240432	-52.6106951151071	
4400000000	-10.2873898680422	100.878332009205	-21.9048811607169	-107.233293087889	-22.0722299699787	-104.396965678284	-23.277308829568	-54.9895658286051	
4420000000	-9.74920281829997	100.935795774298	-22.2507956203613	-110.305303877574	-21.9267860017358	-109.656872649352	-22.518707491227	-54.6577391195257	
4440000000	-9.38577537454782	99.7249363384794	-22.5564047048569	-114.46027129868	-22.2062053286557	-114.480109641338	-22.3894812911202	-56.682656065008	
4460000000	-9.30007931741078	97.1989868521449	-22.6477389269345	-115.694884374953	-22.7723704840631	-120.066196598699	-21.5893651004416	-61.5115636875247	
4480000000	-9.21773967032325	94.2658334026433	-22.8976033940209	-120.696937552528	-22.5456356502905	-124.249163190415	-22.6165056592304	-55.5985365003286	
4500000000	-9.09365187828659	91.6840246525233	-23.7272670592854	-124.451872534536	-24.1389942171307	-129.441866162008	-23.0889224628918	-54.2565513877863	
4520000000	-8.63160298136044	89.8896919055234	-23.6973370258274	-127.225647111097	-23.2551738707428	-134.910486476064	-22.3183901050193	-82.6223145250672	
4540000000	-8.31696073835932	88.8251111819064	-23.6564659277588	-130.611364248841	-24.2974967635704	-133.819499177399	-21.9006256757211	-66.7118693094603	
4560000000	-8.35890623486504	86.8182800412376	-23.2428317571763	-140.659268020026	-23.9012634951355	-137.717352184941	-21.1061243562111	-65.5849144431869	
4580000000	-8.11740519056284	83.831561392847	-24.0532656394576	-139.18077205995	-23.5097326970506	-142.363450219421	-22.4554330362166	-70.4137983234369	
4600000000	-8.07567292726222	81.3722484741603	-25.0192609557939	-135.537784818853	-24.3827480279795	-136.500391087214	-22.4275435495549	-63.5538472899309	
4620000000	-7.8066039065964	79.0076704312927	-25.3137205179997	-146.295833775185	-25.2355635384065	-149.198136097511	-22.9907841863871	-77.1310391884495	
4640000000	-7.63267633465111	78.8792863522754	-25.3428774771124	-147.72217392234	-25.3167924817159	-159.140675682528	-22.3873929771484	-80.9397044086442	
4660000000	-7.70023977527763	76.1881370025495	-25.7659142074537	-152.916448536795	-26.2287260940873	-157.014253554358	-21.7543701590801	-79.8443976552386	
4680000000	-7.65963027522991	74.1253653144992	-26.336017948821	-159.424353434229	-25.5660808280503	-156.61055667533	-21.6451529005438	-80.4872831936818	
4700000000	-7.56428213330114	72.2488690563942	-26.3732935238246	-171.45948954099	-26.8759429918821	-158.392589164323	-21.9574434291344	-88.6145452694485	
4720000000	-7.10666534655807	70.6546653588637	-27.5591650848323	-175.212222711135	-26.9408245145897	-168.5622946565	-21.6705974975899	-92.1033432479013	
4740000000	-7.30040163863428	67.7422228093683	-25.5499164196441	-172.479742498031	-26.5615111770982	-172.235162100938	-20.109100075166	-83.9840663500804	
4760000000	-7.33242644450703	66.0213727124278	-27.7392654205952	-179.791920401433	-27.0014290264394	-169.267526875984	-20.9083021945436	-82.5516593073902	
4780000000	-7.34317356261701	62.6575331114143	-28.1484775134247	-170.671506288852	-28.3039185266371	-176.947839746902	-20.9244522338903	-82.4882092376158	
4800000000	-7.19742890701554	61.0336719070639	-28.9779248785443	-171.354550997534	-28.2934183776128	169.932975020315	-20.8735424374179	-94.8100085515561	
4820000000	-6.85100820018109	59.8184906911407	-30.0357548288225	174.303025235731	-29.4161894297874	167.925057221117	-20.2554076239173	-93.842798458767	
4840000000	-7.06499948279115	57.9879032089724	-30.5930255348786	173.718057425716	-29.311268262091	169.165061453589	-20.0808530724125	-99.2887858675379	
4860000000	-6.99186202038086	55.2562737673187	-29.8834986385671	170.746026533035	-28.7182512184099	164.576250434179	-19.8671836851907	-95.2572725366718	
4880000000	-6.9321781682038	52.9485429922612	-32.9760170427034	166.619981495588	-29.2697792440312	150.051642123776	-20.526463051304	-100.270738765362	
4900000000	-6.95922607655294	52.6165173536464	-29.7051865875468	154.79233060843	-29.4925984700382	145.801892660514	-20.6620016061539	-109.152457060515	
4920000000	-6.88688626259421	48.0401425497314	-31.2476493129968	153.240272200089	-29.6525968112037	154.471593797562	-19.61988585759	-104.800566565156	
4940000000	-7.06977670739429	45.6732381826235	-33.2488874571899	144.022465605656	-32.4545475976609	140.70101325536	-20.0653172247279	-108.579253535133	
4960000000	-7.17818286852127	42.9525974544728	-31.6047842391294	160.964193688596	-34.0892081039104	135.430395606613	-19.6212174969247	-109.900948177057	
4980000000	-7.0157069160574	40.4870344599904	-34.1330938514366	158.365039634073	-34.0620953042896	124.971816043691	-19.7204368947881	-116.072650512008	
5000000000	-7.00341887366484	39.2313600759014	-33.3302723802926	128.679781715314	-34.3412059049964	127.354117024638	-19.6115207207566	-119.329886934148	
5020000000	-7.11890814102596	37.0990361204565	-34.3672087098145	114.897750738146	-32.9922862592327	120.662160915659	-19.3453570523904	-121.409000277532	
5040000000	-7.16364382228523	34.6761171552785	-36.2635670352565	137.159464633347	-33.9805087701051	116.825152697915	-19.5471526823208	-125.430188963391	
5060000000	-7.30641877875028	33.4785542866463	-40.1378849655958	106.514944291722	-36.0851588261186	106.76081682878	-20.3828191806038	-127.482182939529	
5080000000	-7.24137361952418	29.6208253750568	-36.0285277773756	149.748111225719	-40.6876613776088	160.878011509287	-20.04389489324	-123.85125057798	
5100000000	-7.32582527169093	28.8555709141625	-43.0441445646479	122.082260530487	-41.0893013380684	36.16673953584	-19.6556995557845	-134.809445158374	
5120000000	-7.63525452685039	26.6246570120428	-53.4880699398047	-16.96098614991	-45.3718434669449	20.1410837118478	-19.6918616625355	-130.994417221282	
5140000000	-7.96593119524367	23.2025625434814	-46.5453595485337	84.4589198662205	-43.2847308825373	29.2401033611665	-19.232055660797	-130.174478097646	
5160000000	-7.81014754780183	20.9720668878892	-47.5664534002199	-141.202483517311	-48.7843669008589	124.927223851266	-19.2282849233674	-132.970097215027	
5180000000	-8.15143892442068	17.1611904014473	-50.1538182215973	-63.04779847349	-42.9400218070091	-39.3852336283276	-19.0964691966172	-134.026021140401	
5200000000	-8.22354676277016	16.1339421049559	-43.5776432326704	-59.9353571294174	-48.1502414969151	-37.4495000196835	-18.3196398818774	-138.483501422181	
5220000000	-8.56303983070085	14.9503965759613	-43.7499410063919	-105.516309746495	-44.2352056733458	-86.2107710348793	-19.1709672349613	-143.15380115298	
5240000000	-8.60788014254498	11.5218880540606	-39.4045856996844	-49.5978863116256	-35.5046835906904	-81.5525366945958	-18.5322181657919	-144.392290252846	
5260000000	-8.80547143142078	10.4658824523118	-43.0368782398941	-53.0477668443721	-36.44431083884	-80.897233778364	-19.2981132598599	-143.280103288683	
5280000000	-9.41331700969935	9.00978099993141	-33.5484826050347	-90.7319143740485	-36.7671603398632	-88.1814265584844	-18.6401552280957	-149.329647191289	
5300000000	-9.52448908946737	6.61488985896449	-38.3047239134989	-85.6538131981166	-34.9287527130681	-77.387989524473	-17.9470515601252	-148.966037752769	
5320000000	-9.42189082821706	4.68092670067344	-33.9129145278031	-101.784888239569	-33.2347158482478	-99.4159544268416	-18.4263589181803	-149.572683910768	
5340000000	-10.0836464708086	-1.71145122127344	-31.5448237174121	-94.4148760360007	-31.9718344666341	-101.82199839152	-19.004252968046	-155.598869252483	
5360000000	-10.5342464932123	-2.73387985392881	-31.066818869976	-101.256891200019	-32.2335008910566	-103.686578713182	-18.4214729186188	-155.434780520876	
5380000000	-10.4558729375675	-1.78557480148404	-29.4785703609426	-107.107773321221	-29.2923399377797	-94.6255119121896	-18.1309831477613	-157.137015421828	
5400000000	-11.3913578220908	-5.27159443515108	-29.3881600363085	-98.9038950291513	-29.4676294641603	-111.954806143544	-17.9469666439781	-161.803125581289	
5420000000	-11.9249952582264	-9.33094304489884	-28.6700818679837	-130.50950795933	-29.6233574981642	-113.190930606432	-17.618175731448	-156.735646773327	
5440000000	-12.197179295061	-11.3353701723897	-28.037650623787	-114.902590173531	-28.013880024802	-117.473866080462	-18.2305012419139	-162.065995441698	
5460000000	-12.5266523882358	-13.0522065182135	-27.9081132169295	-117.883907972728	-26.8099141446746	-127.294788370228	-18.6226055225667	-164.30599587966	
5480000000	-13.2284954399022	-14.6423334746501	-27.5889071635423	-127.948642579927	-26.9509872890199	-135.435455929797	-18.3089572922689	-164.037844851841	
5500000000	-13.7461801422512	-17.0806407182629	-26.1978272577669	-125.933612850486	-26.3148234851067	-136.349505874893	-18.0072647818874	-166.018914622823	
5520000000	-14.4426046271312	-17.5163828290711	-26.7747999373173	-144.489229788736	-26.7234831646147	-138.827150177366	-18.0298482934231	-164.007133577815	
5540000000	-14.8784755857421	-19.263113721291	-25.3716904297183	-144.935914369276	-25.5825796600762	-143.297336669697	-18.3758692215839	-170.669762096489	
