!Keysight Technologies N9918A: A.08.15
!Date: Thursday, 07 December 2017 12:41:14
!Timezone: (GMT-08:00) Pacific Time (US & Canada)
!Model: N9918A
!Serial: MY53103150
!GPS Latitude: 
!GPS Longitude: 
!GPS TimeStamp: 0001-01-01 00:00:00Z
!GPS Seconds Since Last Read: 0
!CHECKSUM:1617025970
!Correction: S11(ON U)S21(ON U)S12(ON U)S22(ON U)
!S2P File: Measurements:S11,S21,S12,S22:
# Hz S DB R 50
3000000000	-8.10899021461881	-67.4305325708866	-6.70375606134575	-23.4558856819886	-6.68111492238128	-23.2747328960328	-12.7444584292126	45.1694337571799	
3020000000	-8.22899439287771	-71.8674379965615	-6.74971219825121	-25.0450925271594	-6.59226429363011	-25.2162127777382	-13.0819002693455	42.6528963739602	
3040000000	-8.00142784650757	-74.233672424406	-6.55923580628428	-27.7741569235438	-6.484764183049	-27.7353404841419	-12.7718831339883	36.735541472125	
3060000000	-8.04000858347074	-76.706291202939	-6.56639713726642	-29.831395209498	-6.6421895195855	-30.2849719217289	-12.7949229978705	36.6675013498852	
3080000000	-8.26365289823121	-80.4468631307696	-6.60614494066459	-33.4189290308751	-6.57687046409123	-33.0303676744162	-13.0365786243586	36.7768506465859	
3100000000	-8.35254688628678	-83.7051198810648	-6.74050082190077	-35.5985020140583	-6.737198276561	-35.8375136146667	-14.383648997111	31.7034771424049	
3120000000	-8.2789987532171	-87.8556934378239	-6.41442486977874	-38.0421748857914	-6.60172303557604	-38.3180756472034	-14.5315077189012	30.1160457690077	
3140000000	-8.32822554113745	-90.7652209850348	-6.43649576470143	-40.6423648589849	-6.42038797634307	-40.1704460922053	-14.1321256610481	26.6527834046996	
3160000000	-8.40212084915249	-92.6721408313865	-6.36140899944302	-42.8021207834592	-6.30260215274598	-41.7610353194165	-13.9017800214794	22.9792503957609	
3180000000	-8.56846436073032	-97.5283855190621	-6.37139484146234	-45.3457012183731	-6.45043443935497	-44.9390272245847	-14.5168946417475	22.104730982582	
3200000000	-8.63003038695824	-101.121299062249	-6.51197834354205	-47.4973420789584	-6.60136090858005	-46.7923814580332	-14.9378175157908	19.1257244019374	
3220000000	-8.69053941681316	-103.575803516139	-6.4303985919644	-50.5667936586369	-6.37923454389318	-49.7175905832542	-15.0744243041112	15.5985641392598	
3240000000	-8.47136464349421	-105.049400891343	-6.37054734111712	-51.3161472392602	-6.29550866356338	-52.7279121809388	-15.1529002757341	16.6060995489259	
3260000000	-8.77111254094144	-109.386274970184	-6.31266774162231	-55.1331203153703	-6.258424443123	-55.1274721345219	-14.8703424585733	8.88312158171523	
3280000000	-9.07464299202755	-112.981611744602	-6.43401857025396	-57.1317709145766	-6.18904598995514	-57.7243687322437	-16.40335119687	13.0592082823888	
3300000000	-9.28331810899883	-116.456303835608	-6.24983685707293	-60.490417221631	-6.30100079687923	-60.8181628093034	-16.5667007920983	3.73315446387976	
3320000000	-9.1144460086317	-118.450757668178	-6.18306432803464	-62.8004970570264	-6.28333313295498	-62.9403007732706	-15.9546991599207	2.97257364610728	
3340000000	-9.26629583232783	-121.925390818449	-6.08963938023443	-65.4216723870646	-6.05467761203333	-64.3736943477251	-16.2680172641835	0.477454544914249	
3360000000	-9.16902670928395	-124.354600267827	-5.98597435155097	-67.6987768152544	-6.11174733211686	-67.6654277747736	-16.6505612717502	5.88581809864896	
3380000000	-9.66823408884359	-128.145245134989	-6.00299331702102	-70.6905962888339	-6.26282640339241	-70.4359486343743	-17.7455062636131	-2.16892346456747	
3400000000	-9.35389876547011	-131.640632518469	-6.0133209309523	-73.0768791122492	-5.9956640552462	-73.5000234897476	-17.5704650651496	-3.37355649203468	
3420000000	-9.43422590662924	-132.85698465041	-6.09548600166654	-75.0428730805966	-5.95499093034652	-75.8729064645029	-17.3922278161205	-8.7713811912633	
3440000000	-9.58305297186986	-135.392585436912	-6.03463187705173	-80.2540343804467	-6.02448288209782	-78.049416075284	-17.9381477798109	-5.77343169160446	
3460000000	-10.3657814854587	-141.34239648259	-5.88779263801919	-81.6475840286766	-5.85722381615215	-81.6806472091494	-18.4838937931995	-5.57977485907997	
3480000000	-10.0277160074656	-142.666252036492	-5.91525022270127	-83.9203017648709	-5.83250727659565	-83.4056697217727	-19.2413735489621	-11.2146962762351	
3500000000	-10.183486408122	-145.874997945386	-5.70896754753672	-86.1155555651509	-5.88572921815722	-85.7403074509064	-18.5837242177232	-16.5276678817079	
3520000000	-10.3271498348888	-147.749968400043	-5.66792770552647	-88.7375675989002	-5.71896299793297	-88.5753423026422	-19.3703183010934	-19.4477673879316	
3540000000	-10.7208928647517	-152.967607094515	-5.55519237327244	-92.1958387305153	-5.91631035896618	-92.1889433383386	-18.6333830951512	-20.4232747050389	
3560000000	-11.5420796993301	-155.958778006174	-5.66449900544868	-95.2817147899411	-5.76261949979893	-95.4851248744459	-20.2788175160444	-20.9691707749404	
3580000000	-11.2199196600717	-158.926377647285	-5.69265202985135	-97.5468327549509	-5.81065151791463	-97.5046174379543	-20.2699515521293	-20.2473977544039	
3600000000	-11.2471075787864	-161.092908999381	-5.68671335726791	-100.147687286394	-5.66936177288725	-100.658811460936	-20.5405708331414	-23.4813334047834	
3620000000	-11.6922076696524	-161.52114194753	-5.55582218174631	-103.023592641182	-5.55468052927964	-103.24893244862	-20.732941281143	-18.7770258524662	
3640000000	-12.1613610651551	-164.171705528457	-5.52185408813185	-105.680751776125	-5.60830314568811	-105.343247763958	-20.8363964871891	-22.8013651708645	
3660000000	-12.5484232269761	-169.879807576907	-5.61086432538543	-108.777161812657	-5.60169139225321	-108.641291511403	-22.3826477062936	-33.2050483736107	
3680000000	-12.2801191546359	-170.436476305503	-5.45431754663614	-110.72678384943	-5.57495189945298	-110.218808906549	-21.4894208660215	-28.0248001200458	
3700000000	-12.4952613618588	-173.964188511188	-5.45447642215624	-113.76533182899	-5.61795883001726	-114.510924570811	-21.7858065380137	-30.929940699963	
3720000000	-13.271813593453	-174.966764089406	-5.45087265304808	-117.075787165498	-5.35771503021251	-116.254680451476	-21.5142641039125	-31.4099499023545	
3740000000	-13.679237801117	-178.842396969778	-5.38550929961064	-119.647465884404	-5.46547947319527	-120.796724851501	-22.6566206914601	-24.7071315637735	
3760000000	-13.6686417911862	178.70623675675	-5.41977317366445	-122.597602839019	-5.46846440718846	-122.759795278034	-22.8821677730551	-25.1765629760805	
3780000000	-13.8927809597438	176.085458449289	-5.28127483096514	-125.773503919906	-5.57890134770621	-125.206569023589	-22.0979889770896	-28.274608092449	
3800000000	-14.1671847216778	179.076315062872	-5.24179258015203	-128.275168200471	-5.31831034870478	-128.38248731612	-22.7184197297339	-28.756829197203	
3820000000	-15.2425670559208	179.319064912843	-5.47580160672997	-130.879073405131	-5.3140198475281	-131.14045285203	-22.8894191736599	-30.177193477697	
3840000000	-15.3852878268068	171.781145843143	-5.36663252899007	-133.937178884556	-5.26736190619918	-134.161160036004	-23.9987094428442	-20.1144219473727	
3860000000	-15.7053110392091	172.124175846271	-5.43086851075697	-137.112299098975	-5.29248372254713	-137.345963006897	-23.5635434538738	-26.0036960547961	
3880000000	-15.2393748128548	174.258161030174	-5.33922394400009	-140.00309017441	-5.25281640107386	-140.402572777846	-24.221754137425	-40.0598831788345	
3900000000	-16.0592283120555	171.679092157355	-5.29681958481462	-143.106806245809	-5.22424839230122	-143.581240618432	-23.882630606667	-28.259141029005	
3920000000	-16.7091763570386	179.400760112983	-5.26505682838382	-144.576064512125	-5.23824332010539	-145.936436654313	-24.2025497641084	-30.4460360157495	
3940000000	-17.9732941941077	175.320388110165	-5.19925024745317	-147.91068078885	-5.28395230410779	-147.643509496014	-25.5432926452367	-28.2767189818242	
3960000000	-17.2009507444315	176.020324365756	-5.22083368949828	-150.24784662552	-5.1962569608264	-150.905387339336	-24.7692720945562	-44.0733428428287	
3980000000	-16.9287796382733	-177.761836695408	-5.33983073451825	-153.894354947941	-5.25072331818428	-154.899852614941	-24.2036493552668	-38.3092191685532	
4000000000	-17.3828601204679	-176.737188874839	-5.25806882986254	-157.093595947614	-5.28735620143849	-157.750887126743	-23.6306964907744	-27.6861855549711	
4020000000	-17.6323563031224	-179.690281081985	-5.27546635451772	-159.858323514918	-5.30935388041263	-160.767582218202	-24.6746772017353	-25.9449975474327	
4040000000	-17.7429275932135	-179.154827964102	-5.35299397635325	-161.862533631636	-5.25391480165748	-162.512748684775	-24.2768566861759	-30.2780630986156	
4060000000	-16.9633970424591	-178.211291363953	-5.21761771543993	-165.354236255834	-5.26515896691801	-165.707681124423	-23.6601659709038	-42.2371577181567	
4080000000	-17.4440487041175	-174.908303648386	-5.22956996285572	-168.806865086839	-5.33808104456435	-167.884563210333	-23.3156568369176	-39.9373972725665	
4100000000	-17.169588062715	-172.646621851974	-5.25422172935146	-171.372131040895	-5.2493458116127	-171.107006637203	-24.1050583902582	-29.1682464329441	
4120000000	-17.5499398661738	-170.670119027164	-5.23899977821843	-174.257201041541	-5.17224657756707	-174.570555475713	-25.1165881510092	-38.0957339297491	
4140000000	-16.5372585591322	-171.371931671832	-5.2760957308214	-176.887137499723	-5.34569437140168	-177.451871491142	-23.9054500057066	-42.2482091828159	
4160000000	-16.389931533493	-170.401094995609	-5.30425017438728	179.049675324193	-5.28800008379472	179.51408967731	-23.3271764905243	-41.4949511046682	
4180000000	-15.9122647891776	-169.255001850959	-5.30874902008539	177.622193974086	-5.40777425237193	176.46519459613	-22.8147583096178	-43.5895329679597	
4200000000	-15.3332260848615	-170.084276386156	-5.22944344047424	174.274596884177	-5.20362813992035	174.626365525985	-24.3559964266016	-37.85376160674	
4220000000	-15.6664881370101	-167.753799636594	-5.27456524422708	172.008587985386	-5.25729424144772	170.903316920426	-23.0925347970679	-38.9377460634517	
4240000000	-14.5290962160062	-171.363498137576	-5.35631070760326	168.350337208353	-5.26738117652644	169.064534233681	-23.2037280911695	-49.6582536207678	
4260000000	-14.4295355474036	-173.105629733053	-5.28850412840758	165.027002245779	-5.33488977798218	165.436926146668	-22.269281196543	-57.5219765019706	
4280000000	-14.0850196811525	-172.973676759265	-5.43230746356411	162.6739597756	-5.39579648461261	162.038044974606	-21.4175767189958	-49.581030653377	
4300000000	-13.702831681972	-172.767257943734	-5.3415070306411	160.141439030254	-5.47861087675658	160.237565722317	-21.1772098143402	-43.8068278037527	
4320000000	-13.4884104573593	-179.024176254523	-5.282589424511	157.051278253678	-5.35687020042515	156.476605946865	-23.1357382933226	-49.3628871692085	
4340000000	-13.2909767243747	-177.705764960601	-5.54079553739652	154.733462003678	-5.55798500461576	153.284093153467	-22.8013721632027	-61.8981133948079	
4360000000	-12.4098519756418	177.821888215659	-5.38316961768759	150.874668761195	-5.46559186416713	151.505464654022	-21.6387143929233	-61.2597668196371	
4380000000	-11.9802014696864	178.224350167824	-5.36118937380936	149.090980170848	-5.47506274620586	148.483534445417	-20.9444663757662	-56.3522825927439	
4400000000	-12.1908140478503	174.673245109542	-5.37284530392679	146.222074598591	-5.52493997375615	145.776186927799	-22.4977907214497	-59.104462979278	
4420000000	-11.7774583361045	172.243936704849	-5.57268390694188	143.4744354396	-5.50370002899467	143.651167118611	-22.0477152728054	-60.3491642758383	
4440000000	-11.4831877634242	168.680851607342	-5.44146284624409	140.042148162484	-5.45525989398862	140.654315451492	-23.0958016297297	-59.7793296086231	
4460000000	-10.9792956938976	167.816021579215	-5.51560167719592	137.090986871198	-5.47086578901416	137.517086447641	-20.3653817029456	-64.8948442633011	
4480000000	-11.1101018867938	166.54671814281	-5.49498954111377	136.110497005963	-5.60557820938029	134.837436159696	-21.6391205227098	-66.4289278114402	
4500000000	-10.8318744519858	162.247677684711	-5.46239442621597	131.575288527054	-5.47424534461374	131.243461497094	-21.8997101057903	-64.6585620639478	
4520000000	-10.882594247991	159.463457872931	-5.48690021555075	130.197521428644	-5.67334456651011	130.773329336096	-20.2162426141324	-84.106087073297	
4540000000	-10.129112151276	157.822609641185	-5.62504072360357	126.68465357342	-5.69259099299495	126.585802663782	-20.504039782946	-77.1811553796061	
4560000000	-10.1154898732874	154.937504472483	-5.59598768806774	124.334084814452	-5.57030109493545	123.921852450132	-20.8207546036166	-71.2370827695193	
4580000000	-10.3104861521694	150.746810413907	-5.53640052681537	121.572885226898	-5.53469407871174	121.592625926353	-21.9225645363106	-75.9291770257271	
4600000000	-10.1830968046464	147.085373754265	-5.58352524671451	117.944266664148	-5.58676394696002	118.669780666574	-21.8015918786989	-70.8570925060033	
4620000000	-9.883285574125	144.187157412613	-5.69736218452142	115.900574521875	-5.70355509914531	115.952545174788	-21.6971174082282	-87.7614858415854	
4640000000	-9.87799448418867	141.029141230682	-5.72973580323634	112.967327151292	-5.59561769973373	113.483505641888	-20.7287114812837	-95.5590981115523	
4660000000	-9.58902109404778	140.06709499143	-5.7075029755529	110.438716870427	-5.66527416954567	110.2059789078	-20.897459743144	-89.1435454761423	
4680000000	-9.63289905515054	138.928504391461	-5.64250400806576	107.400360408705	-5.59080155454982	108.28886583007	-20.5544831178289	-85.5210977325738	
4700000000	-9.75912673494635	134.203206121104	-5.61046590689977	105.645149414896	-5.69376094174306	105.414767551511	-21.4418112507188	-92.3693986769281	
4720000000	-9.58106561051793	130.00313736771	-5.61650382214044	102.378471926324	-5.75296838384218	102.773628716726	-20.364811857897	-92.2315425083086	
4740000000	-9.4098822226756	128.770760297779	-5.58339508355233	99.7254377726172	-5.65481841619876	100.52199105755	-19.2235955078091	-97.7471300359634	
4760000000	-9.31561528384922	126.978479640823	-5.67599799938415	97.4116377454503	-5.51427290018807	96.9878952567491	-20.7380031777767	-95.3965011867667	
4780000000	-9.52591653529958	123.462903994587	-5.64969471990828	94.1211554782431	-5.61856764315469	94.9126352787171	-20.7418443927449	-93.3658495908767	
4800000000	-9.75184623259508	119.934172297	-5.59392693637545	91.4539775644396	-5.57354762665932	91.8851759406534	-20.3226889179532	-105.415337901259	
4820000000	-9.17699515713473	116.758764192067	-5.69181742920373	88.6742774867477	-5.77413817703158	88.5597113428432	-20.0300665469281	-100.673483245312	
4840000000	-9.29096378782172	115.720481847028	-5.62473444292839	86.7655247729847	-5.67681769915955	86.0563332782834	-19.7307452201755	-106.685801975358	
4860000000	-9.517473512081	112.025222453178	-5.60688770853656	83.6942819904068	-5.67965329141014	83.0069744627011	-19.6565911251627	-107.610302109315	
4880000000	-9.59058906220662	108.933894026285	-5.51098980381229	80.4681843174061	-5.74361276466897	81.7466573313778	-20.2600955054855	-111.320078479104	
4900000000	-9.63720022349157	107.870291544329	-5.51182613634069	78.1391105830645	-5.59556959992748	79.4818037479764	-20.0431477959741	-118.871582197377	
4920000000	-9.80569103193287	102.322917946818	-5.77884991061852	76.0749723756169	-5.72481131094013	75.2587184517764	-19.3465455058972	-118.572227888684	
4940000000	-9.79540639920572	101.150069259881	-5.74101306663865	72.7065556982983	-5.64618312830511	72.0340765770469	-20.1018909595232	-119.816015618318	
4960000000	-9.93948506153676	98.093878739974	-5.69204685999267	69.9767796164461	-5.71057839692038	69.2101581591894	-19.096298163077	-121.507848909893	
4980000000	-10.126602395729	93.9003866163577	-5.65902983430193	66.9383602398041	-5.56301377633789	66.4252490730028	-20.1387648087077	-124.778970245722	
5000000000	-9.78409342824535	91.9957762917736	-5.66238358778076	64.2319406177177	-5.73810185288791	63.4892705738356	-19.3886798746739	-128.549642297286	
5020000000	-10.056171450908	89.5817401277943	-5.71078201544717	61.6754586812156	-5.60818192668576	60.8330615304547	-19.2039923548467	-130.397758679209	
5040000000	-10.2791330617438	86.2688227568294	-5.72160888737938	58.9191907337486	-5.7067053837017	59.168429280443	-19.94308142145	-136.301460268264	
5060000000	-10.4224648090606	84.9443924854432	-5.60841352502601	55.7523199416134	-5.67465237417169	55.8629163501623	-20.0620574361375	-134.969896047171	
5080000000	-10.3411449581551	81.9356493256274	-5.44962701731828	53.5875967872347	-5.61633633967177	52.8321333157138	-19.8224812995005	-136.325236880619	
5100000000	-10.5239041514593	77.7964523627666	-5.67577714912067	51.1244159146897	-5.65184914145352	50.7102622047151	-19.5431745389596	-145.730466728858	
5120000000	-10.80479346678	78.0134393729445	-5.61168334504756	47.8980445678837	-5.67320390751163	47.5047970080373	-19.0731672582499	-147.381219319396	
5140000000	-11.2183424985945	75.1329597815288	-5.55090326494192	43.7838329331519	-5.57902189715989	44.6036284483762	-19.0067790731568	-137.991234211667	
5160000000	-11.2054144424721	68.8586308154374	-5.61593952917066	42.5399044071622	-5.5415750313008	43.3633595086687	-18.7980603932849	-146.048547505801	
5180000000	-11.3723524036828	68.7352681258237	-5.63317295080473	39.4012819536586	-5.62110635748916	39.1855046395236	-18.8657089330427	-142.867227329393	
5200000000	-11.9640838678126	64.0815510652755	-5.68345422325943	36.6360019479332	-5.52289411664922	36.2277371948051	-18.2314933482608	-146.85839766476	
5220000000	-12.2724878116248	65.0399124981192	-5.479206381864	34.064198541255	-5.52674261754893	33.2610838824839	-19.587299353521	-152.630396600331	
5240000000	-12.6572787738067	59.5564715520004	-5.59928900101123	30.680163334935	-5.58118479203159	30.5709484226565	-18.3511818401899	-153.648942811725	
5260000000	-12.6519090116566	56.4142309885859	-5.59484479456153	27.584805326065	-5.64586692418212	27.3233415959104	-19.0203138099143	-155.451017240195	
5280000000	-13.4066787414721	57.7127770779681	-5.51012799520124	25.1032691836538	-5.53729000421117	24.6108173753366	-19.4120790461333	-154.414582087691	
5300000000	-13.8599837240821	56.1825679951705	-5.59276110315267	21.5130744098137	-5.64519117341735	21.9558552992969	-18.1441612247956	-158.665311628379	
5320000000	-13.4991004474637	52.4590066634398	-5.58865708946386	17.166334283655	-5.4781314963216	18.2871164966257	-18.8501771602052	-161.551311804853	
5340000000	-15.0595695989522	47.4169826982588	-5.48123536953447	16.4084391481435	-5.66658388189076	16.677543304817	-19.4839664728877	-168.327370396544	
5360000000	-14.8781613180282	50.6659933667642	-5.56563309593776	13.3124035462604	-5.62264237139639	13.2192705457901	-18.5328599624838	-166.246668470959	
5380000000	-15.3471673602013	52.7480406829555	-5.6132969206328	10.5857001564515	-5.63840550383056	9.62721742534977	-18.9537975831431	-169.298808090978	
5400000000	-16.1121866011576	52.9875514431474	-5.6639814605517	7.33804345909589	-5.60468299074988	7.08083749984799	-18.21580184604	-166.042378024656	
5420000000	-17.2387773377386	55.4423083798792	-5.61965291726006	3.91042168334101	-5.64163170039902	4.82440709748408	-18.41855497346	-165.021867825819	
5440000000	-17.2694845103218	58.4894974756177	-5.64870072062261	1.04644638419763	-5.87623626307669	1.86728170414329	-18.6053123683458	-167.834432254702	
5460000000	-16.9678507056821	53.5268247433245	-5.76170223137882	-1.68952885567975	-5.72666064767783	-2.61704001537293	-19.0348311400789	-175.382560743759	
5480000000	-17.1590333449427	59.047164272958	-5.82011649932366	-5.58319491063525	-5.70336245382685	-4.44897140550471	-18.361297299265	-171.637239185258	
5500000000	-17.3833827381219	64.4681273790683	-5.80840300124038	-7.24597140467183	-5.77757427085324	-7.06460412486391	-18.8032414345362	-173.755350491022	
5520000000	-17.3013137562941	60.5759267388542	-5.86228058517215	-10.1803136998752	-5.78988467760368	-9.61947689344842	-18.1907879804487	-174.475274652559	
