!Keysight Technologies N9918A: A.08.15
!Date: Thursday, 07 December 2017 12:39:34
!Timezone: (GMT-08:00) Pacific Time (US & Canada)
!Model: N9918A
!Serial: MY53103150
!GPS Latitude: 
!GPS Longitude: 
!GPS TimeStamp: 0001-01-01 00:00:00Z
!GPS Seconds Since Last Read: 0
!CHECKSUM:0065265360
!Correction: S11(ON U)S21(ON U)S12(ON U)S22(ON U)
!S2P File: Measurements:S11,S21,S12,S22:
# Hz S DB R 50
3000000000	-8.21283611082724	-67.3743570216431	-2.72423724255517	-162.178097721123	-2.71912551984792	-161.947132817472	-8.37419730182599	-74.9884326268173	
3020000000	-8.32129592001689	-72.7028539583578	-2.70298272431586	-165.604056199734	-2.65335625410731	-165.49615582151	-8.32196706829036	-78.759433602085	
3040000000	-7.96909040253	-71.6840166681259	-2.65840219430523	-169.5318261007	-2.58805230681484	-168.686152190142	-8.40878985192153	-79.2216959674551	
3060000000	-8.10461043404619	-75.9622924023323	-2.67312276261777	-172.525911997459	-2.72233737174331	-172.391451095264	-8.375944940722	-83.3253818806095	
3080000000	-8.26348271125661	-79.9524860856505	-2.76154209585764	-175.505882540818	-2.8354114892199	-175.459643899772	-8.51219686924112	-85.9993589598306	
3100000000	-8.34330516835474	-84.1787040650034	-2.81624379502821	-179.727642352001	-2.71765878471087	-179.849759687915	-8.10009285883567	-87.3442882877682	
3120000000	-8.39376665741526	-86.8965268578771	-2.65647204330568	176.877225541179	-2.71806093578014	176.361357472503	-8.21766475595585	-92.3776077015404	
3140000000	-8.28759109523608	-91.1684498345591	-2.72099659376403	173.577663997944	-2.63806283970393	173.219486023026	-8.27991499805457	-93.3567255984829	
3160000000	-8.60278222363317	-93.3324986587608	-2.63793758781992	169.692393143492	-2.63429249709118	169.958767027063	-8.57819879224378	-95.6660895990346	
3180000000	-8.33152702939978	-97.9784014552068	-2.75317601500716	166.400807889368	-2.80982137850171	166.75000503701	-8.55127890009341	-100.329453203742	
3200000000	-8.51571015245046	-101.040781797588	-2.7022723490447	162.578801337977	-2.764512068355	163.283468315589	-8.44764280167127	-103.153173779287	
3220000000	-8.84016059202537	-103.433044964937	-2.76145949345534	158.863152289057	-2.76443926067329	159.762843049054	-8.56800289712425	-104.938752914041	
3240000000	-8.65976415193619	-104.409860192198	-2.61716598764502	156.568647830058	-2.64807170975266	156.270682875614	-8.70506222757104	-109.343696076628	
3260000000	-8.69797607205252	-109.868402825338	-2.73832541884188	152.881350529766	-2.73164426279723	152.78619587961	-8.77566256852261	-109.236959446079	
3280000000	-8.93290819180912	-115.601605537678	-2.83082189671754	148.582166187702	-2.71045442810523	149.321799154188	-8.82068135506344	-115.556337245214	
3300000000	-9.17662845896935	-118.247761591568	-2.79147352918857	145.610010016065	-2.80881460129532	145.184255155023	-8.5018378487923	-117.342059824041	
3320000000	-9.14769238124601	-119.748446110007	-2.64295537836306	141.886346997919	-2.71335381334204	141.731296877432	-9.02801714251603	-119.547800396334	
3340000000	-9.17977023975048	-122.792930339073	-2.57088080282	138.859896156118	-2.7181047582709	138.754615391865	-9.23046129038519	-121.933596360417	
3360000000	-9.38018056904445	-125.748677366826	-2.65692199104285	134.756693903503	-2.64798978794495	134.7350347856	-9.35028356162097	-128.233465266788	
3380000000	-9.67112799332606	-129.517796979875	-2.77196109486534	131.702398010019	-2.73644027186581	131.817887418218	-9.01732307164235	-129.607985742762	
3400000000	-9.49709007727397	-134.034611177664	-2.74447895755698	128.149376218756	-2.68135002348499	128.164473197388	-9.38467979721479	-131.216430801312	
3420000000	-9.67949200322725	-135.15170091653	-2.63585360709332	123.978887000949	-2.64816534722142	124.408277332952	-9.55965044452191	-134.509453129454	
3440000000	-9.82712998991921	-137.250114270122	-2.62780998557711	119.74772298991	-2.595256447958	120.703480981552	-9.84161305831243	-137.904147430115	
3460000000	-10.3131861302264	-142.668493611665	-2.66647095453342	116.669773937032	-2.64801095072382	116.368879112391	-10.1816418243985	-141.771289922333	
3480000000	-10.3264418400466	-144.937535142825	-2.60123245992332	113.938966362619	-2.626499764285	114.361733941897	-9.66846258735508	-144.192346176391	
3500000000	-10.3319889279875	-149.581611334664	-2.54407267280392	110.275555165147	-2.5765832629113	110.165820811819	-10.2920181997234	-144.524467125283	
3520000000	-10.453467907819	-150.361545044727	-2.48744934908466	106.696008509432	-2.6010576830793	107.265637153575	-10.1298534877884	-147.501882995245	
3540000000	-10.6850591597717	-155.214820564944	-2.46248174042486	102.652390030544	-2.6218969380157	103.188204969192	-10.8167717774438	-148.317409612573	
3560000000	-11.5012293656965	-160.486884404892	-2.54946773988135	99.2818597736243	-2.58447480860663	99.4081769668302	-10.4782371100381	-154.136206181563	
3580000000	-11.2596806764675	-161.313571981735	-2.59187225940139	95.3901433355619	-2.56647910591858	96.1252189503843	-11.1166172888299	-157.051203594196	
3600000000	-11.659188270307	-164.477007860757	-2.5924815779342	91.9317426772439	-2.57831072320225	91.7501530543698	-11.1812175836278	-160.127746694224	
3620000000	-12.0439707240768	-166.644168855933	-2.53634320543	88.1941304916137	-2.55073294481592	87.9318476279902	-11.8598841527843	-161.89590827398	
3640000000	-12.3578484536151	-170.810197244156	-2.48524052659805	84.6992511670145	-2.47143167482861	85.1306934163691	-12.2182513375254	-164.732612071725	
3660000000	-12.8768417122091	-175.461378311101	-2.4282331191675	81.1956754221395	-2.50551707723982	80.3396107789279	-11.8602640926464	-165.110985456322	
3680000000	-12.4000893618001	-175.516639156586	-2.47183558877829	77.0760581326168	-2.49055228902797	77.3945845106578	-12.310361068471	-169.645662786746	
3700000000	-13.0484082214142	-179.353080649195	-2.36647271125269	73.5850693624922	-2.47625696874314	73.3152301929717	-13.034492689984	-171.360271824025	
3720000000	-13.4191026176244	-179.499822590943	-2.40050891087738	69.5606428913851	-2.43630394168137	69.7067229275524	-13.3203081829182	-171.698563174379	
3740000000	-14.0542720400557	174.057695552695	-2.41395804648678	66.241638127645	-2.40198490022599	66.6343749500389	-14.0864459565613	-175.298695702066	
3760000000	-14.1133110171668	171.723802121467	-2.44982588360469	62.0191904677453	-2.39838666963904	62.9084605338053	-14.216281592004	-178.002220285083	
3780000000	-14.0892955505139	169.250621738404	-2.42059676091832	57.7127665216273	-2.45033914196329	58.3808180224583	-15.4672851753185	179.741485261748	
3800000000	-14.3967064013026	173.510408083347	-2.33716346000154	54.6873384104996	-2.43313570696147	54.6964981699005	-15.7753474764168	-179.22203026857	
3820000000	-15.9383098670724	172.024397724012	-2.45684587033966	51.5975316293524	-2.33405813102446	51.1853661310444	-15.8810157738185	178.865580517478	
3840000000	-16.0306442064355	166.435802062521	-2.28996782478486	47.5845832233284	-2.2547612367888	47.4860824536501	-15.9401564231144	175.457850916673	
3860000000	-16.6562877797592	167.151616147789	-2.40309251063339	43.782648787289	-2.40173045774854	44.1210804018094	-18.2608695703677	173.896610341183	
3880000000	-15.9418602645918	166.546024886203	-2.361276832544	39.703324254922	-2.36576509822199	39.309995293208	-17.2934654442022	178.793940904826	
3900000000	-16.7188362856883	165.990587475426	-2.39854630404119	35.1203100739991	-2.36757884080768	35.8247294604025	-19.0721344678685	177.691091369924	
3920000000	-18.1906055875202	168.586568369522	-2.26736270908987	32.3858538319786	-2.25455100231946	31.7503039056691	-19.5986987644702	-176.706751523528	
3940000000	-19.4540081396161	168.694175843163	-2.37352636650445	28.5485363317306	-2.39954468563205	28.9182046418619	-20.3337467173034	-177.518058633952	
3960000000	-18.8942971629345	169.595110819864	-2.483503812442	24.4890701026993	-2.32136398692964	25.2021719371715	-21.1234102358417	-171.907417927544	
3980000000	-18.6085329839314	170.129299316868	-2.29092918102496	20.595078968082	-2.28572523558527	20.4676282901361	-21.96611221988	-163.084265796788	
4000000000	-20.0430157771615	174.138285006797	-2.26059183624166	15.9869049107846	-2.33311894481236	16.1219520746364	-23.1516022555079	-157.103381916433	
4020000000	-19.8239903975581	177.381331057922	-2.29586858810422	12.5689211838342	-2.29935172492127	11.9189623275551	-21.5684972623209	-156.086066177933	
4040000000	-20.5757019813634	-175.684137134709	-2.3251968530386	8.64573706089947	-2.39839023574001	9.12283345298642	-21.282535449557	-146.378187092749	
4060000000	-19.4084345374252	178.529082926507	-2.33784331318701	5.00620651224228	-2.29488514235885	4.69765172664545	-20.1111657109383	-135.696952015574	
4080000000	-19.3213121472415	-171.857983512649	-2.43374328680554	0.914325603235427	-2.37672091881927	1.23830877736115	-19.788978869625	-130.042224506595	
4100000000	-19.2346953648033	-169.507424923075	-2.36751035321228	-2.61795996656981	-2.34892147341803	-2.50859830121384	-19.827962749073	-126.806942343994	
4120000000	-19.6054814103544	-161.810094071878	-2.38132010085091	-6.67163142751979	-2.35306593980584	-6.1234116433599	-18.3045431015875	-125.450625794903	
4140000000	-18.3768667729769	-164.584979155205	-2.56004569878543	-10.2958128458966	-2.50824105105135	-10.5362832078767	-17.0359589043705	-124.252185095116	
4160000000	-18.5897845790988	-166.358011985079	-2.39156357978792	-14.3241060451415	-2.36677044308315	-13.9855521409993	-16.075747265428	-124.809024734703	
4180000000	-17.0066331918783	-161.744184515245	-2.48610487088452	-17.7534807624734	-2.51356810068587	-18.4036576675234	-15.2096036109066	-125.217829681632	
4200000000	-16.9277576911298	-165.24399923246	-2.470733473237	-22.2561468771058	-2.40327179293326	-21.9321934566978	-15.2374914691532	-126.216818736043	
4220000000	-16.9403295195563	-161.663785954976	-2.48557218794849	-25.8507207542577	-2.55423561786456	-26.3671063031195	-14.3992344015604	-128.076915104472	
4240000000	-15.4369958437491	-166.553558125356	-2.59268986283981	-30.0018655226221	-2.59829562179677	-30.028581991954	-13.361871511088	-130.311643867643	
4260000000	-14.9850994388373	-165.663881088714	-2.58131977974006	-34.011353764296	-2.56786607429021	-33.9346147492798	-12.4110180860291	-132.26984154894	
4280000000	-14.496095492682	-167.406413436444	-2.55886394970589	-37.7994439633069	-2.69357876570867	-37.5320298378598	-12.4313550220825	-130.709370459614	
4300000000	-14.086483717808	-165.773595385452	-2.62206078067997	-42.1339123466878	-2.65997661022928	-41.7697987998144	-12.7723430650583	-134.446208622958	
4320000000	-13.5758541870319	-172.525463109398	-2.55501219861526	-45.3017187036966	-2.60324591562101	-45.2170453662093	-11.5881963288633	-139.884273129375	
4340000000	-13.4475631866238	-172.312116738024	-2.71547469620947	-49.3653078821337	-2.74057043496498	-49.0674405680755	-10.9037301460558	-141.283565960684	
4360000000	-12.610965132889	-177.323707269603	-2.76684771434104	-52.9343036661767	-2.74320214957456	-52.0630323959565	-10.4633024117919	-141.87654468317	
4380000000	-12.3116720878823	-177.941600814395	-2.66185790029915	-56.8964119962821	-2.76594933815334	-56.5951446672221	-10.5177396255419	-145.481113447483	
4400000000	-12.1597818663423	179.433109420824	-2.77852658960735	-60.1771044982899	-2.79914684933286	-61.0203977092304	-10.0440696680115	-149.149420542578	
4420000000	-11.6477515959037	176.620810103538	-2.81801345831321	-63.6232112246393	-2.87322565529944	-63.8925504320594	-9.44485231507023	-152.036773856172	
4440000000	-11.3374143479064	171.716321827962	-2.81146450032821	-68.8639440792358	-2.6756156238264	-68.4771103200439	-9.55819329693889	-156.038085772972	
4460000000	-10.9918766356082	170.25754996798	-3.01818479465883	-72.0943020813627	-3.00859020051298	-72.5973610601535	-9.03479861407695	-156.705772270683	
4480000000	-11.1099374856855	168.215332059464	-2.91850644270479	-74.7954563926582	-2.89849906833489	-75.4883422256529	-8.68977191910896	-159.224819740578	
4500000000	-10.6535105353957	166.267880169676	-2.9702467452312	-79.9996224963665	-2.9261799914388	-79.3118129614397	-8.67269828446012	-164.874773139345	
4520000000	-10.8155964411926	161.200651005551	-2.984123113265	-82.7708937946984	-3.10244883450844	-82.5896543327272	-7.91217255732856	-165.245047029557	
4540000000	-10.1589077873598	158.984448246994	-3.16975398028522	-86.6471353454961	-3.12580408635739	-86.7539739095675	-7.89697120372709	-168.636376591265	
4560000000	-9.97147945036466	157.293891360163	-3.08475683156207	-90.157499294742	-3.13871798515434	-90.348413474734	-8.14809097139971	-172.009752301858	
4580000000	-10.0607104136705	153.02612288702	-3.17564202334786	-93.9722484631307	-3.17561859763444	-93.8793688792215	-7.81066116128942	-175.492739368093	
4600000000	-10.0348866867053	149.50733250305	-3.20076821537446	-98.4472830359518	-3.10847182258528	-98.0576925707135	-7.83378181418474	-179.881976648304	
4620000000	-9.71343180239353	144.650770389731	-3.25279986822455	-101.17510727978	-3.2231472870724	-101.260917080098	-7.11836722608652	176.674383560298	
4640000000	-9.74793601889869	142.894831322614	-3.22993710475069	-104.537086856282	-3.25306554528618	-105.301636204266	-7.05079430631293	173.670028259387	
4660000000	-9.44253858856501	139.981310175978	-3.36946831608331	-109.129812519484	-3.31012191895771	-109.136059525324	-6.94989571726874	171.793742570908	
4680000000	-9.33298894584789	138.307730248063	-3.35188957113796	-112.494608051901	-3.25951503244299	-112.083660986945	-7.05952610411243	169.335573545683	
4700000000	-9.57824830842078	134.570985957036	-3.30324743246442	-115.857665424849	-3.2818791288229	-115.781250555738	-6.74976134486699	165.07568886801	
4720000000	-9.27764172990139	128.96745442543	-3.36612133824298	-120.019987832892	-3.43640071926454	-119.189703234812	-6.71911424359839	161.519941498366	
4740000000	-9.15197100622068	127.659092065897	-3.38307423640998	-122.277951897356	-3.38146551905719	-122.877929599527	-6.70116584623637	159.243205948919	
4760000000	-9.13713090807227	125.796415295283	-3.44488946334297	-126.571059308913	-3.43044217654894	-127.003189950764	-6.95469657469632	156.101970366558	
4780000000	-9.18043795894478	121.430502236726	-3.42158512955257	-130.279195463943	-3.49067884507569	-129.854733346625	-6.74058083671616	152.595884638553	
4800000000	-9.07142234191588	117.752814730176	-3.5472711478629	-133.684340402593	-3.50008295402492	-133.870220048091	-6.55865021780385	149.934859651299	
4820000000	-9.06392635927181	113.953166067345	-3.51879553206172	-138.472343233155	-3.61393747026672	-137.750877233052	-6.55877231421493	147.190613254252	
4840000000	-9.05728056766439	112.070202661111	-3.51194969569278	-141.173756237205	-3.60327746649027	-140.654559944292	-6.61511794190495	144.734612267621	
4860000000	-9.1651893606519	109.984009916147	-3.50013702526339	-144.353857240882	-3.48250341410903	-144.075778483717	-6.41843003665469	140.584893884474	
4880000000	-9.21102340829162	105.977863188768	-3.5372593958127	-147.059553278738	-3.45846392200508	-147.362420299794	-6.45663449979891	136.807245900188	
4900000000	-9.13165277779207	103.6853903441	-3.43693243908254	-151.458191928444	-3.56846412233341	-150.64344963594	-6.40179535399166	134.984964571958	
4920000000	-9.42395452561676	98.2823921926727	-3.64694696324531	-155.091310657848	-3.50223691734908	-154.995817310208	-6.61774357618046	131.841810410182	
4940000000	-9.38109283098024	96.2328426391418	-3.58531004698122	-158.682660207032	-3.56030864090967	-159.406889179118	-6.57883299148493	127.995062305813	
4960000000	-9.54978080003976	93.2597883352052	-3.45632223357319	-162.275565295608	-3.57557327605877	-162.704415772644	-6.48108553217193	126.152845735203	
4980000000	-9.84451934693413	89.5403576110295	-3.56108860955549	-166.050299545706	-3.57812821324047	-166.675985466206	-6.71719043570696	122.463183690965	
5000000000	-9.44460991404584	85.2246298118812	-3.58243193218654	-170.00700404776	-3.58636583152965	-170.750263147366	-6.44958677506802	118.409276652166	
5020000000	-9.75674896012842	83.4028601950182	-3.55471047086682	-173.354770039069	-3.51206356286021	-173.345816681627	-6.75100555635038	115.975046779975	
5040000000	-9.9099940691277	79.8182218623435	-3.50993068974009	-177.075989689879	-3.50198866873731	-177.147673704441	-6.60333479988894	111.855254493451	
5060000000	-10.1532116798466	79.031318422679	-3.46083861891748	178.698249621124	-3.57297727376536	178.137073138488	-6.7681720788538	108.432267647709	
5080000000	-10.0967393364829	73.5387718549417	-3.52730672978327	175.645603191893	-3.54539729402285	175.183727341852	-6.93519909062329	104.916779531774	
5100000000	-10.3742681315619	69.4427081709549	-3.62535809874322	172.136750696019	-3.41493820612965	172.160630457239	-7.00674450403028	101.664935586593	
5120000000	-10.5052909329003	69.9046107365407	-3.43179036695749	168.009820804829	-3.4820013422113	168.30165679169	-6.95525354236053	99.2122070999656	
5140000000	-10.9454592288944	64.8814869593102	-3.38917012618301	164.313082706304	-3.48946236014851	164.347894001599	-7.37687633628248	97.3114620546569	
5160000000	-10.9703769371105	61.082585103522	-3.47049363801884	161.422831229064	-3.4082795729851	161.508262094681	-7.20234942304536	94.0889354947893	
5180000000	-11.6565496539092	56.4365842470703	-3.48418837937325	156.854435760748	-3.43082167635659	157.254030784391	-7.50634716171424	91.5834460187206	
5200000000	-11.7152539227982	52.5667456644881	-3.45490472790631	153.001526128075	-3.25959939129783	152.52166118746	-7.77838064861323	89.220255975425	
5220000000	-11.916249412211	52.6835485987579	-3.31759571395151	149.074395731608	-3.407167586951	148.901874037697	-7.87819489796398	84.7751136244847	
5240000000	-12.0579574500789	48.5663854938981	-3.35877231147555	145.509221219815	-3.40073237447423	145.724384621682	-8.28263973620157	81.3813522631258	
5260000000	-12.4078264887173	42.299324116381	-3.43922612289506	142.129154875034	-3.2818133799712	142.117283332309	-8.37376185698761	78.0789858386814	
5280000000	-12.9573467413462	41.7531746756628	-3.31528325787492	137.755184321282	-3.20223279132861	137.944172913488	-8.51770111828657	77.1309067448229	
5300000000	-13.8757238709127	41.6149300422471	-3.26611046098085	133.610598361255	-3.42572052620146	133.85639432945	-8.97356153282555	75.7711035838622	
5320000000	-13.4437397278992	38.5285586281323	-3.28900358647929	128.19582057958	-3.2772717916662	128.730940168681	-9.38915826146193	70.4363108305526	
5340000000	-15.0341592330205	31.5376740306323	-3.11839833354808	126.014779967562	-3.22630922301564	126.108611937873	-9.32163537685864	70.632207838429	
5360000000	-15.4339227803253	33.1244191246265	-3.35086652527525	122.446572980577	-3.19255514116731	121.71974815722	-9.7600654634765	67.8152656297521	
5380000000	-15.7057161892548	27.1558689818438	-3.25456000067433	118.101644915295	-3.19782299338316	117.75105762231	-10.1214368415873	63.1208672167754	
5400000000	-16.834908664943	25.1610709429903	-3.23368077445403	114.727337455859	-3.21126538991205	113.318652721396	-10.8081061465991	60.7618893020177	
5420000000	-17.7801105492305	23.9368764163517	-3.13857147920555	109.733194484612	-3.2089726264017	109.802317969205	-11.187417371565	58.0700672434781	
5440000000	-18.8759280399684	15.3304226335041	-3.14500986722644	105.321428447333	-3.16086446986641	106.433249712959	-10.9750815999536	54.1387321238114	
5460000000	-19.5429647808147	12.5539835512921	-3.2561053414752	102.406558371925	-3.16998550823028	101.229100655996	-11.433590902556	51.918627873004	
5480000000	-20.6303104331394	11.0069224212592	-3.13162184018262	97.4732269336836	-3.10237104560202	97.4947488196334	-12.1322294971689	50.7795160082088	
5500000000	-21.59898519109	9.18019420262348	-3.09298700336142	93.8171518548896	-3.07813085888881	93.4944443388128	-13.152117092344	49.8950209265691	
5520000000	-23.2497475138853	7.9392296329252	-3.14790893781947	89.0426790122422	-3.13508739548301	89.667366193361	-13.5467602153249	45.5837775909804	
5540000000	-25.5645906030345	0.984736460634795	-3.09367662716435	85.5316886523345	-3.13707809188361	85.188398310374	-13.6520873776621	46.7616687503988	
