! 500R07S3R6BV4
! Data taken April 11, 2003
! Data taken on a HP 8720C VNA using a series-through test fixture and TRL* de-embedding
#	mhz	s	ma	r	50
0	0.99999	0.00000	0.00000	90.00000	0.00000	90.00000	0.99999	0.00000
50	0.99999	-5.78656	0.11296	83.13417	0.11296	83.13417	0.99999	-5.78656
70	0.99101	-9.28616	0.15679	79.95668	0.15679	79.95668	0.99101	-9.28616
90	0.9811	-11.438	0.20121	78.09418	0.20121	78.09418	0.9811	-11.438
110	0.97937	-14.20186	0.24443	75.71701	0.24443	75.71701	0.97937	-14.20186
130	0.97074	-17.50635	0.28507	72.74797	0.28507	72.74797	0.97074	-17.50635
150	0.95106	-19.24892	0.32222	70.86233	0.32222	70.86233	0.95106	-19.24892
170	0.94458	-21.91487	0.36351	68.28698	0.36351	68.28698	0.94458	-21.91487
190	0.92653	-24.09162	0.39948	65.93484	0.39948	65.93484	0.92653	-24.09162
210	0.91108	-26.02338	0.43457	63.79273	0.43457	63.79273	0.91108	-26.02338
230	0.89984	-28.06872	0.46913	61.67236	0.46913	61.67236	0.89984	-28.06872
250	0.8819	-30.70057	0.49948	59.21035	0.49948	59.21035	0.8819	-30.70057
270	0.84982	-32.17174	0.52429	57.54093	0.52429	57.54093	0.84982	-32.17174
290	0.83667	-33.95904	0.55397	55.95289	0.55397	55.95289	0.83667	-33.95904
310	0.81976	-35.91706	0.57937	53.93912	0.57937	53.93912	0.81976	-35.91706
330	0.79531	-37.82296	0.59992	51.83023	0.59992	51.83023	0.79531	-37.82296
350	0.77846	-39.37649	0.62367	50.79463	0.62367	50.79463	0.77846	-39.37649
370	0.7645	-41.53475	0.64745	48.66097	0.64745	48.66097	0.7645	-41.53475
390	0.74423	-43.24173	0.66498	46.94252	0.66498	46.94252	0.74423	-43.24173
410	0.72843	-44.57719	0.68187	45.62324	0.68187	45.62324	0.72843	-44.57719
430	0.71705	-45.78851	0.69989	44.39291	0.69989	44.39291	0.71705	-45.78851
450	0.69918	-47.29061	0.71695	42.64708	0.71695	42.64708	0.69918	-47.29061
470	0.68154	-48.18989	0.73023	41.63925	0.73023	41.63925	0.68154	-48.18989
490	0.68239	-46.98241	0.72362	41.66263	0.72362	41.66263	0.68239	-46.98241
510	0.67869	-46.28084	0.72199	41.00441	0.72199	41.00441	0.67869	-46.28084
530	0.66382	-46.80913	0.7331	39.48736	0.7331	39.48736	0.66382	-46.80913
550	0.6476	-47.40248	0.74761	38.46987	0.74761	38.46987	0.6476	-47.40248
570	0.63206	-48.4775	0.75934	37.53268	0.75934	37.53268	0.63206	-48.4775
590	0.62011	-49.16327	0.77145	36.47566	0.77145	36.47566	0.62011	-49.16327
610	0.60758	-50.09635	0.78161	35.50176	0.78161	35.50176	0.60758	-50.09635
630	0.59354	-51.29506	0.7897	34.63913	0.7897	34.63913	0.59354	-51.29506
650	0.58029	-52.1595	0.79777	33.74113	0.79777	33.74113	0.58029	-52.1595
670	0.57067	-52.57019	0.80642	33.12642	0.80642	33.12642	0.57067	-52.57019
690	0.5612	-53.27184	0.81512	32.30792	0.81512	32.30792	0.5612	-53.27184
710	0.55087	-53.93367	0.82106	31.46645	0.82106	31.46645	0.55087	-53.93367
730	0.5388	-54.50156	0.82602	30.67245	0.82602	30.67245	0.5388	-54.50156
750	0.52433	-55.19813	0.83638	29.88594	0.83638	29.88594	0.52433	-55.19813
770	0.51276	-55.7619	0.84242	29.10367	0.84242	29.10367	0.51276	-55.7619
790	0.50277	-56.59084	0.84563	28.32904	0.84563	28.32904	0.50277	-56.59084
810	0.49351	-57.37469	0.85093	27.61369	0.85093	27.61369	0.49351	-57.37469
830	0.48388	-57.95845	0.85847	26.98705	0.85847	26.98705	0.48388	-57.95845
850	0.47255	-58.34232	0.86364	26.4564	0.86364	26.4564	0.47255	-58.34232
870	0.46621	-58.7516	0.86656	25.92587	0.86656	25.92587	0.46621	-58.7516
890	0.45658	-59.41749	0.87386	25.04872	0.87386	25.04872	0.45658	-59.41749
910	0.44609	-59.90525	0.87892	24.38034	0.87892	24.38034	0.44609	-59.90525
930	0.43631	-60.25276	0.88103	23.99833	0.88103	23.99833	0.43631	-60.25276
950	0.42802	-60.97059	0.8854	23.5025	0.8854	23.5025	0.42802	-60.97059
970	0.42047	-62.21273	0.89161	22.91759	0.89161	22.91759	0.42047	-62.21273
990	0.41318	-62.86122	0.8951	22.33979	0.8951	22.33979	0.41318	-62.86122
1010	0.40779	-63.2811	0.89818	21.87713	0.89818	21.87713	0.40779	-63.2811
1030	0.40366	-63.57897	0.90232	21.52161	0.90232	21.52161	0.40366	-63.57897
1050	0.39785	-63.603	0.90809	21.14921	0.90809	21.14921	0.39785	-63.603
1070	0.39186	-63.85799	0.90918	20.73408	0.90918	20.73408	0.39186	-63.85799
1090	0.38382	-63.98205	0.90982	20.14507	0.90982	20.14507	0.38382	-63.98205
1110	0.37501	-64.04294	0.91165	19.66862	0.91165	19.66862	0.37501	-64.04294
1130	0.36599	-64.18257	0.91428	19.28764	0.91428	19.28764	0.36599	-64.18257
1150	0.3566	-64.61697	0.91522	18.68144	0.91522	18.68144	0.3566	-64.61697
1170	0.35017	-65.4692	0.91909	18.37559	0.91909	18.37559	0.35017	-65.4692
1190	0.34375	-66.22855	0.92275	18.0268	0.92275	18.0268	0.34375	-66.22855
1210	0.33866	-66.9431	0.92488	17.68005	0.92488	17.68005	0.33866	-66.9431
1230	0.33504	-67.5338	0.92669	17.32993	0.92669	17.32993	0.33504	-67.5338
1250	0.3318	-67.79443	0.93195	16.92065	0.93195	16.92065	0.3318	-67.79443
1270	0.32818	-68.10546	0.93269	16.57175	0.93269	16.57175	0.32818	-68.10546
1290	0.32368	-68.24307	0.93417	16.31609	0.93417	16.31609	0.32368	-68.24307
1310	0.31833	-68.24922	0.93514	15.99197	0.93514	15.99197	0.31833	-68.24922
1330	0.31278	-68.24787	0.93595	15.59262	0.93595	15.59262	0.31278	-68.24787
1350	0.30834	-68.445	0.93858	15.26623	0.93858	15.26623	0.30834	-68.445
1370	0.30189	-68.90448	0.93717	15.01742	0.93717	15.01742	0.30189	-68.90448
1390	0.29667	-69.32606	0.94072	14.64606	0.94072	14.64606	0.29667	-69.32606
1410	0.29221	-69.69253	0.94243	14.35562	0.94243	14.35562	0.29221	-69.69253
1430	0.28828	-70.00865	0.94178	14.15533	0.94178	14.15533	0.28828	-70.00865
1450	0.28483	-70.30116	0.94449	13.86023	0.94449	13.86023	0.28483	-70.30116
1470	0.28171	-70.55488	0.94671	13.35635	0.94671	13.35635	0.28171	-70.55488
1490	0.27747	-70.39232	0.94706	13.12861	0.94706	13.12861	0.27747	-70.39232
1510	0.27214	-70.18168	0.94725	12.90178	0.94725	12.90178	0.27214	-70.18168
1530	0.26607	-70.13008	0.94798	12.64414	0.94798	12.64414	0.26607	-70.13008
1550	0.25989	-70.28361	0.94895	12.56758	0.94895	12.56758	0.25989	-70.28361
1570	0.25631	-70.82642	0.94895	11.99742	0.94895	11.99742	0.25631	-70.82642
1590	0.25063	-71.19416	0.95082	11.72327	0.95082	11.72327	0.25063	-71.19416
1610	0.2462	-71.70258	0.95319	11.54983	0.95319	11.54983	0.2462	-71.70258
1630	0.24352	-72.32538	0.95499	11.36325	0.95499	11.36325	0.24352	-72.32538
1650	0.24021	-72.69418	0.95541	11.13119	0.95541	11.13119	0.24021	-72.69418
1670	0.23775	-72.98296	0.95676	10.91876	0.95676	10.91876	0.23775	-72.98296
1690	0.23444	-72.96366	0.95679	10.6973	0.95679	10.6973	0.23444	-72.96366
1710	0.23077	-72.87997	0.95727	10.40379	0.95727	10.40379	0.23077	-72.87997
1730	0.22689	-72.81389	0.95853	10.09167	0.95853	10.09167	0.22689	-72.81389
1750	0.22267	-72.68568	0.95944	9.93091	0.95944	9.93091	0.22267	-72.68568
1770	0.21731	-73.21651	0.96254	9.76898	0.96254	9.76898	0.21731	-73.21651
1790	0.21288	-73.49614	0.96123	9.50159	0.96123	9.50159	0.21288	-73.49614
1810	0.20973	-73.97289	0.96108	9.23368	0.96108	9.23368	0.20973	-73.97289
1830	0.20739	-74.7223	0.9629	8.95396	0.9629	8.95396	0.20739	-74.7223
1850	0.20458	-75.44708	0.96275	8.5349	0.96275	8.5349	0.20458	-75.44708
1870	0.20291	-75.55046	0.96464	8.56198	0.96464	8.56198	0.20291	-75.55046
1890	0.20099	-75.23653	0.96574	8.60932	0.96574	8.60932	0.20099	-75.23653
1910	0.19846	-74.96173	0.96675	8.51114	0.96675	8.51114	0.19846	-74.96173
1930	0.19517	-74.96555	0.96629	8.2337	0.96629	8.2337	0.19517	-74.96555
1950	0.19117	-75.27052	0.96084	7.87532	0.96084	7.87532	0.19117	-75.27052
1970	0.1871	-75.0867	0.96526	7.80402	0.96526	7.80402	0.1871	-75.0867
1990	0.18402	-75.47962	0.96813	7.53394	0.96813	7.53394	0.18402	-75.47962
2010	0.18106	-75.99005	0.96835	7.33658	0.96835	7.33658	0.18106	-75.99005
2030	0.17822	-76.38996	0.96746	7.21173	0.96746	7.21173	0.17822	-76.38996
2050	0.17641	-76.68258	0.96958	6.88747	0.96958	6.88747	0.17641	-76.68258
2070	0.17476	-76.48454	0.97006	6.73306	0.97006	6.73306	0.17476	-76.48454
2090	0.17246	-76.28565	0.97068	6.59525	0.97068	6.59525	0.17246	-76.28565
2110	0.16935	-76.09842	0.96986	6.45115	0.96986	6.45115	0.16935	-76.09842
2130	0.16585	-75.96864	0.96899	6.3134	0.96899	6.3134	0.16585	-75.96864
2150	0.16295	-75.97547	0.97242	6.23018	0.97242	6.23018	0.16295	-75.97547
2170	0.15898	-76.19265	0.97021	5.93107	0.97021	5.93107	0.15898	-76.19265
2190	0.15574	-76.29108	0.97366	5.83003	0.97366	5.83003	0.15574	-76.29108
2210	0.15275	-76.7087	0.97568	5.64195	0.97568	5.64195	0.15275	-76.7087
2230	0.15007	-77.30178	0.97468	5.37107	0.97468	5.37107	0.15007	-77.30178
2250	0.14832	-77.34492	0.97458	5.31106	0.97458	5.31106	0.14832	-77.34492
2270	0.14607	-77.62163	0.97503	5.12425	0.97503	5.12425	0.14607	-77.62163
2290	0.14446	-77.68746	0.97543	4.82348	0.97543	4.82348	0.14446	-77.68746
2310	0.14206	-77.65427	0.97597	4.6194	0.97597	4.6194	0.14206	-77.65427
2330	0.13865	-77.49334	0.97622	4.56861	0.97622	4.56861	0.13865	-77.49334
2350	0.13525	-77.03542	0.97515	4.57364	0.97515	4.57364	0.13525	-77.03542
2370	0.13216	-77.31562	0.97695	4.30395	0.97695	4.30395	0.13216	-77.31562
2390	0.12858	-77.76724	0.97491	4.0572	0.97491	4.0572	0.12858	-77.76724
2410	0.12571	-78.31357	0.97474	3.84984	0.97474	3.84984	0.12571	-78.31357
2430	0.1239	-78.96438	0.97626	3.75686	0.97626	3.75686	0.1239	-78.96438
2450	0.12272	-79.8159	0.9734	3.91182	0.9734	3.91182	0.12272	-79.8159
2470	0.12164	-79.93927	0.97837	3.85471	0.97837	3.85471	0.12164	-79.93927
2490	0.1203	-79.87311	0.97738	3.52827	0.97738	3.52827	0.1203	-79.87311
2510	0.11847	-79.75	0.97584	3.29878	0.97584	3.29878	0.11847	-79.75
2530	0.1163	-79.54078	0.97628	3.23133	0.97628	3.23133	0.1163	-79.54078
2550	0.11432	-79.05454	0.97835	3.08981	0.97835	3.08981	0.11432	-79.05454
2570	0.1109	-78.96176	0.97875	2.93686	0.97875	2.93686	0.1109	-78.96176
2590	0.10775	-79.27811	0.97836	2.70033	0.97836	2.70033	0.10775	-79.27811
2610	0.10506	-79.82428	0.97828	2.50455	0.97828	2.50455	0.10506	-79.82428
2630	0.103	-80.3855	0.97891	2.35994	0.97891	2.35994	0.103	-80.3855
2650	0.10167	-80.71155	0.97995	2.1631	0.97995	2.1631	0.10167	-80.71155
2670	0.1002	-80.99171	0.98162	2.18222	0.98162	2.18222	0.1002	-80.99171
2690	0.09856	-80.81438	0.98008	2.10985	0.98008	2.10985	0.09856	-80.81438
2710	0.09662	-80.71673	0.97805	1.96971	0.97805	1.96971	0.09662	-80.71673
2730	0.09422	-80.62419	0.97691	1.82023	0.97691	1.82023	0.09422	-80.62419
2750	0.09118	-79.85038	0.97678	1.75457	0.97678	1.75457	0.09118	-79.85038
2770	0.08908	-80.60926	0.97964	1.61812	0.97964	1.61812	0.08908	-80.60926
2790	0.08677	-81.06118	0.98045	1.45649	0.98045	1.45649	0.08677	-81.06118
2810	0.08459	-81.53238	0.9795	1.56678	0.9795	1.56678	0.08459	-81.53238
2830	0.08274	-81.97947	0.97841	1.71722	0.97841	1.71722	0.08274	-81.97947
2850	0.08124	-81.98936	0.98005	1.14726	0.98005	1.14726	0.08124	-81.98936
2870	0.07953	-82.32961	0.98119	0.9535	0.98119	0.9535	0.07953	-82.32961
2890	0.07767	-82.85029	0.97809	0.90927	0.97809	0.90927	0.07767	-82.85029
2910	0.07595	-83.25526	0.97683	0.85395	0.97683	0.85395	0.07595	-83.25526
2930	0.07451	-83.49251	0.97893	0.73279	0.97893	0.73279	0.07451	-83.49251
2950	0.07342	-83.75416	0.98135	0.5969	0.98135	0.5969	0.07342	-83.75416
2970	0.07134	-83.31878	0.98226	0.48671	0.98226	0.48671	0.07134	-83.31878
2990	0.06974	-83.36174	0.98293	0.51765	0.98293	0.51765	0.06974	-83.36174
3010	0.06794	-83.46816	0.98085	0.40769	0.98085	0.40769	0.06794	-83.46816
3030	0.06542	-83.45437	0.9776	0.17529	0.9776	0.17529	0.06542	-83.45437
3050	0.06185	-83.36789	0.97895	0.13932	0.97895	0.13932	0.06185	-83.36789
3070	0.06039	-84.52318	0.97838	0.0536	0.97838	0.0536	0.06039	-84.52318
3090	0.05887	-85.64078	0.97988	-0.1283	0.97988	-0.1283	0.05887	-85.64078
3110	0.05752	-86.92274	0.98047	-0.30537	0.98047	-0.30537	0.05752	-86.92274
3130	0.05651	-88.10924	0.97982	-0.44649	0.97982	-0.44649	0.05651	-88.10924
3150	0.05589	-88.47862	0.98015	-0.59049	0.98015	-0.59049	0.05589	-88.47862
3170	0.05486	-88.82141	0.97858	-0.65151	0.97858	-0.65151	0.05486	-88.82141
3190	0.0535	-87.94544	0.98557	-0.68827	0.98557	-0.68827	0.0535	-87.94544
3210	0.05166	-87.65505	0.98719	-0.74912	0.98719	-0.74912	0.05166	-87.65505
3230	0.04936	-88.37164	0.98122	-0.8466	0.98122	-0.8466	0.04936	-88.37164
3250	0.0468	-89.13365	0.9771	-0.95744	0.9771	-0.95744	0.0468	-89.13365
3270	0.04509	-91.53976	0.97988	-1.04317	0.97988	-1.04317	0.04509	-91.53976
3290	0.04385	-93.99661	0.9815	-1.2367	0.9815	-1.2367	0.04385	-93.99661
3310	0.04338	-96.20858	0.9808	-1.36468	0.9808	-1.36468	0.04338	-96.20858
3330	0.04348	-97.78943	0.97963	-1.33965	0.97963	-1.33965	0.04348	-97.78943
3350	0.04349	-98.26229	0.98281	-1.16006	0.98281	-1.16006	0.04349	-98.26229
3370	0.04253	-97.10114	0.98262	-1.48212	0.98262	-1.48212	0.04253	-97.10114
3390	0.04111	-96.1418	0.98153	-1.67772	0.98153	-1.67772	0.04111	-96.1418
3410	0.03872	-96.83303	0.9798	-1.76059	0.9798	-1.76059	0.03872	-96.83303
3430	0.03579	-98.8787	0.97958	-1.77027	0.97958	-1.77027	0.03579	-98.8787
3450	0.03362	-100.23769	0.98488	-1.77211	0.98488	-1.77211	0.03362	-100.23769
3470	0.03236	-104.02642	0.97952	-2.02219	0.97952	-2.02219	0.03236	-104.02642
3490	0.03197	-108.07354	0.97921	-2.13503	0.97921	-2.13503	0.03197	-108.07354
3510	0.03191	-111.17568	0.9822	-2.1223	0.9822	-2.1223	0.03191	-111.17568
3530	0.03189	-112.88042	0.98488	-2.08913	0.98488	-2.08913	0.03189	-112.88042
3550	0.03187	-113.48626	0.98167	-2.23416	0.98167	-2.23416	0.03187	-113.48626
3570	0.03185	-113.59494	0.98268	-2.44694	0.98268	-2.44694	0.03185	-113.59494
3590	0.03072	-114.96621	0.98155	-2.6161	0.98155	-2.6161	0.03072	-114.96621
3610	0.02902	-117.51551	0.98008	-2.63417	0.98008	-2.63417	0.02902	-117.51551
3630	0.02751	-120.7868	0.97971	-2.57726	0.97971	-2.57726	0.02751	-120.7868
3650	0.02713	-123.95258	0.98159	-2.70504	0.98159	-2.70504	0.02713	-123.95258
3670	0.02677	-127.4799	0.98007	-2.7264	0.98007	-2.7264	0.02677	-127.4799
3690	0.02712	-130.51853	0.98242	-2.93975	0.98242	-2.93975	0.02712	-130.51853
3710	0.02747	-132.62978	0.98201	-3.09045	0.98201	-3.09045	0.02747	-132.62978
3730	0.02745	-133.57841	0.97881	-3.15026	0.97881	-3.15026	0.02745	-133.57841
3750	0.02702	-133.33255	0.97933	-3.31739	0.97933	-3.31739	0.02702	-133.33255
3770	0.02619	-135.11867	0.9802	-3.37877	0.9802	-3.37877	0.02619	-135.11867
3790	0.02517	-138.21559	0.98233	-3.52001	0.98233	-3.52001	0.02517	-138.21559
3810	0.02434	-141.52357	0.98263	-3.64324	0.98263	-3.64324	0.02434	-141.52357
3830	0.02393	-144.7913	0.98133	-3.67052	0.98133	-3.67052	0.02393	-144.7913
3850	0.02403	-148.61592	0.98198	-3.5439	0.98198	-3.5439	0.02403	-148.61592
3870	0.02456	-152.17824	0.97561	-3.58006	0.97561	-3.58006	0.02456	-152.17824
3890	0.02512	-154.68017	0.98163	-3.64126	0.98163	-3.64126	0.02512	-154.68017
3910	0.02539	-156.72152	0.98391	-3.75524	0.98391	-3.75524	0.02539	-156.72152
3930	0.02535	-158.57082	0.97961	-3.90131	0.97961	-3.90131	0.02535	-158.57082
3950	0.02528	-160.16534	0.97917	-4.01043	0.97917	-4.01043	0.02528	-160.16534
3970	0.0251	-163.21922	0.98202	-3.87039	0.98202	-3.87039	0.0251	-163.21922
3990	0.02499	-166.74914	0.98226	-4.04071	0.98226	-4.04071	0.02499	-166.74914
4010	0.02524	-170.20166	0.98105	-4.17498	0.98105	-4.17498	0.02524	-170.20166
4030	0.02582	-173.32116	0.97923	-4.26498	0.97923	-4.26498	0.02582	-173.32116
4050	0.02639	-176.14984	0.97732	-4.64062	0.97732	-4.64062	0.02639	-176.14984
4070	0.02776	-178.34154	0.9799	-4.48101	0.9799	-4.48101	0.02776	-178.34154
4090	0.02867	36.14624	0.98093	-4.62601	0.98093	-4.62601	0.02867	36.14624
4110	0.02917	178.60368	0.98089	-4.76143	0.98089	-4.76143	0.02917	178.60368
4130	0.0296	177.1473	0.9813	-4.77803	0.9813	-4.77803	0.0296	177.1473
4150	0.03055	176.71997	0.98467	-4.7716	0.98467	-4.7716	0.03055	176.71997
4170	0.03105	174.50229	0.98603	-4.94578	0.98603	-4.94578	0.03105	174.50229
4190	0.0313	172.58101	0.98381	-5.05387	0.98381	-5.05387	0.0313	172.58101
4210	0.03185	171.16104	0.9808	-5.17253	0.9808	-5.17253	0.03185	171.16104
4230	0.03283	170.02778	0.97908	-5.30917	0.97908	-5.30917	0.03283	170.02778
4250	0.03402	168.54708	0.97994	-5.40201	0.97994	-5.40201	0.03402	168.54708
4270	0.03509	167.03871	0.98021	-5.12109	0.98021	-5.12109	0.03509	167.03871
4290	0.03526	166.67756	0.97908	-5.28536	0.97908	-5.28536	0.03526	166.67756
4310	0.03582	166.46072	0.9793	-5.4783	0.9793	-5.4783	0.03582	166.46072
4330	0.03676	166.21585	0.98137	-5.5598	0.98137	-5.5598	0.03676	166.21585
4350	0.0368	166.60117	0.98353	-5.66619	0.98353	-5.66619	0.0368	166.60117
4370	0.03667	165.59995	0.98014	-5.84385	0.98014	-5.84385	0.03667	165.59995
4390	0.03665	164.9198	0.97873	-5.99944	0.97873	-5.99944	0.03665	164.9198
4410	0.03695	164.17629	0.98278	-6.09754	0.98278	-6.09754	0.03695	164.17629
4430	0.03754	163.13558	0.98822	-6.09478	0.98822	-6.09478	0.03754	163.13558
4450	0.03816	161.71446	0.98349	-5.93986	0.98349	-5.93986	0.03816	161.71446
4470	0.03797	158.79903	0.98097	-6.25367	0.98097	-6.25367	0.03797	158.79903
4490	0.03795	159.06586	0.97864	-6.27521	0.97864	-6.27521	0.03795	159.06586
4510	0.03788	159.80744	0.9768	-6.15377	0.9768	-6.15377	0.03788	159.80744
4530	0.03794	159.53615	0.97648	-6.11928	0.97648	-6.11928	0.03794	159.53615
4550	0.03872	157.98421	0.97934	-6.48235	0.97934	-6.48235	0.03872	157.98421
4570	0.03835	156.23611	0.9801	-6.42567	0.9801	-6.42567	0.03835	156.23611
4590	0.03846	155.1571	0.9807	-6.51422	0.9807	-6.51422	0.03846	155.1571
4610	0.03897	154.04333	0.98208	-6.62184	0.98208	-6.62184	0.03897	154.04333
4630	0.03971	152.71258	0.98254	-6.73267	0.98254	-6.73267	0.03971	152.71258
4650	0.04038	151.50423	0.97778	-6.94114	0.97778	-6.94114	0.04038	151.50423
4670	0.04043	152.25118	0.9778	-6.86608	0.9778	-6.86608	0.04043	152.25118
4690	0.04114	152.22214	0.98006	-6.93267	0.98006	-6.93267	0.04114	152.22214
4710	0.04162	152.04985	0.9802	-7.11905	0.9802	-7.11905	0.04162	152.04985
4730	0.04174	151.75823	0.97825	-7.30956	0.97825	-7.30956	0.04174	151.75823
4750	0.04217	150.76239	0.97869	-7.29476	0.97869	-7.29476	0.04217	150.76239
4770	0.04114	150.47674	0.97952	-7.27266	0.97952	-7.27266	0.04114	150.47674
4790	0.04079	150.22513	0.97926	-7.356	0.97926	-7.356	0.04079	150.22513
4810	0.04087	149.41909	0.97944	-7.46474	0.97944	-7.46474	0.04087	149.41909
4830	0.04114	148.12076	0.98041	-7.56565	0.98041	-7.56565	0.04114	148.12076
4850	0.0414	147.04287	0.98132	-7.67224	0.98132	-7.67224	0.0414	147.04287
4870	0.04121	145.68066	0.97721	-7.87682	0.97721	-7.87682	0.04121	145.68066
4890	0.04123	145.97664	0.97414	-7.87293	0.97414	-7.87293	0.04123	145.97664
4910	0.04149	146.37327	0.97386	-7.9114	0.97386	-7.9114	0.04149	146.37327
4930	0.04177	146.33973	0.97676	-8.0342	0.97676	-8.0342	0.04177	146.33973
4950	0.04155	146.37194	0.98184	-8.07444	0.98184	-8.07444	0.04155	146.37194
4970	0.04111	146.29868	0.97838	-7.90385	0.97838	-7.90385	0.04111	146.29868
4990	0.04048	145.48949	0.97761	-8.19645	0.97761	-8.19645	0.04048	145.48949
5010	0.04014	144.37542	0.97662	-8.37401	0.97662	-8.37401	0.04014	144.37542
5030	0.04011	143.20684	0.97616	-8.24437	0.97616	-8.24437	0.04011	143.20684
5050	0.03989	142.05342	0.98065	-8.0015	0.98065	-8.0015	0.03989	142.05342
5070	0.04017	141.71258	0.97985	-8.68071	0.97985	-8.68071	0.04017	141.71258
5090	0.04005	141.67434	0.97744	-8.67929	0.97744	-8.67929	0.04005	141.67434
5110	0.03981	141.37624	0.97715	-8.63353	0.97715	-8.63353	0.03981	141.37624
5130	0.03942	141.0301	0.97832	-8.79441	0.97832	-8.79441	0.03942	141.0301
5150	0.03858	141.62197	0.97596	-9.02758	0.97596	-9.02758	0.03858	141.62197
5170	0.03793	141.89936	0.97794	-9.0106	0.97794	-9.0106	0.03793	141.89936
5190	0.03696	140.58519	0.97704	-8.93661	0.97704	-8.93661	0.03696	140.58519
5210	0.03583	138.24334	0.9794	-9.01562	0.9794	-9.01562	0.03583	138.24334
5230	0.03495	135.94375	0.98238	-9.2355	0.98238	-9.2355	0.03495	135.94375
5250	0.03489	135.26246	0.97459	-9.36204	0.97459	-9.36204	0.03489	135.26246
5270	0.03491	133.77862	0.97651	-9.31445	0.97651	-9.31445	0.03491	133.77862
5290	0.03476	132.09678	0.9773	-9.20609	0.9773	-9.20609	0.03476	132.09678
5310	0.03463	131.22752	0.97933	-9.18383	0.97933	-9.18383	0.03463	131.22752
5330	0.03423	131.17589	0.98096	-9.35509	0.98096	-9.35509	0.03423	131.17589
5350	0.03274	130.94146	0.97656	-9.78788	0.97656	-9.78788	0.03274	130.94146
5370	0.03166	128.80989	0.97679	-9.86691	0.97679	-9.86691	0.03166	128.80989
5390	0.03113	125.61528	0.98028	-9.82041	0.98028	-9.82041	0.03113	125.61528
