! 500R07S3R9BV4
! Data taken April 11, 2003
! Data taken on a HP 8720C VNA using a series-through test fixture and TRL* de-embedding
#	mhz	s	ma	r	50
0	0.99999	0.00000	0.00000	90.00000	0.00000	90.00000	0.99999	0.00000
50	0.99999	-6.28956	0.12301	85.46065	0.12301	85.46065	0.99999	-6.28956
70	0.98887	-9.98343	0.16646	80.67345	0.16646	80.67345	0.98887	-9.98343
90	0.97776	-12.10206	0.21352	77.87643	0.21352	77.87643	0.97776	-12.10206
110	0.97493	-14.90139	0.2605	75.0472	0.2605	75.0472	0.97493	-14.90139
130	0.96393	-18.35877	0.30433	71.83859	0.30433	71.83859	0.96393	-18.35877
150	0.94086	-20.173	0.34259	69.57866	0.34259	69.57866	0.94086	-20.173
170	0.93624	-22.86572	0.3859	67.03787	0.3859	67.03787	0.93624	-22.86572
190	0.91664	-25.29804	0.42254	64.50788	0.42254	64.50788	0.91664	-25.29804
210	0.89772	-27.29504	0.45777	62.25392	0.45777	62.25392	0.89772	-27.29504
230	0.88288	-29.22276	0.4929	60.13511	0.4929	60.13511	0.88288	-29.22276
250	0.86326	-31.98821	0.52529	57.60438	0.52529	57.60438	0.86326	-31.98821
270	0.8341	-33.49002	0.5499	55.77828	0.5499	55.77828	0.8341	-33.49002
290	0.81977	-35.26812	0.57938	54.19087	0.57938	54.19087	0.81977	-35.26812
310	0.80145	-37.27328	0.60588	52.27334	0.60588	52.27334	0.80145	-37.27328
330	0.77553	-39.27331	0.62783	50.21051	0.62783	50.21051	0.77553	-39.27331
350	0.75407	-40.85305	0.64995	48.94087	0.64995	48.94087	0.75407	-40.85305
370	0.74002	-43.03165	0.67288	46.79397	0.67288	46.79397	0.74002	-43.03165
390	0.72234	-44.43884	0.68909	45.27269	0.68909	45.27269	0.72234	-44.43884
410	0.70667	-45.66514	0.70599	43.97793	0.70599	43.97793	0.70667	-45.66514
430	0.6924	-47.02764	0.72452	42.5858	0.72452	42.5858	0.6924	-47.02764
450	0.67266	-48.57003	0.73909	40.84764	0.73909	40.84764	0.67266	-48.57003
470	0.65197	-49.30686	0.74956	39.77063	0.74956	39.77063	0.65197	-49.30686
490	0.65395	-48.17863	0.74486	39.82948	0.74486	39.82948	0.65395	-48.17863
510	0.65129	-47.49514	0.74461	39.2225	0.74461	39.2225	0.65129	-47.49514
530	0.63631	-47.94631	0.75464	37.80253	0.75464	37.80253	0.63631	-47.94631
550	0.62098	-48.60217	0.76708	37.07687	0.76708	37.07687	0.62098	-48.60217
570	0.60359	-49.24965	0.7773	35.98856	0.7773	35.98856	0.60359	-49.24965
590	0.59156	-50.14055	0.78786	34.88435	0.78786	34.88435	0.59156	-50.14055
610	0.57945	-51.2432	0.7999	33.81129	0.7999	33.81129	0.57945	-51.2432
630	0.56532	-52.4434	0.81203	32.82335	0.81203	32.82335	0.56532	-52.4434
650	0.55075	-53.54442	0.82038	31.98144	0.82038	31.98144	0.55075	-53.54442
670	0.54276	-53.6716	0.82549	31.56192	0.82549	31.56192	0.54276	-53.6716
690	0.53289	-54.28889	0.83321	30.83839	0.83321	30.83839	0.53289	-54.28889
710	0.52244	-54.92573	0.83898	30.10031	0.83898	30.10031	0.52244	-54.92573
730	0.51092	-55.45282	0.84348	29.38113	0.84348	29.38113	0.51092	-55.45282
750	0.49599	-56.08212	0.85267	28.45826	0.85267	28.45826	0.49599	-56.08212
770	0.4846	-56.5414	0.85639	27.64421	0.85639	27.64421	0.4846	-56.5414
790	0.47515	-57.33831	0.86261	27.03665	0.86261	27.03665	0.47515	-57.33831
810	0.46591	-58.14596	0.86882	26.33376	0.86882	26.33376	0.46591	-58.14596
830	0.45644	-58.78015	0.87335	25.55567	0.87335	25.55567	0.45644	-58.78015
850	0.44756	-59.19939	0.87533	25.04441	0.87533	25.04441	0.44756	-59.19939
870	0.43967	-59.37224	0.88263	24.6253	0.88263	24.6253	0.43967	-59.37224
890	0.43054	-59.92032	0.88617	23.90839	0.88617	23.90839	0.43054	-59.92032
910	0.42115	-60.34698	0.88947	23.34134	0.88947	23.34134	0.42115	-60.34698
930	0.41172	-60.62071	0.89414	22.951	0.89414	22.951	0.41172	-60.62071
950	0.40168	-61.17519	0.8999	22.34336	0.8999	22.34336	0.40168	-61.17519
970	0.39379	-62.50161	0.90373	21.75361	0.90373	21.75361	0.39379	-62.50161
990	0.38647	-63.15811	0.90636	21.25186	0.90636	21.25186	0.38647	-63.15811
1010	0.38073	-63.58815	0.90902	20.8354	0.90902	20.8354	0.38073	-63.58815
1030	0.37645	-63.90478	0.91275	20.43407	0.91275	20.43407	0.37645	-63.90478
1050	0.37238	-63.89063	0.91836	19.91023	0.91836	19.91023	0.37238	-63.89063
1070	0.36645	-64.00859	0.91848	19.64221	0.91848	19.64221	0.36645	-64.00859
1090	0.35811	-64.02988	0.91925	19.20342	0.91925	19.20342	0.35811	-64.02988
1110	0.34958	-64.0262	0.92096	18.73774	0.92096	18.73774	0.34958	-64.0262
1130	0.34145	-64.1388	0.92441	18.2908	0.92441	18.2908	0.34145	-64.1388
1150	0.33271	-64.57846	0.9309	17.81008	0.9309	17.81008	0.33271	-64.57846
1170	0.32622	-65.24426	0.9293	17.53848	0.9293	17.53848	0.32622	-65.24426
1190	0.31985	-66.07809	0.93147	17.1525	0.93147	17.1525	0.31985	-66.07809
1210	0.31465	-66.8675	0.93263	16.72059	0.93263	16.72059	0.31465	-66.8675
1230	0.31089	-67.43084	0.93307	16.3476	0.93307	16.3476	0.31089	-67.43084
1250	0.30803	-67.61724	0.9382	16.17477	0.9382	16.17477	0.30803	-67.61724
1270	0.30363	-68.06601	0.94017	15.73798	0.94017	15.73798	0.30363	-68.06601
1290	0.29974	-68.03936	0.9415	15.40205	0.9415	15.40205	0.29974	-68.03936
1310	0.29472	-67.92636	0.94241	15.07446	0.94241	15.07446	0.29472	-67.92636
1330	0.28878	-67.89374	0.94328	14.72945	0.94328	14.72945	0.28878	-67.89374
1350	0.28402	-67.88592	0.94463	14.40797	0.94463	14.40797	0.28402	-67.88592
1370	0.27763	-68.21416	0.94507	14.32165	0.94507	14.32165	0.27763	-68.21416
1390	0.27317	-68.8176	0.94599	13.89015	0.94599	13.89015	0.27317	-68.8176
1410	0.26901	-69.3069	0.9475	13.51934	0.9475	13.51934	0.26901	-69.3069
1430	0.26481	-69.55565	0.949	13.3359	0.949	13.3359	0.26481	-69.55565
1450	0.26152	-69.70043	0.94923	13.18736	0.94923	13.18736	0.26152	-69.70043
1470	0.25871	-69.81047	0.95258	12.91132	0.95258	12.91132	0.25871	-69.81047
1490	0.25448	-69.73914	0.95413	12.6411	0.95413	12.6411	0.25448	-69.73914
1510	0.24945	-69.47738	0.95452	12.41046	0.95452	12.41046	0.24945	-69.47738
1530	0.2441	-69.27821	0.95442	12.1763	0.95442	12.1763	0.2441	-69.27821
1550	0.23879	-69.65671	0.9545	11.81865	0.9545	11.81865	0.23879	-69.65671
1570	0.23436	-69.99276	0.95495	11.57368	0.95495	11.57368	0.23436	-69.99276
1590	0.22872	-70.39756	0.95444	11.34737	0.95444	11.34737	0.22872	-70.39756
1610	0.22439	-70.837	0.95537	11.07238	0.95537	11.07238	0.22439	-70.837
1630	0.22174	-71.27414	0.9585	10.81027	0.9585	10.81027	0.22174	-71.27414
1650	0.21901	-71.6692	0.96289	10.75151	0.96289	10.75151	0.21901	-71.6692
1670	0.21624	-71.9876	0.96089	10.49553	0.96089	10.49553	0.21624	-71.9876
1690	0.21331	-71.83405	0.96216	10.255	0.96216	10.255	0.21331	-71.83405
1710	0.20941	-71.75757	0.96286	9.9579	0.96286	9.9579	0.20941	-71.75757
1730	0.20514	-71.84947	0.96319	9.57931	0.96319	9.57931	0.20514	-71.84947
1750	0.20243	-71.74328	0.96736	9.14139	0.96736	9.14139	0.20243	-71.74328
1770	0.19665	-71.97178	0.96357	9.23664	0.96357	9.23664	0.19665	-71.97178
1790	0.19249	-72.41917	0.9638	9.13661	0.9638	9.13661	0.19249	-72.41917
1810	0.18945	-72.91934	0.96549	8.87721	0.96549	8.87721	0.18945	-72.91934
1830	0.18688	-73.44326	0.96693	8.56508	0.96693	8.56508	0.18688	-73.44326
1850	0.18407	-74.09897	0.96729	8.37756	0.96729	8.37756	0.18407	-74.09897
1870	0.18216	-73.95984	0.96735	8.22213	0.96735	8.22213	0.18216	-73.95984
1890	0.17956	-73.96072	0.96777	8.14922	0.96777	8.14922	0.17956	-73.96072
1910	0.17728	-73.71433	0.97024	8.00644	0.97024	8.00644	0.17728	-73.71433
1930	0.1748	-73.40304	0.97195	7.84374	0.97195	7.84374	0.1748	-73.40304
1950	0.17007	-73.77886	0.96555	7.91344	0.96555	7.91344	0.17007	-73.77886
1970	0.16701	-73.72641	0.96902	7.59969	0.96902	7.59969	0.16701	-73.72641
1990	0.16413	-74.1366	0.96852	7.29589	0.96852	7.29589	0.16413	-74.1366
2010	0.16116	-74.52326	0.96962	7.01627	0.96962	7.01627	0.16116	-74.52326
2030	0.15821	-74.72134	0.9725	6.82904	0.9725	6.82904	0.15821	-74.72134
2050	0.15576	-74.8869	0.97192	6.85635	0.97192	6.85635	0.15576	-74.8869
2070	0.15374	-74.80571	0.97176	6.63133	0.97176	6.63133	0.15374	-74.80571
2090	0.15179	-74.67249	0.9721	6.50087	0.9721	6.50087	0.15179	-74.67249
2110	0.14927	-74.48249	0.97296	6.38661	0.97296	6.38661	0.14927	-74.48249
2130	0.14617	-74.25834	0.97378	6.23444	0.97378	6.23444	0.14617	-74.25834
2150	0.14312	-74.04999	0.97338	6.01446	0.97338	6.01446	0.14312	-74.04999
2170	0.13982	-74.07165	0.97569	5.79275	0.97569	5.79275	0.13982	-74.07165
2190	0.13612	-74.12533	0.9738	5.75844	0.9738	5.75844	0.13612	-74.12533
2210	0.13271	-74.53644	0.97362	5.60682	0.97362	5.60682	0.13271	-74.53644
2230	0.12987	-75.11374	0.97577	5.32544	0.97577	5.32544	0.12987	-75.11374
2250	0.12745	-75.14934	0.97556	5.1941	0.97556	5.1941	0.12745	-75.14934
2270	0.12569	-75.61837	0.97694	5.00283	0.97694	5.00283	0.12569	-75.61837
2290	0.12428	-75.84524	0.97738	4.8705	0.97738	4.8705	0.12428	-75.84524
2310	0.12218	-75.76264	0.97769	4.72542	0.97769	4.72542	0.12218	-75.76264
2330	0.11925	-75.36001	0.97773	4.56941	0.97773	4.56941	0.11925	-75.36001
2350	0.11615	-74.68349	0.97643	4.47782	0.97643	4.47782	0.11615	-74.68349
2370	0.11254	-74.69867	0.97789	4.39939	0.97789	4.39939	0.11254	-74.69867
2390	0.10893	-75.10918	0.97604	4.19117	0.97604	4.19117	0.10893	-75.10918
2410	0.10613	-75.72922	0.97642	4.04907	0.97642	4.04907	0.10613	-75.72922
2430	0.10415	-76.49915	0.97851	4.04259	0.97851	4.04259	0.10415	-76.49915
2450	0.10225	-77.48557	0.97566	4.11473	0.97566	4.11473	0.10225	-77.48557
2470	0.10182	-77.92997	0.98321	3.79278	0.98321	3.79278	0.10182	-77.92997
2490	0.10077	-77.86263	0.98017	3.56319	0.98017	3.56319	0.10077	-77.86263
2510	0.09911	-77.50256	0.97747	3.41873	0.97747	3.41873	0.09911	-77.50256
2530	0.09699	-77.00729	0.97801	3.31	0.97801	3.31	0.09699	-77.00729
2550	0.09477	-76.47278	0.97663	3.14547	0.97663	3.14547	0.09477	-76.47278
2570	0.09142	-76.04637	0.97735	3.23487	0.97735	3.23487	0.09142	-76.04637
2590	0.08826	-76.35988	0.97837	3.05266	0.97837	3.05266	0.08826	-76.35988
2610	0.08518	-77.07198	0.97867	2.83689	0.97867	2.83689	0.08518	-77.07198
2630	0.08265	-77.86318	0.97914	2.65698	0.97914	2.65698	0.08265	-77.86318
2650	0.08164	-78.43593	0.98262	2.41365	0.98262	2.41365	0.08164	-78.43593
2670	0.08031	-78.75844	0.98134	2.32548	0.98134	2.32548	0.08031	-78.75844
2690	0.07896	-78.43953	0.98048	2.26613	0.98048	2.26613	0.07896	-78.43953
2710	0.0771	-78.10151	0.9794	2.14277	0.9794	2.14277	0.0771	-78.10151
2730	0.07457	-77.80984	0.9791	2.01907	0.9791	2.01907	0.07457	-77.80984
2750	0.07159	-77.07312	0.98224	2.1153	0.98224	2.1153	0.07159	-77.07312
2770	0.06914	-77.48899	0.98016	1.91404	0.98016	1.91404	0.06914	-77.48899
2790	0.06642	-78.21325	0.98042	1.81302	0.98042	1.81302	0.06642	-78.21325
2810	0.06396	-79.12388	0.98001	1.85243	0.98001	1.85243	0.06396	-79.12388
2830	0.06217	-79.8559	0.97831	1.88908	0.97831	1.88908	0.06217	-79.8559
2850	0.06132	-79.80132	0.97712	1.59641	0.97712	1.59641	0.06132	-79.80132
2870	0.05979	-80.40976	0.98068	1.19719	0.98068	1.19719	0.05979	-80.40976
2890	0.05773	-80.67131	0.98105	1.09262	0.98105	1.09262	0.05773	-80.67131
2910	0.05576	-80.92784	0.98103	1.0399	0.98103	1.0399	0.05576	-80.92784
2930	0.0541	-81.25754	0.98157	0.95343	0.98157	0.95343	0.0541	-81.25754
2950	0.05258	-81.47489	0.98175	0.9048	0.98175	0.9048	0.05258	-81.47489
2970	0.05045	-81.64253	0.98114	0.81837	0.98114	0.81837	0.05045	-81.64253
2990	0.0486	-81.94574	0.98407	0.63043	0.98407	0.63043	0.0486	-81.94574
3010	0.04708	-82.45746	0.98405	0.53275	0.98405	0.53275	0.04708	-82.45746
3030	0.04548	-82.90264	0.98097	0.54437	0.98097	0.54437	0.04548	-82.90264
3050	0.0429	-82.65822	0.98109	0.51151	0.98109	0.51151	0.0429	-82.65822
3070	0.0407	-83.3977	0.98067	0.51172	0.98067	0.51172	0.0407	-83.3977
3090	0.03897	-84.77483	0.97895	0.19184	0.97895	0.19184	0.03897	-84.77483
3110	0.03742	-86.63939	0.97949	-0.01501	0.97949	-0.01501	0.03742	-86.63939
3130	0.03604	-88.59454	0.98206	-0.02847	0.98206	-0.02847	0.03604	-88.59454
3150	0.03506	-89.99688	0.98267	-0.121	0.98267	-0.121	0.03506	-89.99688
3170	0.03403	-91.048	0.98179	-0.11398	0.98179	-0.11398	0.03403	-91.048
3190	0.03299	-90.36479	0.98441	-0.11722	0.98441	-0.11722	0.03299	-90.36479
3210	0.03181	-89.93554	0.98402	-0.15222	0.98402	-0.15222	0.03181	-89.93554
3230	0.03024	-90.47844	0.98042	-0.28328	0.98042	-0.28328	0.03024	-90.47844
3250	0.02794	-91.44158	0.9797	-0.61754	0.9797	-0.61754	0.02794	-91.44158
3270	0.02526	-97.08797	0.98033	-0.56721	0.98033	-0.56721	0.02526	-97.08797
3290	0.02389	-101.7228	0.9807	-0.7064	0.9807	-0.7064	0.02389	-101.7228
3310	0.02349	-106.18045	0.98007	-0.78964	0.98007	-0.78964	0.02349	-106.18045
3330	0.02354	-110.09506	0.98065	-0.8014	0.98065	-0.8014	0.02354	-110.09506
3350	0.02335	-111.90049	0.98763	-0.95608	0.98763	-0.95608	0.02335	-111.90049
3370	0.02282	-111.61269	0.98528	-0.87737	0.98528	-0.87737	0.02282	-111.61269
3390	0.02154	-110.60306	0.98313	-1.04498	0.98313	-1.04498	0.02154	-110.60306
3410	0.02012	-111.83792	0.98166	-1.34504	0.98166	-1.34504	0.02012	-111.83792
3430	0.01832	-116.99018	0.9817	-1.53216	0.9817	-1.53216	0.01832	-116.99018
3450	0.01508	-126.43933	0.98433	-1.22934	0.98433	-1.22934	0.01508	-126.43933
3470	0.01513	-134.20452	0.98165	-1.49372	0.98165	-1.49372	0.01513	-134.20452
3490	0.01608	-142.8002	0.9805	-1.48885	0.9805	-1.48885	0.01608	-142.8002
3510	0.01731	-149.54633	0.98201	-1.35644	0.98201	-1.35644	0.01731	-149.54633
3530	0.01836	-153.31633	0.98438	-1.3058	0.98438	-1.3058	0.01836	-153.31633
3550	0.01893	-154.53715	0.98278	-1.61391	0.98278	-1.61391	0.01893	-154.53715
3570	0.01855	-154.46271	0.98195	-1.84764	0.98195	-1.84764	0.01855	-154.46271
3590	0.01864	-157.32477	0.98126	-2.04613	0.98126	-2.04613	0.01864	-157.32477
3610	0.01872	-162.85912	0.98042	-2.1092	0.98042	-2.1092	0.01872	-162.85912
3630	0.0188	-169.56591	0.98003	-2.05046	0.98003	-2.05046	0.0188	-169.56591
3650	0.01939	-174.70966	0.98158	-1.99728	0.98158	-1.99728	0.01939	-174.70966
3670	0.02051	-178.37626	0.98117	-2.15649	0.98117	-2.15649	0.02051	-178.37626
3690	0.02188	35.20771	0.98047	-2.41405	0.98047	-2.41405	0.02188	35.20771
3710	0.02313	177.37445	0.98064	-2.52207	0.98064	-2.52207	0.02313	177.37445
3730	0.02386	176.00514	0.98141	-2.4869	0.98141	-2.4869	0.02386	176.00514
3750	0.0236	175.52992	0.98106	-2.56914	0.98106	-2.56914	0.0236	175.52992
3770	0.02443	173.84104	0.97767	-2.58092	0.97767	-2.58092	0.02443	173.84104
3790	0.02486	170.90995	0.9804	-2.82669	0.9804	-2.82669	0.02486	170.90995
3810	0.02537	167.76887	0.98186	-2.8878	0.98186	-2.8878	0.02537	167.76887
3830	0.02624	164.97558	0.98071	-2.7232	0.98071	-2.7232	0.02624	164.97558
3850	0.02748	162.61347	0.98159	-2.66937	0.98159	-2.66937	0.02748	162.61347
3870	0.02847	160.96687	0.97558	-2.92312	0.97558	-2.92312	0.02847	160.96687
3890	0.0298	159.94629	0.98024	-3.04145	0.98024	-3.04145	0.0298	159.94629
3910	0.03099	158.81754	0.98264	-3.12418	0.98264	-3.12418	0.03099	158.81754
3930	0.03189	157.60257	0.9803	-3.16051	0.9803	-3.16051	0.03189	157.60257
3950	0.03267	157.07945	0.98123	-3.02899	0.98123	-3.02899	0.03267	157.07945
3970	0.03357	155.90376	0.98026	-3.06772	0.98026	-3.06772	0.03357	155.90376
3990	0.03459	154.26817	0.97993	-3.28787	0.97993	-3.28787	0.03459	154.26817
4010	0.03554	152.58689	0.98002	-3.40622	0.98002	-3.40622	0.03554	152.58689
4030	0.03642	151.13591	0.98095	-3.39149	0.98095	-3.39149	0.03642	151.13591
4050	0.03741	150.05291	0.98379	-3.46436	0.98379	-3.46436	0.03741	150.05291
4070	0.03931	149.32587	0.97738	-3.62503	0.97738	-3.62503	0.03931	149.32587
4090	0.04093	148.60629	0.97903	-3.75267	0.97903	-3.75267	0.04093	148.60629
4110	0.04217	148.08306	0.98098	-3.74609	0.98098	-3.74609	0.04217	148.08306
4130	0.04323	147.98811	0.98064	-3.72171	0.98064	-3.72171	0.04323	147.98811
4150	0.04461	148.59633	0.98058	-4.01358	0.98058	-4.01358	0.04461	148.59633
4170	0.04555	147.9002	0.98386	-4.0871	0.98386	-4.0871	0.04555	147.9002
4190	0.04586	146.87088	0.98314	-4.15901	0.98314	-4.15901	0.04586	146.87088
4210	0.04625	146.09673	0.97987	-4.185	0.97987	-4.185	0.04625	146.09673
4230	0.04713	145.58308	0.97768	-4.26538	0.97768	-4.26538	0.04713	145.58308
4250	0.04859	144.75225	0.98241	-4.6451	0.98241	-4.6451	0.04859	144.75225
4270	0.05028	144.2926	0.98026	-4.43046	0.98026	-4.43046	0.05028	144.2926
4290	0.05177	144.37083	0.97971	-4.44777	0.97971	-4.44777	0.05177	144.37083
4310	0.05267	145.18757	0.97989	-4.42478	0.97989	-4.42478	0.05267	145.18757
4330	0.0531	146.17637	0.98014	-4.38465	0.98014	-4.38465	0.0531	146.17637
4350	0.05366	146.00378	0.98	-4.64585	0.98	-4.64585	0.05366	146.00378
4370	0.05355	145.21798	0.97828	-4.73438	0.97828	-4.73438	0.05355	145.21798
4390	0.0533	144.38167	0.97704	-4.83056	0.97704	-4.83056	0.0533	144.38167
4410	0.05357	143.59041	0.97985	-5.05009	0.97985	-5.05009	0.05357	143.59041
4430	0.05458	142.69442	0.98423	-5.19901	0.98423	-5.19901	0.05458	142.69442
4450	0.0561	141.29851	0.98168	-4.7737	0.98168	-4.7737	0.0561	141.29851
4470	0.05713	140.10157	0.97848	-5.09526	0.97848	-5.09526	0.05713	140.10157
4490	0.05761	140.55096	0.97696	-5.20968	0.97696	-5.20968	0.05761	140.55096
4510	0.05762	141.24065	0.97458	-5.20285	0.97458	-5.20285	0.05762	141.24065
4530	0.05758	141.48096	0.97287	-5.22125	0.97287	-5.22125	0.05758	141.48096
4550	0.05821	141.29856	0.97738	-5.47188	0.97738	-5.47188	0.05821	141.29856
4570	0.0579	139.63058	0.97778	-5.53432	0.97778	-5.53432	0.0579	139.63058
4590	0.05805	138.51874	0.98287	-5.66178	0.98287	-5.66178	0.05805	138.51874
4610	0.05876	137.84503	0.98275	-5.64881	0.98275	-5.64881	0.05876	137.84503
4630	0.06025	137.252	0.97747	-5.55159	0.97747	-5.55159	0.06025	137.252
4650	0.06289	136.14272	0.97701	-5.68798	0.97701	-5.68798	0.06289	136.14272
4670	0.06301	136.11911	0.9759	-5.96829	0.9759	-5.96829	0.06301	136.11911
4690	0.06377	136.81925	0.97757	-6.06619	0.97757	-6.06619	0.06377	136.81925
4710	0.06421	137.79313	0.97858	-6.1333	0.97858	-6.1333	0.06421	137.79313
4730	0.06412	138.34887	0.97819	-6.16306	0.97819	-6.16306	0.06412	138.34887
4750	0.06414	137.55267	0.9784	-5.99067	0.9784	-5.99067	0.06414	137.55267
4770	0.06303	136.75092	0.98123	-6.08937	0.98123	-6.08937	0.06303	136.75092
4790	0.06275	135.94677	0.97932	-6.28268	0.97932	-6.28268	0.06275	135.94677
4810	0.0632	135.31303	0.97809	-6.36588	0.97809	-6.36588	0.0632	135.31303
4830	0.06426	134.79316	0.97937	-6.3664	0.97937	-6.3664	0.06426	134.79316
4850	0.06587	134.10131	0.98143	-6.54382	0.98143	-6.54382	0.06587	134.10131
4870	0.06615	134.19107	0.98106	-6.48028	0.98106	-6.48028	0.06615	134.19107
4890	0.06613	134.62154	0.97858	-6.59704	0.97858	-6.59704	0.06613	134.62154
4910	0.06604	135.00686	0.97563	-6.69698	0.97563	-6.69698	0.06604	135.00686
4930	0.06579	135.155	0.97385	-6.76632	0.97385	-6.76632	0.06579	135.155
4950	0.06498	135.06778	0.97487	-6.97463	0.97487	-6.97463	0.06498	135.06778
4970	0.06439	134.34665	0.97636	-6.7807	0.97636	-6.7807	0.06439	134.34665
4990	0.06416	133.53149	0.9762	-6.9699	0.9762	-6.9699	0.06416	133.53149
5010	0.06459	132.65406	0.97463	-7.10749	0.97463	-7.10749	0.06459	132.65406
5030	0.0654	131.82459	0.97361	-7.0388	0.97361	-7.0388	0.0654	131.82459
5050	0.06569	131.23178	0.97672	-6.8892	0.97672	-6.8892	0.06569	131.23178
5070	0.06587	131.33023	0.97618	-7.41596	0.97618	-7.41596	0.06587	131.33023
5090	0.06617	132.01737	0.97515	-7.3603	0.97515	-7.3603	0.06617	132.01737
5110	0.0659	132.33203	0.97539	-7.40905	0.97539	-7.40905	0.0659	132.33203
5130	0.06491	132.05457	0.97653	-7.64755	0.97653	-7.64755	0.06491	132.05457
5150	0.06365	131.70683	0.97614	-7.55961	0.97614	-7.55961	0.06365	131.70683
5170	0.06313	131.40904	0.97691	-7.64165	0.97691	-7.64165	0.06313	131.40904
5190	0.06287	130.47895	0.97415	-7.80435	0.97415	-7.80435	0.06287	130.47895
5210	0.06258	128.99626	0.97676	-7.9145	0.97676	-7.9145	0.06258	128.99626
5230	0.06231	127.56598	0.98215	-7.95908	0.98215	-7.95908	0.06231	127.56598
5250	0.06253	127.31838	0.97622	-8.04525	0.97622	-8.04525	0.06253	127.31838
5270	0.06246	127.1699	0.97459	-8.02256	0.97459	-8.02256	0.06246	127.1699
5290	0.06201	126.87393	0.97707	-8.13271	0.97707	-8.13271	0.06201	126.87393
5310	0.06179	126.77668	0.97729	-8.24832	0.97729	-8.24832	0.06179	126.77668
5330	0.06143	126.36012	0.97474	-8.3363	0.97474	-8.3363	0.06143	126.36012
5350	0.05959	124.24191	0.97477	-8.45786	0.97477	-8.45786	0.05959	124.24191
5370	0.05888	123.27247	0.9744	-8.29717	0.9744	-8.29717	0.05888	123.27247
5390	0.05922	122.21167	0.97196	-8.47932	0.97196	-8.47932	0.05922	122.21167
5410	0.05973	121.18828	0.97279	-8.47587	0.97279	-8.47587	0.05973	121.18828
