! P/N: 500R07S4R3BV4								
! Measured by Marlon								
! Oct. 28, 2003								
#	mhz	s	ma	r	50
0	0.99999	0.00000	0.00000	90.00000	0.00000	90.00000	0.99999	0.00000			
50	0.99999	-7.92714	0.14136	82.16729	0.14136	82.16729	0.99999	-7.92714
70	0.98843	-11.61236	0.18678	78.06409	0.18678	78.06409	0.98843	-11.61236
90	0.97122	-13.94249	0.23758	75.71856	0.23758	75.71856	0.97122	-13.94249
110	0.96324	-16.75269	0.28797	72.82657	0.28797	72.82657	0.96324	-16.75269
130	0.95158	-20.07868	0.33488	69.30944	0.33488	69.30944	0.95158	-20.07868
150	0.93112	-22.15675	0.37807	67.31396	0.37807	67.31396	0.93112	-22.15675
170	0.9193	-25.31815	0.42134	64.16733	0.42134	64.16733	0.9193	-25.31815
190	0.89314	-27.65928	0.45727	61.46224	0.45727	61.46224	0.89314	-27.65928
210	0.87017	-29.8265	0.49443	59.08359	0.49443	59.08359	0.87017	-29.8265
230	0.8528	-32.27896	0.53256	56.74049	0.53256	56.74049	0.8528	-32.27896
250	0.82832	-35.2886	0.56256	53.96623	0.56256	53.96623	0.82832	-35.2886
270	0.80714	-36.52119	0.58773	52.55646	0.58773	52.55646	0.80714	-36.52119
290	0.7909	-38.22955	0.61894	50.54554	0.61894	50.54554	0.7909	-38.22955
310	0.77098	-40.16142	0.64483	48.34048	0.64483	48.34048	0.77098	-40.16142
330	0.74673	-41.9628	0.66426	46.36966	0.66426	46.36966	0.74673	-41.9628
350	0.72549	-43.17788	0.68635	45.08286	0.68635	45.08286	0.72549	-43.17788
370	0.7044	-44.70066	0.70442	43.31123	0.70442	43.31123	0.7044	-44.70066
390	0.68015	-46.08406	0.71958	41.73203	0.71958	41.73203	0.68015	-46.08406
410	0.65996	-47.52593	0.73671	40.24915	0.73671	40.24915	0.65996	-47.52593
430	0.64403	-49.1212	0.7552	38.78781	0.7552	38.78781	0.64403	-49.1212
450	0.62552	-50.86194	0.76899	37.29465	0.76899	37.29465	0.62552	-50.86194
470	0.60908	-52.08615	0.78031	36.23749	0.78031	36.23749	0.60908	-52.08615
490	0.6099	-50.07536	0.77689	36.69749	0.77689	36.69749	0.6099	-50.07536
510	0.60378	-49.68281	0.7794	36.49795	0.7794	36.49795	0.60378	-49.68281
530	0.5864	-51.86915	0.7917	35.13638	0.7917	35.13638	0.5864	-51.86915
550	0.57341	-53.70247	0.80082	33.78454	0.80082	33.78454	0.57341	-53.70247
570	0.57214	-54.83987	0.80877	32.73174	0.80877	32.73174	0.57214	-54.83987
590	0.56737	-55.39124	0.82068	31.59916	0.82068	31.59916	0.56737	-55.39124
610	0.55755	-55.71524	0.8310	30.57482	0.8310	30.57482	0.55755	-55.71524
630	0.54318	-55.76623	0.83748	29.6576	0.83748	29.6576	0.54318	-55.76623
650	0.52683	-55.09431	0.84113	28.65724	0.84113	28.65724	0.52683	-55.09431
670	0.51233	-55.58595	0.85354	28.1272	0.85354	28.1272	0.51233	-55.58595
690	0.4977	-56.55223	0.86051	27.39566	0.86051	27.39566	0.4977	-56.55223
710	0.48152	-57.56169	0.86422	26.68004	0.86422	26.68004	0.48152	-57.56169
730	0.46765	-58.4824	0.86777	26.05735	0.86777	26.05735	0.46765	-58.4824
750	0.46524	-59.48196	0.87518	25.4642	0.87518	25.4642	0.46524	-59.48196
770	0.46013	-60.32093	0.87823	24.87427	0.87823	24.87427	0.46013	-60.32093
790	0.45403	-60.60377	0.88047	24.3325	0.88047	24.3325	0.45403	-60.60377
810	0.44607	-60.5557	0.88336	23.62754	0.88336	23.62754	0.44607	-60.5557
830	0.4363	-60.31813	0.88645	22.81376	0.88645	22.81376	0.4363	-60.31813
850	0.42564	-59.94863	0.88738	22.21122	0.88738	22.21122	0.42564	-59.94863
870	0.41375	-60.77482	0.89603	21.82842	0.89603	21.82842	0.41375	-60.77482
890	0.39983	-61.53962	0.90172	21.10631	0.90172	21.10631	0.39983	-61.53962
910	0.38903	-62.25454	0.90442	20.58118	0.90442	20.58118	0.38903	-62.25454
930	0.38303	-63.03341	0.90594	20.33944	0.90594	20.33944	0.38303	-63.03341
950	0.38004	-64.09237	0.90989	20.01758	0.90989	20.01758	0.38004	-64.09237
970	0.37624	-64.86013	0.91319	19.45809	0.91319	19.45809	0.37624	-64.86013
990	0.37096	-64.93846	0.91337	19.04772	0.91337	19.04772	0.37096	-64.93846
1010	0.36492	-64.84137	0.91256	18.62166	0.91256	18.62166	0.36492	-64.84137
1030	0.35836	-64.79932	0.91216	18.16224	0.91216	18.16224	0.35836	-64.79932
1050	0.35107	-64.75925	0.9129	17.79896	0.9129	17.79896	0.35107	-64.75925
1070	0.34158	-65.5076	0.92075	17.26449	0.92075	17.26449	0.34158	-65.5076
1090	0.33317	-66.04084	0.92128	16.74153	0.92128	16.74153	0.33317	-66.04084
1110	0.32739	-66.70806	0.92213	16.2316	0.92213	16.2316	0.32739	-66.70806
1130	0.32432	-67.60259	0.92632	15.78035	0.92632	15.78035	0.32432	-67.60259
1150	0.32255	-68.56199	0.93225	15.47753	0.93225	15.47753	0.32255	-68.56199
1170	0.32233	-68.52838	0.92987	15.46806	0.92987	15.46806	0.32233	-68.52838
1190	0.32169	-68.46782	0.93279	15.03904	0.93279	15.03904	0.32169	-68.46782
1210	0.31802	-68.30401	0.93326	14.74146	0.93326	14.74146	0.31802	-68.30401
1230	0.31167	-68.05952	0.93129	14.61696	0.93129	14.61696	0.31167	-68.05952
1250	0.30595	-67.8558	0.93468	14.19777	0.93468	14.19777	0.30595	-67.8558
1270	0.29995	-68.20575	0.93704	13.7125	0.93704	13.7125	0.29995	-68.20575
1290	0.29399	-68.66891	0.9368	13.31791	0.9368	13.31791	0.29399	-68.66891
1310	0.2896	-69.01329	0.93875	13.10931	0.93875	13.10931	0.2896	-69.01329
1330	0.28696	-69.32821	0.94255	12.96104	0.94255	12.96104	0.28696	-69.32821
1350	0.28497	-70.02423	0.94273	12.52639	0.94273	12.52639	0.28497	-70.02423
1370	0.2826	-69.91241	0.94286	12.56115	0.94286	12.56115	0.2826	-69.91241
1390	0.27923	-69.45239	0.94502	12.13738	0.94502	12.13738	0.27923	-69.45239
1410	0.27492	-68.9988	0.9447	11.8227	0.9447	11.8227	0.27492	-68.9988
1430	0.26943	-68.75723	0.94278	11.72011	0.94278	11.72011	0.26943	-68.75723
1450	0.26227	-68.78419	0.94551	11.46806	0.94551	11.46806	0.26227	-68.78419
1470	0.25459	-69.05541	0.94795	11.14952	0.94795	11.14952	0.25459	-69.05541
1490	0.24954	-69.64566	0.94819	11.02465	0.94819	11.02465	0.24954	-69.64566
1510	0.24513	-70.48831	0.94837	10.84836	0.94837	10.84836	0.24513	-70.48831
1530	0.24099	-71.43539	0.94904	10.57049	0.94904	10.57049	0.24099	-71.43539
1550	0.23834	-72.25756	0.94912	10.33582	0.94912	10.33582	0.23834	-72.25756
1570	0.23641	-72.42778	0.94934	10.15975	0.94934	10.15975	0.23641	-72.42778
1590	0.23388	-72.43583	0.95114	9.80628	0.95114	9.80628	0.23388	-72.43583
1610	0.23102	-72.43869	0.95293	9.54009	0.95293	9.54009	0.23102	-72.43869
1630	0.22743	-72.51972	0.95389	9.42255	0.95389	9.42255	0.22743	-72.51972
1650	0.22209	-72.6886	0.95398	9.31166	0.95398	9.31166	0.22209	-72.6886
1670	0.21896	-73.28073	0.95127	9.1714	0.95127	9.1714	0.21896	-73.28073
1690	0.21691	-74.24814	0.95424	8.81269	0.95424	8.81269	0.21691	-74.24814
1710	0.21492	-75.00793	0.95671	8.51233	0.95671	8.51233	0.21492	-75.00793
1730	0.21309	-75.3589	0.95685	8.33005	0.95685	8.33005	0.21309	-75.3589
1750	0.21261	-75.48154	0.9572	8.1084	0.9572	8.1084	0.21261	-75.48154
1770	0.21091	-75.00777	0.95603	8.3373	0.95603	8.3373	0.21091	-75.00777
1790	0.20791	-74.94345	0.95705	7.99797	0.95705	7.99797	0.20791	-74.94345
1810	0.20414	-74.91405	0.95808	7.7221	0.95808	7.7221	0.20414	-74.91405
1830	0.20026	-74.85993	0.95875	7.61453	0.95875	7.61453	0.20026	-74.85993
1850	0.1970	-75.03642	0.96057	7.25326	0.96057	7.25326	0.1970	-75.03642
1870	0.19344	-75.79899	0.95836	7.11407	0.95836	7.11407	0.19344	-75.79899
1890	0.19143	-76.79353	0.95936	7.02813	0.95936	7.02813	0.19143	-76.79353
1910	0.19033	-77.61317	0.96146	6.91311	0.96146	6.91311	0.19033	-77.61317
1930	0.18983	-77.93527	0.96339	6.75362	0.96339	6.75362	0.18983	-77.93527
1950	0.18993	-77.52137	0.96471	6.6012	0.96471	6.6012	0.18993	-77.52137
1970	0.18856	-77.20634	0.96207	6.29727	0.96207	6.29727	0.18856	-77.20634
1990	0.18634	-76.65406	0.96137	6.23695	0.96137	6.23695	0.18634	-76.65406
2010	0.18259	-76.00214	0.96127	6.26684	0.96127	6.26684	0.18259	-76.00214
2030	0.17752	-75.55122	0.96184	6.16701	0.96184	6.16701	0.17752	-75.55122
2050	0.17223	-75.76492	0.96447	5.65106	0.96447	5.65106	0.17223	-75.76492
2070	0.16831	-76.21797	0.96246	5.53721	0.96246	5.53721	0.16831	-76.21797
2090	0.1651	-77.02842	0.96509	5.48436	0.96509	5.48436	0.1651	-77.02842
2110	0.16233	-77.85353	0.96491	5.33782	0.96491	5.33782	0.16233	-77.85353
2130	0.16038	-78.38666	0.96192	5.13585	0.96192	5.13585	0.16038	-78.38666
2150	0.16026	-78.35733	0.96355	5.10965	0.96355	5.10965	0.16026	-78.35733
2170	0.15896	-78.32823	0.96623	4.8660	0.96623	4.8660	0.15896	-78.32823
2190	0.15603	-77.85627	0.96745	4.90463	0.96745	4.90463	0.15603	-77.85627
2210	0.15211	-77.42373	0.96722	4.7896	0.96722	4.7896	0.15211	-77.42373
2230	0.14765	-77.31572	0.96581	4.48567	0.96581	4.48567	0.14765	-77.31572
2250	0.14288	-77.62019	0.96379	4.35835	0.96379	4.35835	0.14288	-77.62019
2270	0.13732	-78.91453	0.9629	4.5052	0.9629	4.5052	0.13732	-78.91453
2290	0.13458	-80.04237	0.96616	4.18015	0.96616	4.18015	0.13458	-80.04237
2310	0.13308	-81.14241	0.9672	3.89046	0.9672	3.89046	0.13308	-81.14241
2330	0.13212	-82.15026	0.96519	3.76937	0.96519	3.76937	0.13212	-82.15026
2350	0.13182	-82.79848	0.96483	3.57611	0.96483	3.57611	0.13182	-82.79848
2370	0.13154	-82.59507	0.96205	3.43778	0.96205	3.43778	0.13154	-82.59507
2390	0.12962	-82.19886	0.96586	3.4698	0.96586	3.4698	0.12962	-82.19886
2410	0.12677	-81.82254	0.96726	3.42854	0.96726	3.42854	0.12677	-81.82254
2430	0.12359	-81.78001	0.96516	3.26276	0.96516	3.26276	0.12359	-81.78001
2450	0.12054	-82.48635	0.96639	3.11359	0.96639	3.11359	0.12054	-82.48635
2470	0.1168	-83.72293	0.95952	2.91075	0.95952	2.91075	0.1168	-83.72293
2490	0.1148	-84.84561	0.96479	2.88923	0.96479	2.88923	0.1148	-84.84561
2510	0.11427	-85.85262	0.96943	2.79175	0.96943	2.79175	0.11427	-85.85262
2530	0.11466	-86.52378	0.96827	2.61719	0.96827	2.61719	0.11466	-86.52378
2550	0.11517	-86.42047	0.96378	2.62069	0.96378	2.62069	0.11517	-86.42047
2570	0.11431	-85.85258	0.97094	2.46318	0.97094	2.46318	0.11431	-85.85258
2590	0.11219	-84.72166	0.96838	2.43475	0.96838	2.43475	0.11219	-84.72166
2610	0.10845	-83.9972	0.96624	2.25779	0.96624	2.25779	0.10845	-83.9972
2630	0.10367	-84.04368	0.96668	1.99083	0.96668	1.99083	0.10367	-84.04368
2650	0.09936	-84.62056	0.96389	2.02851	0.96389	2.02851	0.09936	-84.62056
2670	0.0959	-86.41699	0.96856	1.86863	0.96856	1.86863	0.0959	-86.41699
2690	0.09388	-88.02806	0.96823	1.68392	0.96823	1.68392	0.09388	-88.02806
2710	0.09301	-89.28915	0.96684	1.60979	0.96684	1.60979	0.09301	-89.28915
2730	0.09291	-90.10711	0.96762	1.66117	0.96762	1.66117	0.09291	-90.10711
2750	0.09308	-90.46023	0.9731	1.73244	0.9731	1.73244	0.09308	-90.46023
2770	0.09096	-89.4617	0.97004	1.44917	0.97004	1.44917	0.09096	-89.4617
2790	0.0884	-87.9561	0.96863	1.26439	0.96863	1.26439	0.0884	-87.9561
2810	0.08497	-87.24998	0.97004	1.05529	0.97004	1.05529	0.08497	-87.24998
2830	0.08088	-87.73352	0.97233	0.96162	0.97233	0.96162	0.08088	-87.73352
2850	0.07693	-88.88048	0.97047	1.38567	0.97047	1.38567	0.07693	-88.88048
2870	0.07264	-91.63339	0.96887	0.88667	0.96887	0.88667	0.07264	-91.63339
2890	0.07104	-93.96738	0.96884	0.8450	0.96884	0.8450	0.07104	-93.96738
2910	0.07112	-95.94585	0.96887	0.74027	0.96887	0.74027	0.07112	-95.94585
2930	0.07111	-96.97897	0.96841	0.49943	0.96841	0.49943	0.07111	-96.97897
2950	0.0685	-95.82362	0.96787	0.49681	0.96787	0.49681	0.0685	-95.82362
2970	0.06814	-95.43124	0.9680	0.52854	0.9680	0.52854	0.06814	-95.43124
2990	0.06592	-94.69296	0.96431	0.20259	0.96431	0.20259	0.06592	-94.69296
3010	0.0632	-94.85972	0.9646	0.18366	0.9646	0.18366	0.0632	-94.85972
3030	0.05998	-96.7155	0.96841	0.41229	0.96841	0.41229	0.05998	-96.7155
3050	0.05501	-100.57743	0.96704	0.10487	0.96704	0.10487	0.05501	-100.57743
3070	0.05309	-103.34932	0.9679	0.06143	0.9679	0.06143	0.05309	-103.34932
3090	0.05369	-106.03767	0.96621	-0.10807	0.96621	-0.10807	0.05369	-106.03767
3110	0.05457	-108.03635	0.9661	-0.24609	0.9661	-0.24609	0.05457	-108.03635
3130	0.05466	-108.84272	0.96797	-0.28469	0.96797	-0.28469	0.05466	-108.84272
3150	0.05404	-108.05763	0.96845	-0.24555	0.96845	-0.24555	0.05404	-108.05763
3170	0.05298	-106.17055	0.96767	-0.42937	0.96767	-0.42937	0.05298	-106.17055
3190	0.0498	-105.93145	0.96675	-0.52455	0.96675	-0.52455	0.0498	-105.93145
3210	0.04619	-107.85082	0.96672	-0.57156	0.96672	-0.57156	0.04619	-107.85082
3230	0.04257	-111.1479	0.96719	-0.59262	0.96719	-0.59262	0.04257	-111.1479
3250	0.03808	-113.75065	0.96636	-0.59168	0.96636	-0.59168	0.03808	-113.75065
3270	0.03765	-117.96667	0.96908	-0.63186	0.96908	-0.63186	0.03765	-117.96667
3290	0.0380	-122.3825	0.9678	-0.92981	0.9678	-0.92981	0.0380	-122.3825
3310	0.03838	-125.98281	0.96678	-1.11056	0.96678	-1.11056	0.03838	-125.98281
3330	0.03827	-128.21498	0.9679	-1.10527	0.9679	-1.10527	0.03827	-128.21498
3350	0.03743	-128.98905	0.97062	-1.1512	0.97062	-1.1512	0.03743	-128.98905
3370	0.03599	-129.70919	0.9674	-1.13768	0.9674	-1.13768	0.03599	-129.70919
3390	0.03454	-132.19328	0.96739	-1.1778	0.96739	-1.1778	0.03454	-132.19328
3410	0.0328	-136.87886	0.96789	-1.2336	0.96789	-1.2336	0.0328	-136.87886
3430	0.03136	-142.71549	0.96684	-1.38918	0.96684	-1.38918	0.03136	-142.71549
3450	0.0317	-147.16473	0.9629	-1.85071	0.9629	-1.85071	0.0317	-147.16473
3470	0.03261	-152.51669	0.97076	-1.5394	0.97076	-1.5394	0.03261	-152.51669
3490	0.03425	-156.28807	0.96948	-1.52832	0.96948	-1.52832	0.03425	-156.28807
3510	0.03559	-158.75956	0.96763	-1.72555	0.96763	-1.72555	0.03559	-158.75956
3530	0.03617	-160.21851	0.96774	-1.89851	0.96774	-1.89851	0.03617	-160.21851
3550	0.03615	-160.95892	0.96632	-1.67399	0.96632	-1.67399	0.03615	-160.95892
3570	0.03543	-161.89789	0.96734	-1.88774	0.96734	-1.88774	0.03543	-161.89789
3590	0.03471	-163.86641	0.96867	-2.10148	0.96867	-2.10148	0.03471	-163.86641
3610	0.03409	-167.79268	0.97005	-2.2097	0.97005	-2.2097	0.03409	-167.79268
3630	0.03404	-173.16428	0.97042	-2.21899	0.97042	-2.21899	0.03404	-173.16428
3650	0.03537	-178.02815	0.96785	-2.24801	0.96785	-2.24801	0.03537	-178.02815
3670	0.03742	107.26033	0.96781	-2.27123	0.96781	-2.27123	0.03742	107.26033
3690	0.03939	176.6011	0.96816	-2.48981	0.96816	-2.48981	0.03939	176.6011
3710	0.04073	175.17546	0.96709	-2.58518	0.96709	-2.58518	0.04073	175.17546
3730	0.0413	174.94313	0.96615	-2.48177	0.96615	-2.48177	0.0413	174.94313
3750	0.04132	174.64228	0.97024	-2.34708	0.97024	-2.34708	0.04132	174.64228
3770	0.04111	173.12571	0.97007	-2.52645	0.97007	-2.52645	0.04111	173.12571
3790	0.04071	170.35302	0.96776	-2.5480	0.96776	-2.5480	0.04071	170.35302
3810	0.04052	166.44465	0.96792	-2.63921	0.96792	-2.63921	0.04052	166.44465
3830	0.04126	162.32512	0.97019	-2.81229	0.97019	-2.81229	0.04126	162.32512
3850	0.04391	159.72302	0.96926	-2.86412	0.96926	-2.86412	0.04391	159.72302
3870	0.04699	157.52467	0.96804	-2.77656	0.96804	-2.77656	0.04699	157.52467
3890	0.0496	156.28538	0.96625	-2.91017	0.96625	-2.91017	0.0496	156.28538
3910	0.05144	155.68148	0.96671	-3.08956	0.96671	-3.08956	0.05144	155.68148
3930	0.05245	155.48217	0.9689	-3.17565	0.9689	-3.17565	0.05245	155.48217
3950	0.05289	155.54955	0.96895	-3.06562	0.96895	-3.06562	0.05289	155.54955
3970	0.05399	154.14174	0.97075	-2.99936	0.97075	-2.99936	0.05399	154.14174
3990	0.05444	151.84653	0.97015	-3.23638	0.97015	-3.23638	0.05444	151.84653
4010	0.05551	149.77986	0.96879	-3.38968	0.96879	-3.38968	0.05551	149.77986
4030	0.05758	148.27327	0.9678	-3.42142	0.9678	-3.42142	0.05758	148.27327
4050	0.06014	146.8739	0.96781	-3.64294	0.96781	-3.64294	0.06014	146.8739
4070	0.06272	145.9344	0.96714	-3.56574	0.96714	-3.56574	0.06272	145.9344
4090	0.06463	145.41103	0.96745	-3.52732	0.96745	-3.52732	0.06463	145.41103
4110	0.06586	145.06274	0.96737	-3.58996	0.96737	-3.58996	0.06586	145.06274
4130	0.06688	144.71139	0.9675	-3.78222	0.9675	-3.78222	0.06688	144.71139
4150	0.0686	144.24177	0.97044	-4.09897	0.97044	-4.09897	0.0686	144.24177
4170	0.07001	143.75872	0.96575	-3.71777	0.96575	-3.71777	0.07001	143.75872
4190	0.07126	143.20949	0.96599	-3.77807	0.96599	-3.77807	0.07126	143.20949
4210	0.07282	143.00718	0.96762	-3.96014	0.96762	-3.96014	0.07282	143.00718
4230	0.07475	143.16271	0.9694	-3.96092	0.9694	-3.96092	0.07475	143.16271
4250	0.07668	143.28489	0.97245	-3.49401	0.97245	-3.49401	0.07668	143.28489
4270	0.07709	143.24238	0.96647	-4.14483	0.96647	-4.14483	0.07709	143.24238
4290	0.0771	143.2947	0.96574	-4.09401	0.96574	-4.09401	0.0771	143.2947
4310	0.07708	142.76623	0.96454	-4.06005	0.96454	-4.06005	0.07708	142.76623
4330	0.07739	141.71677	0.96261	-4.26085	0.96261	-4.26085	0.07739	141.71677
4350	0.0784	140.94157	0.9652	-4.41371	0.9652	-4.41371	0.0784	140.94157
4370	0.0791	139.88946	0.96671	-4.40248	0.96671	-4.40248	0.0791	139.88946
4390	0.07972	139.28394	0.96586	-4.46304	0.96586	-4.46304	0.07972	139.28394
4410	0.08042	138.83568	0.96564	-4.5388	0.96564	-4.5388	0.08042	138.83568
4430	0.08103	138.39275	0.96685	-4.58759	0.96685	-4.58759	0.08103	138.39275
4450	0.08103	137.94061	0.96809	-4.5817	0.96809	-4.5817	0.08103	137.94061
4470	0.08223	136.58438	0.96639	-4.7845	0.96639	-4.7845	0.08223	136.58438
4490	0.08329	135.2248	0.96759	-4.80746	0.96759	-4.80746	0.08329	135.2248
4510	0.08425	134.01137	0.9677	-4.88687	0.9677	-4.88687	0.08425	134.01137
4530	0.08561	132.98844	0.96642	-4.9717	0.96642	-4.9717	0.08561	132.98844
4550	0.08836	132.09514	0.96721	-4.72371	0.96721	-4.72371	0.08836	132.09514
4570	0.08965	131.61676	0.96462	-4.96365	0.96462	-4.96365	0.08965	131.61676
4590	0.09109	131.66532	0.96634	-5.10923	0.96634	-5.10923	0.09109	131.66532
4610	0.09229	131.92209	0.96746	-5.13537	0.96746	-5.13537	0.09229	131.92209
4630	0.09305	132.05216	0.96644	-5.10085	0.96644	-5.10085	0.09305	132.05216
4650	0.09342	131.70445	0.96517	-5.14834	0.96517	-5.14834	0.09342	131.70445
4670	0.09286	130.78081	0.96574	-5.23687	0.96574	-5.23687	0.09286	130.78081
4690	0.0924	129.94212	0.96138	-5.21897	0.96138	-5.21897	0.0924	129.94212
4710	0.09346	128.9089	0.95995	-5.33264	0.95995	-5.33264	0.09346	128.9089
4730	0.0958	127.82641	0.96331	-5.51683	0.96331	-5.51683	0.0958	127.82641
4750	0.09756	127.26466	0.96723	-5.41145	0.96723	-5.41145	0.09756	127.26466
4770	0.09899	127.06783	0.96566	-5.66634	0.96566	-5.66634	0.09899	127.06783
4790	0.10024	127.42591	0.96451	-5.70073	0.96451	-5.70073	0.10024	127.42591
4810	0.10102	127.75157	0.96319	-5.68961	0.96319	-5.68961	0.10102	127.75157
4830	0.10092	127.77249	0.96172	-5.69575	0.96172	-5.69575	0.10092	127.77249
4850	0.09946	127.53135	0.96069	-5.66966	0.96069	-5.66966	0.09946	127.53135
4870	0.09865	126.93825	0.95753	-6.05593	0.95753	-6.05593	0.09865	126.93825
4890	0.09867	126.17543	0.96218	-6.03252	0.96218	-6.03252	0.09867	126.17543
4910	0.09942	124.97728	0.96508	-6.09862	0.96508	-6.09862	0.09942	124.97728
4930	0.10068	123.73793	0.96447	-6.19413	0.96447	-6.19413	0.10068	123.73793
4950	0.10206	123.51128	0.96642	-5.69961	0.96642	-5.69961	0.10206	123.51128
4970	0.10253	123.00046	0.96146	-6.03962	0.96146	-6.03962	0.10253	123.00046
4990	0.10388	122.95491	0.96402	-6.26643	0.96402	-6.26643	0.10388	122.95491
5010	0.1042	123.01044	0.96402	-6.31992	0.96402	-6.31992	0.1042	123.01044
5030	0.10302	122.90875	0.96027	-6.22948	0.96027	-6.22948	0.10302	122.90875
5050	0.10126	122.49751	0.96045	-6.11402	0.96045	-6.11402	0.10126	122.49751
5070	0.10064	121.7659	0.96447	-6.43976	0.96447	-6.43976	0.10064	121.7659
5090	0.10086	120.17557	0.96523	-6.56553	0.96523	-6.56553	0.10086	120.17557
5110	0.10128	118.46644	0.96414	-6.57657	0.96414	-6.57657	0.10128	118.46644
5130	0.10199	117.10259	0.96229	-6.59786	0.96229	-6.59786	0.10199	117.10259
5150	0.10381	116.2722	0.96039	-6.79418	0.96039	-6.79418	0.10381	116.2722
5170	0.10601	116.38834	0.96006	-6.76425	0.96006	-6.76425	0.10601	116.38834
5190	0.10742	116.52227	0.96333	-6.77583	0.96333	-6.77583	0.10742	116.52227
5210	0.10731	116.50336	0.9637	-6.77101	0.9637	-6.77101	0.10731	116.50336
5230	0.1058	116.38047	0.96115	-6.75102	0.96115	-6.75102	0.1058	116.38047
5250	0.10383	116.42196	0.96213	-6.7763	0.96213	-6.7763	0.10383	116.42196
5270	0.10275	115.06875	0.96182	-6.90012	0.96182	-6.90012	0.10275	115.06875
5290	0.10294	113.7583	0.96085	-6.91003	0.96085	-6.91003	0.10294	113.7583
5310	0.10367	112.02212	0.96183	-7.12086	0.96183	-7.12086	0.10367	112.02212
5330	0.10502	110.2503	0.9636	-7.42013	0.9636	-7.42013	0.10502	110.2503
5350	0.10788	109.69144	0.96128	-7.26806	0.96128	-7.26806	0.10788	109.69144
5370	0.10965	110.03143	0.96261	-7.3048	0.96261	-7.3048	0.10965	110.03143
5390	0.10996	110.75657	0.96063	-7.29313	0.96063	-7.29313	0.10996	110.75657
5410	0.10927	111.17291	0.96039	-7.37558	0.96039	-7.37558	0.10927	111.17291
