! 500R07S4R7BV4
! Data taken April 11, 2003
! Data taken on a HP 8720C VNA using a series-through test fixture and TRL* de-embedding
#	mhz	s	ma	r	50
0	0.99999	0.00000	0.00000	90.00000	0.00000	90.00000	0.99999	0.00000
50	0.99999	-7.30507	0.14926	80.43753	0.14926	80.43753	0.99999	-7.30507
70	0.97952	-11.90519	0.20035	77.74445	0.20035	77.74445	0.97952	-11.90519
90	0.96721	-14.70667	0.2542	75.2336	0.2542	75.2336	0.96721	-14.70667
110	0.96088	-17.97743	0.30758	72.03084	0.30758	72.03084	0.96088	-17.97743
130	0.94557	-21.76507	0.35749	68.47857	0.35749	68.47857	0.94557	-21.76507
150	0.92466	-23.89682	0.40115	66.13576	0.40115	66.13576	0.92466	-23.89682
170	0.90831	-26.85197	0.4483	62.94711	0.4483	62.94711	0.90831	-26.85197
190	0.88401	-29.56909	0.48742	60.29062	0.48742	60.29062	0.88401	-29.56909
210	0.86006	-31.91301	0.52482	57.86806	0.52482	57.86806	0.86006	-31.91301
230	0.83914	-34.14349	0.56175	55.41909	0.56175	55.41909	0.83914	-34.14349
250	0.81828	-36.9152	0.59444	52.72123	0.59444	52.72123	0.81828	-36.9152
270	0.7853	-38.69183	0.62049	50.76377	0.62049	50.76377	0.7853	-38.69183
290	0.76379	-40.56008	0.64889	48.88723	0.64889	48.88723	0.76379	-40.56008
310	0.74192	-42.70646	0.67391	46.90083	0.67391	46.90083	0.74192	-42.70646
330	0.71743	-44.89793	0.6942	44.95389	0.6942	44.95389	0.71743	-44.89793
350	0.69759	-46.48188	0.71278	43.53582	0.71278	43.53582	0.69759	-46.48188
370	0.67772	-48.3715	0.73437	41.61891	0.73437	41.61891	0.67772	-48.3715
390	0.65694	-49.76145	0.75013	40.0145	0.75013	40.0145	0.65694	-49.76145
410	0.63988	-51.02191	0.76633	38.61208	0.76633	38.61208	0.63988	-51.02191
430	0.62485	-52.37826	0.78278	37.30797	0.78278	37.30797	0.62485	-52.37826
450	0.60383	-53.9111	0.79281	36.00532	0.79281	36.00532	0.60383	-53.9111
470	0.58568	-54.89114	0.80499	34.58909	0.80499	34.58909	0.58568	-54.89114
490	0.58848	-53.61108	0.79955	34.65653	0.79955	34.65653	0.58848	-53.61108
510	0.58481	-52.77198	0.79734	34.16878	0.79734	34.16878	0.58481	-52.77198
530	0.56822	-53.19075	0.80542	32.83238	0.80542	32.83238	0.56822	-53.19075
550	0.5532	-53.8002	0.81711	32.09929	0.81711	32.09929	0.5532	-53.8002
570	0.53834	-54.5495	0.82677	31.1139	0.82677	31.1139	0.53834	-54.5495
590	0.52483	-55.30539	0.83525	30.02868	0.83525	30.02868	0.52483	-55.30539
610	0.5121	-56.35054	0.84472	29.05672	0.84472	29.05672	0.5121	-56.35054
630	0.49917	-57.5169	0.85402	28.24783	0.85402	28.24783	0.49917	-57.5169
650	0.48459	-58.18566	0.85873	27.48845	0.85873	27.48845	0.48459	-58.18566
670	0.47628	-58.36959	0.86554	26.9142	0.86554	26.9142	0.47628	-58.36959
690	0.46721	-58.99783	0.87043	26.22033	0.87043	26.22033	0.46721	-58.99783
710	0.45711	-59.7265	0.87607	25.47434	0.87607	25.47434	0.45711	-59.7265
730	0.44594	-60.329	0.88255	24.73864	0.88255	24.73864	0.44594	-60.329
750	0.43384	-60.69604	0.88741	24.07052	0.88741	24.07052	0.43384	-60.69604
770	0.42322	-61.07126	0.89169	23.22361	0.89169	23.22361	0.42322	-61.07126
790	0.41358	-61.8437	0.89324	22.63488	0.89324	22.63488	0.41358	-61.8437
810	0.40493	-62.656	0.89764	22.04693	0.89764	22.04693	0.40493	-62.656
830	0.39674	-63.18962	0.90441	21.42993	0.90441	21.42993	0.39674	-63.18962
850	0.38794	-63.16484	0.907	20.98159	0.907	20.98159	0.38794	-63.16484
870	0.38051	-63.53705	0.9091	20.58248	0.9091	20.58248	0.38051	-63.53705
890	0.37118	-64.15174	0.9135	19.81975	0.9135	19.81975	0.37118	-64.15174
910	0.36182	-64.47035	0.91655	19.27072	0.91655	19.27072	0.36182	-64.47035
930	0.35343	-64.62688	0.91849	18.98898	0.91849	18.98898	0.35343	-64.62688
950	0.34614	-65.42791	0.92348	18.5044	0.92348	18.5044	0.34614	-65.42791
970	0.33932	-66.50141	0.92633	18.01653	0.92633	18.01653	0.33932	-66.50141
990	0.33284	-67.16758	0.92881	17.54238	0.92881	17.54238	0.33284	-67.16758
1010	0.32768	-67.5861	0.93089	17.15063	0.93089	17.15063	0.32768	-67.5861
1030	0.32376	-67.79113	0.93295	16.75932	0.93295	16.75932	0.32376	-67.79113
1050	0.31997	-67.6912	0.93579	16.13584	0.93579	16.13584	0.31997	-67.6912
1070	0.31504	-67.85623	0.93818	16.11529	0.93818	16.11529	0.31504	-67.85623
1090	0.30767	-67.68091	0.93873	15.70457	0.93873	15.70457	0.30767	-67.68091
1110	0.30005	-67.60813	0.93947	15.17943	0.93947	15.17943	0.30005	-67.60813
1130	0.29258	-67.81775	0.9417	14.75179	0.9417	14.75179	0.29258	-67.81775
1150	0.28388	-68.22661	0.94601	14.56971	0.94601	14.56971	0.28388	-68.22661
1170	0.27812	-69.08392	0.9458	14.09989	0.9458	14.09989	0.27812	-69.08392
1190	0.27316	-69.74185	0.94749	13.82643	0.94749	13.82643	0.27316	-69.74185
1210	0.26915	-70.29483	0.9477	13.59196	0.9477	13.59196	0.26915	-70.29483
1230	0.26617	-70.73699	0.9478	13.30906	0.9478	13.30906	0.26617	-70.73699
1250	0.26411	-70.96209	0.95386	12.96027	0.95386	12.96027	0.26411	-70.96209
1270	0.26022	-71.45896	0.95441	12.57409	0.95441	12.57409	0.26022	-71.45896
1290	0.25619	-71.34615	0.95444	12.41602	0.95444	12.41602	0.25619	-71.34615
1310	0.25184	-71.18684	0.95549	12.27944	0.95549	12.27944	0.25184	-71.18684
1330	0.24728	-71.13472	0.95713	12.02849	0.95713	12.02849	0.24728	-71.13472
1350	0.24293	-70.93398	0.95692	11.59805	0.95692	11.59805	0.24293	-70.93398
1370	0.23813	-71.40243	0.95754	11.25068	0.95754	11.25068	0.23813	-71.40243
1390	0.23327	-71.93097	0.95768	11.04568	0.95768	11.04568	0.23327	-71.93097
1410	0.22924	-72.31235	0.95936	10.84087	0.95936	10.84087	0.22924	-72.31235
1430	0.22619	-72.53423	0.96172	10.57819	0.96172	10.57819	0.22619	-72.53423
1450	0.22351	-72.77922	0.96106	10.28369	0.96106	10.28369	0.22351	-72.77922
1470	0.22009	-72.61401	0.96443	9.98539	0.96443	9.98539	0.22009	-72.61401
1490	0.21657	-72.47011	0.96468	9.68071	0.96468	9.68071	0.21657	-72.47011
1510	0.21252	-72.29181	0.9639	9.52972	0.9639	9.52972	0.21252	-72.29181
1530	0.20794	-72.15577	0.96343	9.44983	0.96343	9.44983	0.20794	-72.15577
1550	0.20324	-72.27106	0.96389	9.11578	0.96389	9.11578	0.20324	-72.27106
1570	0.19866	-72.57638	0.96684	8.99705	0.96684	8.99705	0.19866	-72.57638
1590	0.19422	-72.98764	0.96583	8.75262	0.96583	8.75262	0.19422	-72.98764
1610	0.19093	-73.54015	0.96584	8.47762	0.96584	8.47762	0.19093	-73.54015
1630	0.18862	-74.13707	0.96806	8.23155	0.96806	8.23155	0.18862	-74.13707
1650	0.18592	-74.54939	0.96986	8.03831	0.96986	8.03831	0.18592	-74.54939
1670	0.18365	-74.61482	0.96786	7.92361	0.96786	7.92361	0.18365	-74.61482
1690	0.18102	-74.5684	0.96984	7.7199	0.96984	7.7199	0.18102	-74.5684
1710	0.17789	-74.42837	0.97033	7.4551	0.97033	7.4551	0.17789	-74.42837
1730	0.1744	-74.24386	0.96913	7.21654	0.96913	7.21654	0.1744	-74.24386
1750	0.17102	-74.09498	0.9713	7.15092	0.9713	7.15092	0.17102	-74.09498
1770	0.16671	-74.30455	0.97353	6.89722	0.97353	6.89722	0.16671	-74.30455
1790	0.16328	-74.63494	0.97335	6.72389	0.97335	6.72389	0.16328	-74.63494
1810	0.1604	-75.21852	0.97232	6.5398	0.97232	6.5398	0.1604	-75.21852
1830	0.15798	-75.96336	0.97231	6.31069	0.97231	6.31069	0.15798	-75.96336
1850	0.1561	-76.55328	0.97548	6.05911	0.97548	6.05911	0.1561	-76.55328
1870	0.15477	-76.5441	0.97397	5.98473	0.97397	5.98473	0.15477	-76.5441
1890	0.15318	-76.20041	0.97439	5.84879	0.97439	5.84879	0.15318	-76.20041
1910	0.15089	-75.75274	0.97575	5.74258	0.97575	5.74258	0.15089	-75.75274
1930	0.1479	-75.45583	0.97577	5.65143	0.97577	5.65143	0.1479	-75.45583
1950	0.14466	-75.58851	0.97083	5.45468	0.97083	5.45468	0.14466	-75.58851
1970	0.1412	-75.68865	0.97515	5.24051	0.97515	5.24051	0.1412	-75.68865
1990	0.13877	-76.06464	0.97737	4.9914	0.97737	4.9914	0.13877	-76.06464
2010	0.13639	-76.57966	0.9804	4.83695	0.9804	4.83695	0.13639	-76.57966
2030	0.13402	-77.0601	0.9829	4.7386	0.9829	4.7386	0.13402	-77.0601
2050	0.13256	-77.29557	0.97932	4.48963	0.97932	4.48963	0.13256	-77.29557
2070	0.13138	-76.84546	0.9769	4.4692	0.9769	4.4692	0.13138	-76.84546
2090	0.12918	-76.42884	0.97763	4.30744	0.97763	4.30744	0.12918	-76.42884
2110	0.12663	-76.09753	0.97791	4.11953	0.97791	4.11953	0.12663	-76.09753
2130	0.12396	-75.84469	0.97707	3.97745	0.97707	3.97745	0.12396	-75.84469
2150	0.12093	-75.60473	0.97743	3.90999	0.97743	3.90999	0.12093	-75.60473
2170	0.1177	-75.7472	0.97813	3.74385	0.97813	3.74385	0.1177	-75.7472
2190	0.11487	-75.91043	0.97951	3.63768	0.97951	3.63768	0.11487	-75.91043
2210	0.11235	-76.32753	0.98025	3.47618	0.98025	3.47618	0.11235	-76.32753
2230	0.11024	-76.82776	0.97978	3.26614	0.97978	3.26614	0.11024	-76.82776
2250	0.10878	-76.83656	0.97833	3.13641	0.97833	3.13641	0.10878	-76.83656
2270	0.10677	-77.04747	0.978	3.0945	0.978	3.0945	0.10677	-77.04747
2290	0.105	-76.93506	0.97845	3.06089	0.97845	3.06089	0.105	-76.93506
2310	0.10295	-76.68216	0.97904	2.82881	0.97904	2.82881	0.10295	-76.68216
2330	0.10046	-76.35399	0.97962	2.48681	0.97962	2.48681	0.10046	-76.35399
2350	0.09771	-75.89811	0.98055	2.41876	0.98055	2.41876	0.09771	-75.89811
2370	0.0946	-76.03379	0.98043	2.58757	0.98043	2.58757	0.0946	-76.03379
2390	0.0917	-76.48344	0.98025	2.31522	0.98025	2.31522	0.0917	-76.48344
2410	0.08955	-77.20147	0.98057	2.05898	0.98057	2.05898	0.08955	-77.20147
2430	0.08816	-78.04647	0.98127	2.0104	0.98127	2.0104	0.08816	-78.04647
2450	0.087	-78.78122	0.98161	2.09525	0.98161	2.09525	0.087	-78.78122
2470	0.08626	-78.90511	0.9846	1.85027	0.9846	1.85027	0.08626	-78.90511
2490	0.0852	-78.64653	0.98184	1.66899	0.98184	1.66899	0.0852	-78.64653
2510	0.08371	-78.25874	0.97978	1.48573	0.97978	1.48573	0.08371	-78.25874
2530	0.08185	-77.84857	0.97999	1.32687	0.97999	1.32687	0.08185	-77.84857
2550	0.07982	-77.37645	0.9792	1.3108	0.9792	1.3108	0.07982	-77.37645
2570	0.0771	-76.99333	0.98083	1.1475	0.98083	1.1475	0.0771	-76.99333
2590	0.07453	-77.30967	0.98196	1.05138	0.98196	1.05138	0.07453	-77.30967
2610	0.07212	-77.9609	0.98247	1.00025	0.98247	1.00025	0.07212	-77.9609
2630	0.07011	-78.58583	0.98261	0.90298	0.98261	0.90298	0.07011	-78.58583
2650	0.06904	-78.82666	0.98306	0.59942	0.98306	0.59942	0.06904	-78.82666
2670	0.06782	-79.06884	0.98406	0.64002	0.98406	0.64002	0.06782	-79.06884
2690	0.0665	-78.7556	0.98397	0.51602	0.98397	0.51602	0.0665	-78.7556
2710	0.06481	-78.50456	0.98277	0.35146	0.98277	0.35146	0.06481	-78.50456
2730	0.06268	-78.26079	0.98183	0.24575	0.98183	0.24575	0.06268	-78.26079
2750	0.06025	-77.29688	0.98384	0.2737	0.98384	0.2737	0.06025	-77.29688
2770	0.05826	-77.76137	0.98158	0.12318	0.98158	0.12318	0.05826	-77.76137
2790	0.05616	-78.09216	0.98312	0.01824	0.98312	0.01824	0.05616	-78.09216
2810	0.05395	-78.74131	0.98485	-0.10258	0.98485	-0.10258	0.05395	-78.74131
2830	0.05199	-79.52415	0.98492	-0.22868	0.98492	-0.22868	0.05199	-79.52415
2850	0.051	-79.61926	0.98329	-0.27741	0.98329	-0.27741	0.051	-79.61926
2870	0.04966	-79.90432	0.9822	-0.37316	0.9822	-0.37316	0.04966	-79.90432
2890	0.0481	-80.27705	0.98205	-0.35325	0.98205	-0.35325	0.0481	-80.27705
2910	0.04677	-80.7237	0.98174	-0.41682	0.98174	-0.41682	0.04677	-80.7237
2930	0.04561	-81.2455	0.98181	-0.6157	0.98181	-0.6157	0.04561	-81.2455
2950	0.044	-81.85866	0.98442	-0.85438	0.98442	-0.85438	0.044	-81.85866
2970	0.04279	-80.77379	0.98374	-0.93321	0.98374	-0.93321	0.04279	-80.77379
2990	0.04148	-80.07058	0.98197	-1.0732	0.98197	-1.0732	0.04148	-80.07058
3010	0.03989	-79.95983	0.98185	-1.14731	0.98185	-1.14731	0.03989	-79.95983
3030	0.03783	-80.33134	0.98307	-1.13449	0.98307	-1.13449	0.03783	-80.33134
3050	0.03505	-80.75396	0.9823	-1.11971	0.9823	-1.11971	0.03505	-80.75396
3070	0.03325	-81.85858	0.98248	-1.26191	0.98248	-1.26191	0.03325	-81.85858
3090	0.03166	-83.41804	0.98174	-1.56374	0.98174	-1.56374	0.03166	-83.41804
3110	0.0304	-85.9232	0.98228	-1.71451	0.98228	-1.71451	0.0304	-85.9232
3130	0.02959	-88.41778	0.9836	-1.7065	0.9836	-1.7065	0.02959	-88.41778
3150	0.0294	-88.49828	0.98262	-1.83493	0.98262	-1.83493	0.0294	-88.49828
3170	0.02882	-88.04391	0.97623	-1.66748	0.97623	-1.66748	0.02882	-88.04391
3190	0.02759	-86.27452	0.98281	-1.83096	0.98281	-1.83096	0.02759	-86.27452
3210	0.02559	-85.97643	0.98572	-1.96438	0.98572	-1.96438	0.02559	-85.97643
3230	0.02304	-87.80671	0.98055	-1.92389	0.98055	-1.92389	0.02304	-87.80671
3250	0.0205	-90.29322	0.97505	-1.7828	0.97505	-1.7828	0.0205	-90.29322
3270	0.01908	-94.98845	0.98015	-1.91042	0.98015	-1.91042	0.01908	-94.98845
3290	0.01861	-100.35323	0.98146	-2.291	0.98146	-2.291	0.01861	-100.35323
3310	0.01873	-104.75006	0.98202	-2.50924	0.98202	-2.50924	0.01873	-104.75006
3330	0.01909	-107.30378	0.98261	-2.51453	0.98261	-2.51453	0.01909	-107.30378
3350	0.01947	-107.90161	0.98171	-2.62092	0.98171	-2.62092	0.01947	-107.90161
3370	0.01843	-107.30036	0.98746	-2.5377	0.98746	-2.5377	0.01843	-107.30036
3390	0.01712	-105.6291	0.98626	-2.61538	0.98626	-2.61538	0.01712	-105.6291
3410	0.0154	-106.38872	0.98276	-2.85585	0.98276	-2.85585	0.0154	-106.38872
3430	0.01328	-112.03629	0.98086	-3.05851	0.98086	-3.05851	0.01328	-112.03629
3450	0.01089	-123.985	0.9837	-2.82024	0.9837	-2.82024	0.01089	-123.985
3470	0.01085	-132.85688	0.98387	-3.08173	0.98387	-3.08173	0.01085	-132.85688
3490	0.01184	-142.84228	0.98276	-3.12081	0.98276	-3.12081	0.01184	-142.84228
3510	0.01299	-149.81572	0.98416	-3.12204	0.98416	-3.12204	0.01299	-149.81572
3530	0.01371	-152.52578	0.98673	-3.18147	0.98673	-3.18147	0.01371	-152.52578
3550	0.0137	-152.59505	0.98409	-3.30668	0.98409	-3.30668	0.0137	-152.59505
3570	0.01341	-153.52208	0.98346	-3.35726	0.98346	-3.35726	0.01341	-153.52208
3590	0.01283	-158.57248	0.98372	-3.52336	0.98372	-3.52336	0.01283	-158.57248
3610	0.01286	-167.34563	0.98319	-3.56728	0.98319	-3.56728	0.01286	-167.34563
3630	0.01364	-104.62866	0.98237	-3.50501	0.98237	-3.50501	0.01364	-104.62866
3650	0.01454	179.60363	0.98394	-3.60626	0.98394	-3.60626	0.01454	179.60363
3670	0.01574	176.077	0.98259	-3.71113	0.98259	-3.71113	0.01574	176.077
3690	0.01716	174.78313	0.98397	-3.8696	0.98397	-3.8696	0.01716	174.78313
3710	0.01811	174.84972	0.98288	-3.94674	0.98288	-3.94674	0.01811	174.84972
3730	0.01831	175.01036	0.9798	-3.98278	0.9798	-3.98278	0.01831	175.01036
3750	0.0179	173.60453	0.98084	-4.19307	0.98084	-4.19307	0.0179	173.60453
3770	0.01794	170.27875	0.98054	-4.10853	0.98054	-4.10853	0.01794	170.27875
3790	0.01845	166.19563	0.98206	-4.37289	0.98206	-4.37289	0.01845	166.19563
3810	0.01933	161.76613	0.9823	-4.48341	0.9823	-4.48341	0.01933	161.76613
3830	0.02039	158.10558	0.98141	-4.36247	0.98141	-4.36247	0.02039	158.10558
3850	0.02144	157.03368	0.98285	-4.3575	0.98285	-4.3575	0.02144	157.03368
3870	0.02312	156.59618	0.97849	-4.35545	0.97849	-4.35545	0.02312	156.59618
3890	0.02412	155.76235	0.98096	-4.47931	0.98096	-4.47931	0.02412	155.76235
3910	0.02478	154.9579	0.9821	-4.61885	0.9821	-4.61885	0.02478	154.9579
3930	0.02523	154.06049	0.98062	-4.74161	0.98062	-4.74161	0.02523	154.06049
3950	0.02535	152.39975	0.98216	-4.89286	0.98216	-4.89286	0.02535	152.39975
3970	0.02633	150.33366	0.98393	-4.69154	0.98393	-4.69154	0.02633	150.33366
3990	0.02738	148.03747	0.98365	-4.79132	0.98365	-4.79132	0.02738	148.03747
4010	0.02866	146.38754	0.98289	-4.93636	0.98289	-4.93636	0.02866	146.38754
4030	0.03004	145.56533	0.9818	-5.06321	0.9818	-5.06321	0.03004	145.56533
4050	0.03114	145.05744	0.9791	-5.30082	0.9791	-5.30082	0.03114	145.05744
4070	0.03261	145.56785	0.97744	-5.27533	0.97744	-5.27533	0.03261	145.56785
4090	0.0338	145.69853	0.97895	-5.29837	0.97895	-5.29837	0.0338	145.69853
4110	0.03451	145.41293	0.98064	-5.26494	0.98064	-5.26494	0.03451	145.41293
4130	0.03499	144.97908	0.98109	-5.2432	0.98109	-5.2432	0.03499	144.97908
4150	0.03591	144.96959	0.98045	-5.4744	0.98045	-5.4744	0.03591	144.96959
4170	0.03694	143.56711	0.98821	-5.73378	0.98821	-5.73378	0.03694	143.56711
4190	0.03775	142.82096	0.98603	-5.75218	0.98603	-5.75218	0.03775	142.82096
4210	0.03861	142.56604	0.98258	-5.68456	0.98258	-5.68456	0.03861	142.56604
4230	0.03964	142.56932	0.98146	-5.68504	0.98146	-5.68504	0.03964	142.56932
4250	0.04078	142.52978	0.98125	-5.90687	0.98125	-5.90687	0.04078	142.52978
4270	0.04192	143.19359	0.9816	-5.82173	0.9816	-5.82173	0.04192	143.19359
4290	0.04202	143.76766	0.98136	-5.89805	0.98136	-5.89805	0.04202	143.76766
4310	0.04215	143.66293	0.98031	-5.9538	0.98031	-5.9538	0.04215	143.66293
4330	0.04258	143.02537	0.97903	-6.00006	0.97903	-6.00006	0.04258	143.02537
4350	0.04281	142.73598	0.97888	-6.24097	0.97888	-6.24097	0.04281	142.73598
4370	0.04313	142.27383	0.98076	-6.34806	0.98076	-6.34806	0.04313	142.27383
4390	0.04347	142.06112	0.98003	-6.29749	0.98003	-6.29749	0.04347	142.06112
4410	0.04395	141.77878	0.98395	-6.42915	0.98395	-6.42915	0.04395	141.77878
4430	0.04455	141.1835	0.98933	-6.63498	0.98933	-6.63498	0.04455	141.1835
4450	0.04516	140.10767	0.98255	-6.35906	0.98255	-6.35906	0.04516	140.10767
4470	0.04555	138.62309	0.98199	-6.62653	0.98199	-6.62653	0.04555	138.62309
4490	0.04547	139.34931	0.9794	-6.72106	0.9794	-6.72106	0.04547	139.34931
4510	0.04515	139.70768	0.97688	-6.75934	0.97688	-6.75934	0.04515	139.70768
4530	0.04511	138.95026	0.97637	-6.81652	0.97637	-6.81652	0.04511	138.95026
4550	0.04617	138.15987	0.97962	-6.92621	0.97962	-6.92621	0.04617	138.15987
4570	0.04634	136.82888	0.97724	-6.88984	0.97724	-6.88984	0.04634	136.82888
4590	0.04677	136.22959	0.97904	-6.8487	0.97904	-6.8487	0.04677	136.22959
4610	0.04732	135.75665	0.98148	-6.91472	0.98148	-6.91472	0.04732	135.75665
4630	0.048	135.30254	0.98198	-7.09265	0.98198	-7.09265	0.048	135.30254
4650	0.04888	135.25768	0.97896	-7.28009	0.97896	-7.28009	0.04888	135.25768
4670	0.0486	134.62991	0.97889	-7.41464	0.97889	-7.41464	0.0486	134.62991
4690	0.04884	134.533	0.97881	-7.62605	0.97881	-7.62605	0.04884	134.533
4710	0.04932	134.86131	0.9788	-7.75014	0.9788	-7.75014	0.04932	134.86131
4730	0.04984	135.17298	0.97908	-7.74647	0.97908	-7.74647	0.04984	135.17298
4750	0.05034	134.68991	0.98006	-7.69839	0.98006	-7.69839	0.05034	134.68991
4770	0.04987	134.40612	0.98026	-7.85811	0.98026	-7.85811	0.04987	134.40612
4790	0.04949	134.06569	0.97998	-7.87797	0.97998	-7.87797	0.04949	134.06569
4810	0.0493	133.72358	0.98028	-7.87985	0.98028	-7.87985	0.0493	133.72358
4830	0.04935	133.25109	0.98085	-7.95019	0.98085	-7.95019	0.04935	133.25109
4850	0.04968	132.33584	0.98003	-8.13994	0.98003	-8.13994	0.04968	132.33584
4870	0.05011	131.37513	0.98005	-8.34886	0.98005	-8.34886	0.05011	131.37513
4890	0.05016	131.4605	0.97783	-8.31615	0.97783	-8.31615	0.05016	131.4605
4910	0.05012	131.72535	0.97593	-8.3254	0.97593	-8.3254	0.05012	131.72535
4930	0.05011	131.83617	0.97586	-8.43926	0.97586	-8.43926	0.05011	131.83617
4950	0.05008	131.99257	0.97809	-8.49947	0.97809	-8.49947	0.05008	131.99257
4970	0.04959	131.75892	0.97838	-8.40879	0.97838	-8.40879	0.04959	131.75892
4990	0.04911	131.13528	0.9792	-8.54963	0.9792	-8.54963	0.04911	131.13528
5010	0.0488	130.35317	0.97913	-8.63337	0.97913	-8.63337	0.0488	130.35317
5030	0.04865	129.39274	0.97809	-8.6876	0.97809	-8.6876	0.04865	129.39274
5050	0.04853	127.98282	0.97736	-9.05615	0.97736	-9.05615	0.04853	127.98282
5070	0.04878	127.88478	0.98048	-8.9665	0.98048	-8.9665	0.04878	127.88478
5090	0.04883	128.10949	0.97869	-8.84934	0.97869	-8.84934	0.04883	128.10949
5110	0.04877	127.95501	0.97854	-8.80741	0.97854	-8.80741	0.04877	127.95501
5130	0.04849	127.54598	0.98055	-8.95337	0.98055	-8.95337	0.04849	127.54598
5150	0.04765	127.83374	0.97921	-9.40978	0.97921	-9.40978	0.04765	127.83374
5170	0.04676	128.02953	0.97773	-9.2617	0.97773	-9.2617	0.04676	128.02953
5190	0.04588	127.11727	0.97625	-9.29955	0.97625	-9.29955	0.04588	127.11727
5210	0.04508	125.42561	0.97824	-9.33631	0.97824	-9.33631	0.04508	125.42561
5230	0.04453	123.60693	0.98075	-9.36668	0.98075	-9.36668	0.04453	123.60693
5250	0.04449	122.63737	0.97446	-9.56704	0.97446	-9.56704	0.04449	122.63737
5270	0.04457	121.19121	0.9764	-9.49998	0.9764	-9.49998	0.04457	121.19121
5290	0.04463	120.50929	0.97494	-9.54596	0.97494	-9.54596	0.04463	120.50929
5310	0.04461	120.13116	0.9772	-9.56441	0.9772	-9.56441	0.04461	120.13116
5330	0.04431	119.56554	0.98106	-9.59792	0.98106	-9.59792	0.04431	119.56554
5350	0.04349	118.29037	0.97523	-9.87234	0.97523	-9.87234	0.04349	118.29037
5370	0.04257	115.99857	0.97696	-9.76455	0.97696	-9.76455	0.04257	115.99857
5390	0.04126	115.76793	0.97658	-10.12467	0.97658	-10.12467	0.04126	115.76793
5410	0.04082	114.67394	0.97699	-10.11398	0.97699	-10.11398	0.04082	114.67394
