! Filename:  P:\Prog\Test\Noise\ATS_data\Testdata_Net\Split files Spar\BFU730_2W_B1_Bias7_2.5V_1mA_25mA_D.s2p
! Date/Time: Fri 29/Apr/2011 15:08:39
! BFU730_2W_B1_Bias7_2.5V_1mA_25mA_R.s2p
! MDIF S-parameter v. bias file
! BFU730_2W_B1_2.5V_1mA_25mA
! Date/time Thu Mar 17 13:38:09 2011
! VAR V_out= 2.5000
! VAR I_out= 15.0750
! VAR V_in= 0.8056
! VAR I_in= 0.0504
! Device data file deembeded for feedlines and parallel
! Original file: \Split files Spar\BFU730_2W_B1_Bias7_2.5V_1mA_25mA_R.s2p
! Feed-files: PR003V01_101208_Feed1.s2p, PR003V01_101208_Feed2.s2p
! Parallel-file: PR003V01_101208_Par.s2p
!3-port S-parameters
# GHz S MA R 50
!  Freq-GHz   S11-mag  S11-arg   S12-mag  S12-arg   S13-mag  S13-arg   S21-mag  S21-arg   S22-mag  S22-arg   S23-mag  S23-arg   S31-mag  S31-arg   S32-mag  S32-arg   S33-mag  S33-arg
 0.060   0.992  -0.373   0.002   81.850   0.009   29.122
       1.892   179.535   0.999  -0.243   1.893  -0.337
       1.900  -0.269   0.002   78.834   0.901   179.559
 0.070   0.992  -0.428   0.002   83.525   0.009   33.868
       1.893   179.477   0.999  -0.284   1.893  -0.373
       1.900  -0.297   0.003   81.607   0.901   179.531
 0.080   0.992  -0.493   0.003   84.613   0.009   37.800
       1.893   179.398   0.999  -0.330   1.894  -0.427
       1.901  -0.342   0.003   83.546   0.901   179.464
 0.090   0.992  -0.558   0.003   85.174   0.010   41.310
       1.893   179.310   0.999  -0.380   1.894  -0.489
       1.901  -0.396   0.003   84.819   0.901   179.382
 0.100   0.992  -0.616   0.004   86.138   0.010   43.962
       1.893   179.240   0.999  -0.425   1.894  -0.536
       1.901  -0.436   0.004   85.389   0.901   179.326
 0.120   0.993  -0.744   0.004   86.847   0.011   49.685
       1.894   179.085   1.000  -0.517   1.894  -0.642
       1.901  -0.523   0.005   86.917   0.901   179.200
 0.140   0.993  -0.870   0.005   87.788   0.012   54.001
       1.894   178.930   1.000  -0.612   1.894  -0.746
       1.901  -0.611   0.006   87.947   0.901   179.071
 0.160   0.993  -0.996   0.006   87.949   0.014   57.632
       1.894   178.772   1.000  -0.702   1.894  -0.857
       1.901  -0.703   0.007   88.459   0.901   178.932
 0.180   0.993  -1.121   0.006   88.530   0.015   60.743
       1.894   178.623   1.000  -0.793   1.894  -0.958
       1.901  -0.786   0.007   88.836   0.901   178.813
 0.200   0.993  -1.253   0.007   88.945   0.016   63.414
       1.894   178.461   1.000  -0.888   1.894  -1.070
       1.901  -0.879   0.008   89.345   0.901   178.673
 0.220   0.993  -1.378   0.008   89.226   0.018   65.536
       1.895   178.309   1.000  -0.980   1.894  -1.174
       1.901  -0.965   0.009   89.566   0.902   178.546
 0.240   0.993  -1.505   0.009   89.494   0.019   67.358
       1.895   178.151   1.000  -1.072   1.895  -1.283
       1.902  -1.056   0.010   89.962   0.902   178.409
 0.260   0.993  -1.633   0.009   89.708   0.020   69.102
       1.895   177.993   1.000  -1.164   1.895  -1.393
       1.902  -1.148   0.011   90.130   0.902   178.273
 0.280   0.993  -1.762   0.010   89.958   0.022   70.550
       1.896   177.837   1.000  -1.257   1.895  -1.500
       1.902  -1.236   0.012   90.435   0.902   178.143
 0.300   0.993  -1.893   0.011   90.135   0.023   71.874
       1.896   177.677   1.000  -1.353   1.895  -1.610
       1.902  -1.327   0.013   90.631   0.902   178.008
 0.320   0.993  -2.019   0.012   90.121   0.024   72.835
       1.896   177.523   1.000  -1.446   1.895  -1.714
       1.902  -1.414   0.014   90.641   0.902   177.880
 0.340   0.994  -2.147   0.012   90.258   0.026   73.859
       1.896   177.365   1.001  -1.537   1.895  -1.824
       1.902  -1.504   0.014   90.758   0.902   177.744
 0.360   0.994  -2.276   0.013   90.411   0.027   74.690
       1.897   177.214   1.001  -1.632   1.895  -1.926
       1.902  -1.589   0.015   90.668   0.902   177.623
 0.380   0.994  -2.407   0.014   90.391   0.029   75.462
       1.897   177.058   1.001  -1.723   1.896  -2.033
       1.903  -1.675   0.016   90.856   0.902   177.493
 0.400   0.994  -2.532   0.015   90.269   0.030   76.072
       1.898   176.906   1.001  -1.813   1.896  -2.139
       1.903  -1.762   0.017   90.902   0.903   177.363
 0.420   0.994  -2.661   0.015   90.357   0.032   76.714
       1.898   176.751   1.001  -1.905   1.896  -2.246
       1.903  -1.850   0.018   91.186   0.903   177.230
 0.440   0.994  -2.793   0.016   90.461   0.033   77.327
       1.898   176.592   1.001  -2.003   1.896  -2.354
       1.903  -1.940   0.019   91.187   0.903   177.101
 0.460   0.994  -2.919   0.017   90.497   0.034   77.835
       1.899   176.441   1.001  -2.092   1.897  -2.458
       1.904  -2.024   0.020   91.318   0.903   176.975
 0.480   0.994  -3.052   0.018   90.520   0.036   78.319
       1.899   176.276   1.001  -2.192   1.896  -2.570
       1.904  -2.119   0.021   91.455   0.903   176.837
 0.500   0.994  -3.178   0.018   90.565   0.037   78.761
       1.900   176.120   1.002  -2.285   1.897  -2.678
       1.904  -2.210   0.021   91.400   0.903   176.703
 0.550   0.995  -3.499   0.020   90.525   0.041   79.802
       1.901   175.734   1.002  -2.512   1.898  -2.945
       1.905  -2.428   0.024   91.340   0.904   176.375
 0.600   0.995  -3.822   0.022   90.559   0.045   80.546
       1.902   175.348   1.002  -2.742   1.898  -3.212
       1.905  -2.646   0.026   91.630   0.905   176.051
 0.650   0.995  -4.148   0.024   90.523   0.048   81.230
       1.904   174.951   1.002  -2.983   1.899  -3.483
       1.906  -2.873   0.028   91.743   0.905   175.719
 0.700   0.996  -4.477   0.026   90.467   0.052   81.756
       1.905   174.557   1.003  -3.222   1.899  -3.753
       1.906  -3.096   0.030   91.738   0.905   175.392
 0.750   0.996  -4.800   0.028   90.483   0.056   82.237
       1.906   174.177   1.003  -3.449   1.900  -4.016
       1.907  -3.309   0.032   91.874   0.906   175.075
 0.800   0.997  -5.126   0.030   90.375   0.060   82.622
       1.908   173.793   1.004  -3.679   1.901  -4.282
       1.908  -3.524   0.034   92.139   0.907   174.755
 0.850   0.997  -5.455   0.032   90.355   0.063   82.985
       1.910   173.395   1.004  -3.920   1.902  -4.556
       1.909  -3.752   0.037   92.273   0.908   174.422
 0.900   0.997  -5.782   0.034   90.330   0.067   83.285
       1.912   173.003   1.004  -4.155   1.902  -4.828
       1.910  -3.975   0.039   92.263   0.908   174.090
 0.950   0.998  -6.105   0.036   90.259   0.071   83.556
       1.913   172.624   1.005  -4.382   1.903  -5.091
       1.910  -4.188   0.041   92.379   0.909   173.774
 1.000   0.998  -6.430   0.038   90.222   0.074   83.783
       1.915   172.235   1.005  -4.619   1.904  -5.359
       1.911  -4.411   0.043   92.570   0.910   173.447
 1.050   0.999  -6.759   0.040   90.109   0.078   83.941
       1.917   171.844   1.006  -4.856   1.905  -5.630
       1.913  -4.633   0.045   92.679   0.911   173.121
 1.100   0.999  -7.084   0.042   90.088   0.082   84.143
       1.920   171.458   1.006  -5.090   1.906  -5.897
       1.914  -4.853   0.048   92.780   0.912   172.797
 1.150   1.000  -7.412   0.044   90.064   0.086   84.314
       1.922   171.072   1.007  -5.320   1.907  -6.168
       1.915  -5.073   0.050   92.982   0.913   172.470
 1.200   1.000  -7.735   0.046   89.951   0.089   84.423
       1.924   170.688   1.008  -5.555   1.908  -6.435
       1.916  -5.293   0.052   93.113   0.914   172.148
 1.250   1.001  -8.073   0.048   89.935   0.093   84.553
       1.927   170.287   1.008  -5.801   1.909  -6.713
       1.917  -5.523   0.054   93.223   0.914   171.813
 1.300   1.002  -8.401   0.050   89.864   0.097   84.667
       1.929   169.901   1.009  -6.036   1.911  -6.983
       1.918  -5.744   0.057   93.311   0.916   171.489
 1.350   1.002  -8.727   0.052   89.835   0.101   84.786
       1.932   169.517   1.009  -6.270   1.912  -7.251
       1.920  -5.965   0.059   93.460   0.917   171.166
 1.400   1.003  -9.058   0.054   89.795   0.105   84.866
       1.935   169.127   1.010  -6.508   1.913  -7.525
       1.921  -6.190   0.061   93.610   0.918   170.838
 1.450   1.004  -9.389   0.055   89.731   0.109   84.929
       1.938   168.738   1.011  -6.747   1.915  -7.797
       1.923  -6.414   0.063   93.704   0.919   170.511
 1.500   1.004  -9.719   0.057   89.664   0.112   85.014
       1.941   168.349   1.012  -6.984   1.916  -8.070
       1.924  -6.639   0.066   93.827   0.920   170.182
 1.550   1.005  -10.050   0.059   89.638   0.116   85.090
       1.944   167.961   1.012  -7.221   1.917  -8.345
       1.925  -6.864   0.068   93.964   0.921   169.852
 1.600   1.006  -10.382   0.061   89.582   0.120   85.147
       1.947   167.570   1.013  -7.462   1.919  -8.620
       1.927  -7.091   0.070   94.076   0.923   169.522
 1.650   1.007  -10.725   0.064   89.497   0.124   85.170
       1.950   167.170   1.014  -7.709   1.920  -8.902
       1.929  -7.323   0.073   94.182   0.924   169.186
 1.700   1.007  -11.049   0.065   89.477   0.128   85.256
       1.954   166.788   1.015  -7.944   1.922  -9.173
       1.930  -7.548   0.075   94.338   0.925   168.860
 1.750   1.008  -11.382   0.068   89.471   0.132   85.307
       1.958   166.397   1.016  -8.189   1.924  -9.449
       1.932  -7.778   0.077   94.460   0.927   168.528
 1.800   1.009  -11.727   0.070   89.425   0.136   85.324
       1.962   165.996   1.017  -8.437   1.925  -9.734
       1.934  -8.011   0.080   94.588   0.928   168.192
 1.850   1.010  -12.069   0.072   89.367   0.140   85.350
       1.965   165.599   1.018  -8.686   1.927  -10.015
       1.936  -8.245   0.082   94.680   0.930   167.857
 1.900   1.011  -12.402   0.074   89.386   0.144   85.423
       1.970   165.209   1.019  -8.926   1.929  -10.295
       1.938  -8.476   0.085   94.877   0.931   167.522
 1.950   1.012  -12.743   0.076   89.395   0.148   85.451
       1.974   164.807   1.020  -9.178   1.931  -10.582
       1.940  -8.717   0.087   95.019   0.933   167.178
 2.000   1.013  -13.104   0.078   89.363   0.152   85.437
       1.978   164.387   1.021  -9.452   1.933  -10.877
       1.942  -8.965   0.090   95.040   0.934   166.830
 2.050   1.014  -13.462   0.080   89.249   0.156   85.387
       1.981   163.975   1.022  -9.718   1.934  -11.166
       1.943  -9.206   0.093   94.956   0.936   166.488
 2.100   1.015  -13.807   0.082   89.188   0.160   85.396
       1.986   163.581   1.023  -9.964   1.936  -11.449
       1.945  -9.438   0.095   95.058   0.937   166.155
 2.150   1.016  -14.163   0.085   89.128   0.165   85.370
       1.990   163.175   1.024  -10.229   1.938  -11.736
       1.947  -9.677   0.098   95.066   0.939   165.818
 2.200   1.017  -14.503   0.087   88.962   0.169   85.315
       1.993   162.789   1.024  -10.469   1.939  -12.015
       1.949  -9.903   0.100   95.100   0.941   165.491
 2.250   1.018  -14.855   0.089   88.972   0.173   85.309
       1.999   162.383   1.026  -10.727   1.942  -12.309
       1.951  -10.149   0.103   95.316   0.943   165.144
 2.300   1.020  -15.220   0.091   88.968   0.177   85.279
       2.003   161.959   1.027  -11.008   1.943  -12.610
       1.953  -10.405   0.105   95.354   0.944   164.788
 2.350   1.021  -15.601   0.094   88.858   0.182   85.200
       2.007   161.528   1.028  -11.299   1.945  -12.910
       1.955  -10.658   0.108   95.227   0.946   164.442
 2.400   1.021  -15.968   0.096   88.673   0.186   85.117
       2.011   161.124   1.029  -11.564   1.947  -13.198
       1.956  -10.892   0.111   95.127   0.947   164.112
 2.450   1.022  -16.340   0.098   88.458   0.190   84.957
       2.015   160.711   1.029  -11.836   1.948  -13.490
       1.958  -11.133   0.113   95.046   0.949   163.773
 2.500   1.022  -16.682   0.100   88.188   0.194   84.830
       2.019   160.330   1.030  -12.084   1.950  -13.763
       1.960  -11.359   0.116   95.063   0.951   163.456
 2.600   1.024  -17.369   0.105   87.924   0.202   84.736
       2.028   159.552   1.032  -12.585   1.954  -14.331
       1.964  -11.829   0.121   95.080   0.954   162.793
 2.700   1.027  -18.077   0.109   87.696   0.211   84.634
       2.038   158.760   1.034  -13.095   1.959  -14.914
       1.969  -12.310   0.126   95.176   0.959   162.118
 2.800   1.029  -18.777   0.113   87.531   0.219   84.553
       2.049   157.980   1.036  -13.598   1.963  -15.494
       1.974  -12.787   0.131   95.277   0.963   161.450
 2.900   1.031  -19.495   0.118   87.313   0.228   84.373
       2.059   157.186   1.038  -14.106   1.968  -16.086
       1.978  -13.270   0.136   95.304   0.967   160.770
 3.000   1.034  -20.181   0.122   87.142   0.236   84.242
       2.070   156.435   1.041  -14.603   1.972  -16.646
       1.984  -13.732   0.141   95.442   0.971   160.130
 3.100   1.037  -20.877   0.126   87.124   0.245   84.242
       2.083   155.678   1.044  -15.099   1.979  -17.226
       1.990  -14.207   0.147   95.745   0.977   159.472
 3.200   1.040  -21.606   0.131   86.954   0.254   84.107
       2.096   154.884   1.047  -15.637   1.984  -17.821
       1.996  -14.703   0.152   95.844   0.982   158.797
 3.300   1.043  -22.345   0.136   86.837   0.263   83.983
       2.109   154.095   1.051  -16.179   1.990  -18.416
       2.002  -15.195   0.158   95.965   0.987   158.134
 3.400   1.047  -23.067   0.140   86.727   0.272   83.896
       2.124   153.320   1.054  -16.716   1.997  -19.008
       2.009  -15.691   0.164   96.159   0.993   157.468
 3.500   1.050  -23.800   0.145   86.589   0.281   83.815
       2.139   152.544   1.058  -17.255   2.004  -19.604
       2.017  -16.187   0.170   96.302   0.999   156.806
 3.600   1.054  -24.573   0.150   86.363   0.290   83.642
       2.153   151.733   1.061  -17.820   2.011  -20.227
       2.024  -16.702   0.176   96.368   1.005   156.118
 3.700   1.058  -25.318   0.155   86.254   0.300   83.595
       2.170   150.943   1.065  -18.369   2.019  -20.848
       2.031  -17.220   0.182   96.482   1.011   155.428
 3.800   1.062  -26.094   0.160   86.035   0.309   83.417
       2.186   150.147   1.068  -18.940   2.026  -21.466
       2.040  -17.734   0.188   96.604   1.018   154.755
 3.900   1.066  -26.852   0.165   85.906   0.319   83.309
       2.203   149.349   1.073  -19.506   2.034  -22.097
       2.047  -18.265   0.195   96.710   1.025   154.056
 4.000   1.070  -27.677   0.171   85.663   0.329   83.095
       2.221   148.513   1.076  -20.111   2.042  -22.755
       2.056  -18.810   0.201   96.774   1.032   153.350
 4.100   1.074  -28.457   0.176   85.434   0.339   82.946
       2.238   147.707   1.080  -20.692   2.050  -23.395
       2.064  -19.346   0.208   96.758   1.039   152.651
 4.200   1.079  -29.261   0.181   85.228   0.349   82.773
       2.257   146.900   1.085  -21.282   2.059  -24.046
       2.073  -19.888   0.215   96.865   1.047   151.955
 4.300   1.084  -30.049   0.187   85.084   0.360   82.634
       2.276   146.098   1.089  -21.877   2.068  -24.695
       2.083  -20.435   0.222   96.964   1.055   151.254
 4.400   1.088  -30.883   0.192   84.873   0.370   82.439
       2.297   145.271   1.094  -22.485   2.077  -25.374
       2.093  -20.999   0.229   97.083   1.063   150.534
 4.500   1.094  -31.696   0.198   84.678   0.381   82.273
       2.318   144.457   1.099  -23.092   2.087  -26.044
       2.102  -21.562   0.236   97.123   1.071   149.819
 4.600   1.098  -32.549   0.204   84.393   0.392   82.029
       2.338   143.618   1.103  -23.731   2.096  -26.728
       2.112  -22.136   0.243   97.090   1.080   149.102
 4.700   1.104  -33.392   0.210   84.196   0.403   81.877
       2.360   142.797   1.109  -24.371   2.107  -27.407
       2.123  -22.710   0.251   97.116   1.089   148.395
 4.800   1.110  -34.292   0.216   83.964   0.415   81.607
       2.384   141.928   1.115  -25.042   2.117  -28.134
       2.135  -23.320   0.259   97.192   1.098   147.641
 4.900   1.116  -35.144   0.222   83.734   0.426   81.418
       2.408   141.111   1.120  -25.680   2.129  -28.828
       2.146  -23.904   0.267   97.224   1.108   146.925
 5.000   1.121  -36.018   0.228   83.435   0.438   81.170
       2.431   140.265   1.125  -26.336   2.140  -29.546
       2.158  -24.510   0.275   97.174   1.118   146.180
 5.200   1.134  -37.856   0.241   82.943   0.463   80.700
       2.484   138.515   1.137  -27.737   2.164  -31.047
       2.183  -25.785   0.293   97.137   1.139   144.643
 5.400   1.147  -39.647   0.254   82.379   0.488   80.170
       2.537   136.851   1.149  -29.066   2.189  -32.507
       2.208  -27.010   0.309   97.104   1.161   143.171
 5.600   1.162  -41.594   0.268   81.784   0.515   79.607
       2.596   135.053   1.163  -30.565   2.217  -34.090
       2.237  -28.363   0.329   96.958   1.185   141.590
 5.800   1.177  -43.524   0.282   81.154   0.542   78.988
       2.656   133.287   1.177  -32.024   2.245  -35.682
       2.266  -29.714   0.348   96.771   1.210   140.007
 6.000   1.194  -45.512   0.297   80.581   0.571   78.430
       2.724   131.505   1.193  -33.567   2.277  -37.311
       2.298  -31.111   0.369   96.598   1.237   138.419
 6.200   1.212  -47.573   0.313   79.906   0.601   77.761
       2.792   129.686   1.208  -35.137   2.310  -38.998
       2.331  -32.541   0.390   96.323   1.265   136.794
 6.400   1.231  -49.724   0.329   79.157   0.632   77.024
       2.867   127.810   1.225  -36.809   2.345  -40.751
       2.367  -34.047   0.413   95.988   1.296   135.121
 6.600   1.252  -51.917   0.346   78.389   0.665   76.248
       2.946   125.947   1.244  -38.475   2.383  -42.544
       2.407  -35.571   0.437   95.717   1.329   133.441
 6.800   1.275  -54.104   0.364   77.661   0.699   75.523
       3.032   124.093   1.265  -40.209   2.424  -44.341
       2.448  -37.132   0.463   95.396   1.364   131.764
 7.000   1.299  -56.509   0.383   76.749   0.736   74.602
       3.122   122.057   1.285  -42.096   2.467  -46.328
       2.491  -38.848   0.490   94.832   1.401   129.918
 7.200   1.327  -58.769   0.403   76.059   0.774   73.892
       3.222   120.209   1.309  -43.880   2.517  -48.210
       2.541  -40.473   0.518   94.536   1.442   128.212
 7.400   1.360  -61.327   0.426   75.189   0.817   73.032
       3.339   118.151   1.338  -45.939   2.575  -50.318
       2.600  -42.316   0.551   94.123   1.490   126.337
 7.600   1.396  -63.810   0.449   74.414   0.862   72.207
       3.458   116.176   1.368  -47.905   2.636  -52.396
       2.659  -44.107   0.584   93.699   1.539   124.508
 7.800   1.431  -67.044   0.477   72.811   0.913   70.740
       3.592   113.538   1.398  -50.642   2.700  -55.020
       2.725  -46.479   0.626   92.539   1.595   122.158
 8.000   1.454  -69.346   0.495   71.761   0.951   69.526
       3.681   111.605   1.416  -52.374   2.741  -57.059
       2.766  -48.219   0.652   91.706   1.633   120.275
 8.200   1.512  -72.640   0.530   70.597   1.015   68.448
       3.871   109.125   1.466  -55.185   2.840  -59.745
       2.864  -50.623   0.704   91.054   1.710   118.039
 8.400   1.552  -75.735   0.557   69.224   1.069   66.871
       4.013   106.658   1.500  -57.639   2.908  -62.400
       2.933  -52.932   0.746   90.043   1.769   115.700
 8.600   1.594  -79.629   0.591   66.940   1.132   64.831
       4.175   103.429   1.533  -61.116   2.984  -65.673
       3.007  -55.980   0.799   87.998   1.837   112.755
 8.800   1.648  -83.048   0.624   65.370   1.197   63.174
       4.356   100.677   1.576  -64.035   3.074  -68.690
       3.095  -58.705   0.851   86.643   1.912   110.110
 9.000   1.699  -86.263   0.657   63.841   1.258   61.536
       4.518   98.080   1.615  -66.808   3.151  -71.516
       3.168  -61.241   0.898   85.235   1.976   107.644
 9.200   1.757  -90.294   0.695   61.603   1.331   59.368
       4.718   94.845   1.660  -70.383   3.248  -74.991
       3.263  -64.446   0.958   83.283   2.059   104.618
 9.400   1.828  -94.523   0.738   59.425   1.414   57.073
       4.945   91.499   1.714  -74.054   3.360  -78.702
       3.371  -67.803   1.024   81.389   2.151   101.445
 9.600   1.886  -98.757   0.777   56.835   1.489   54.619
       5.137   88.137   1.753  -77.820   3.452  -82.289
