! Filename:  P:\Prog\Test\Noise\ATS_data\Testdata_Net\Split files Spar\BFU730_2W_B1_Bias1_1.5V_1mA_30mA_D.s2p
! Date/Time: Fri 29/Apr/2011 14:16:34
! BFU730_2W_B1_Bias1_1.5V_1mA_30mA_R.s2p
! MDIF S-parameter v. bias file
! BFU730_2W_B1_1.5V_1mA_30mA
! Date/time Thu Mar 17 13:45:32 2011
! bias mode 1
! bias variable = I_out
! VAR bias_var= 1
! VAR V_out= 1.5001
! VAR I_out= 1.0350
! VAR V_in= 0.7495
! VAR I_in= 0.0029
! Device data file deembeded for feedlines and parallel
! Original file: \Split files Spar\BFU730_2W_B1_Bias1_1.5V_1mA_30mA_R.s2p
! Feed-files: PR003V01_101208_Feed1.s2p, PR003V01_101208_Feed2.s2p
! Parallel-file: PR003V01_101208_Par.s2p
!3-port S-parameters
# GHz S MA R 50
!  Freq-GHz   S11-mag  S11-arg   S12-mag  S12-arg   S13-mag  S13-arg   S21-mag  S21-arg   S22-mag  S22-arg   S23-mag  S23-arg   S31-mag  S31-arg   S32-mag  S32-arg   S33-mag  S33-arg
0.04000   0.79031   -19.83348   0.09283   105.44222   0.33323   32.42291   1.11361   170.94621   0.94784   -13.30985   1.17814   2.09018   1.35948   3.91855   0.16445   51.51635   0.50938   -154.20802
0.05000   0.77613   -31.94561   0.16079   102.71712   0.45432   33.96364   1.15892   150.36508   1.01487   -19.82429   1.07720   -12.26725   1.35848   -6.86551   0.20396   66.70100   0.43014   -176.67609
0.06000   0.93825   -33.80894   0.18289   116.40800   0.46841   49.89388   1.35399   141.63314   1.08927   -21.92328   1.13707   -22.42261   1.32094   -13.94545   0.25301   73.73841   0.36083   167.92922
0.07000   0.80057   -39.09724   0.22754   97.05636   0.49319   34.45847   1.21863   140.08854   1.03294   -26.93867   1.06136   -17.20358   1.34233   -11.90937   0.26477   66.14037   0.42197   175.26040
0.08000   0.80575   -46.78582   0.28468   92.17839   0.54994   33.40331   1.31360   130.93693   1.07299   -32.29257   1.04170   -23.72335   1.37024   -17.19620   0.30685   70.22965   0.42886   164.25984
0.09000   0.87548   -58.37616   0.37619   89.04209   0.64983   34.63651   1.55628   118.49366   1.17436   -39.79901   1.04185   -36.25065   1.42630   -25.86777   0.38654   76.31441   0.44876   146.64711
0.10000   0.84056   -64.82760   0.42298   81.28437   0.67225   30.64315   1.58987   113.48577   1.17568   -45.03554   1.01820   -37.96080   1.45422   -28.65858   0.42689   75.74891   0.47514   143.34149
0.12000   0.82101   -84.78503   0.56010   66.28647   0.76359   23.52578   1.88070   100.23734   1.26887   -58.16024   1.01946   -49.29430   1.62913   -39.35867   0.57486   79.43921   0.59351   127.94872
0.14000   0.97253   -110.82161   0.76822   53.03162   0.93172   18.47362   2.57383   85.69635   1.54066   -74.30679   1.15145   -70.19533   2.01888   -55.18803   0.87787   82.05851   0.83433   109.16023
0.16000   1.97273   -152.13568   1.40373   32.64876   1.57073   6.01950   5.36098   61.59788   2.81269   -101.89437   2.19004   -116.29774   3.79863   -87.07232   2.03428   78.72356   1.84440   77.21367
0.18000   5.99389   126.49647   3.26911   -36.71697   3.46170   -55.82548   16.97937   -1.65800   8.35218   -170.68793   7.94676   166.59179   13.14018   -160.77320   7.40101   26.53154   6.86208   8.55856
0.20000   1.43810   13.39434   0.25841   -133.80464   0.26449   -146.32700   3.41081   -102.54353   1.60540   82.24870   2.31220   48.75985   3.01569   83.49236   1.70235   -55.57667   1.62081   -100.81510
0.22000   0.75116   -7.88115   0.13938   21.69247   0.13651   22.15515   1.69604   -114.40155   0.82633   66.47166   1.58061   29.85774   1.90513   59.85891   0.97314   -56.25191   0.97475   -120.67186
0.24000   0.49013   -18.36911   0.27785   12.12834   0.28019   20.05468   0.99695   -125.60444   0.54439   54.89880   1.31894   16.07435   1.47482   40.86977   0.65289   -50.49635   0.70306   -138.99681
0.26000   0.33952   -20.71925   0.34398   2.16741   0.35524   17.54904   0.71311   -133.06631   0.45381   50.89365   1.21250   8.00355   1.33358   28.73303   0.51986   -44.62096   0.60588   -152.90751
0.28000   0.24295   -9.22106   0.37181   -9.35751   0.40569   14.18047   0.57176   -141.20264   0.43808   48.45879   1.15549   1.50497   1.26952   18.23131   0.43464   -37.97481   0.56355   -166.69092
0.30000   0.23465   8.25437   0.36730   -19.77202   0.43174   12.10810   0.52059   -152.56116   0.45971   44.53040   1.13731   -4.15973   1.24697   9.51819   0.38204   -31.24040   0.55650   -179.16986
0.32000   0.27733   17.57821   0.34200   -28.73341   0.44314   10.48663   0.52657   -166.60291   0.48836   38.97760   1.14763   -9.28572   1.24845   1.75570   0.35084   -24.01367   0.57786   169.57886
0.34000   0.34341   17.64750   0.29724   -37.47876   0.44355   9.96487   0.60371   176.11815   0.52455   31.14992   1.19492   -15.14602   1.28329   -6.48681   0.32792   -16.01564   0.63550   158.25352
0.36000   0.43343   15.22297   0.23716   -47.25729   0.42512   8.16353   0.76235   163.85004   0.57554   22.83915   1.27831   -19.91591   1.35385   -13.92739   0.31252   -9.06089   0.72691   148.93636
0.38000   0.52785   8.06142   0.16509   -54.45390   0.38613   8.98503   1.04514   151.11183   0.61497   12.56043   1.46174   -25.90683   1.50801   -22.57577   0.30377   0.11138   0.90511   140.28441
0.40000   0.66199   0.70382   0.08725   -56.21086   0.29661   12.53547   1.55538   142.74716   0.64942   0.52758   1.84974   -30.81277   1.84009   -31.07038   0.30933   12.42029   1.24544   134.83938
0.42000   0.96137   -2.23527   0.01301   56.35877   0.04178   39.66929   2.83053   144.53043   0.74805   -16.51381   2.95677   -28.91963   2.84133   -34.39311   0.34159   36.21261   2.14336   139.10609
0.44000   1.38531   27.01246   0.05088   146.23497   0.68489   -106.26985   4.91962   -174.63363   1.07549   -12.06990   4.89451   8.04502   4.66694   -2.07628   0.19683   92.74114   3.65456   -179.56844
0.46000   0.75268   54.31625   0.06893   39.65034   0.82911   -52.22521   2.82481   -131.14490   0.85602   -0.81327   2.93048   46.88986   2.85520   32.06690   0.09640   -19.28095   2.11758   -135.50810
0.48000   0.47252   49.14757   0.17039   37.24609   0.72141   -39.67159   1.60322   -125.57403   0.66900   -8.73211   1.89531   47.86837   1.87939   30.24307   0.20313   -0.44084   1.25561   -131.17971
0.50000   0.37170   39.74452   0.23904   31.65536   0.62664   -35.41159   1.03727   -131.15019   0.58089   -17.47025   1.47861   40.25378   1.49873   21.25811   0.24732   11.41313   0.87144   -137.17839
0.55000   0.41928   39.30945   0.31563   6.06614   0.46928   -39.57492   0.62576   -153.06433   0.43839   -26.32784   1.25917   22.30457   1.23359   0.82870   0.33455   28.78153   0.55624   -161.23691
0.60000   0.70610   22.56983   0.20777   -25.34818   0.24251   -48.65296   0.78517   169.30903   0.50752   -25.78558   1.31670   3.27035   1.19454   -20.41458   0.47131   41.08310   0.48666   167.30542
0.65000   1.23659   -18.02372   0.21902   121.59796   0.20538   107.32277   1.73353   122.50869   0.93831   -55.32597   1.55896   -26.27957   1.31757   -54.99964   0.82454   45.20506   0.59796   124.26691
0.70000   2.60600   -110.95932   1.55275   45.90243   1.56960   57.13981   5.06341   45.27081   2.45323   -142.36481   2.18907   -106.47089   2.00376   -144.49684   1.90118   11.61906   1.09590   45.43494
0.75000   1.77735   105.74954   1.06675   -66.28869   1.28391   -34.86411   3.47051   -68.90382   1.92738   90.24239   1.33252   100.42004   1.54500   81.31600   1.11320   -58.64859   0.60636   -71.98315
0.80000   1.23242   36.76272   0.29653   -118.09183   0.49979   -72.25612   1.83137   -124.15978   1.22760   37.97873   1.30484   35.62193   1.29949   36.76596   0.52293   -70.79843   0.35497   -126.87115
0.85000   0.96216   -1.64646   0.04129   -35.88167   0.05206   84.73035   1.21565   -171.88504   0.91716   14.45766   1.31662   -2.49785   1.25760   9.11601   0.21929   -69.04328   0.32020   179.00932
0.90000   0.95288   -29.87920   0.03072   -141.05840   0.53209   68.19140   1.37535   145.08739   1.01956   -0.04883   1.35885   -35.35465   1.33858   -13.49849   0.02064   77.88943   0.42311   136.30791
0.95000   1.25842   -70.73642   0.39749   118.80987   1.14360   47.24251   2.45867   107.51144   1.50481   -27.99781   1.68910   -75.91349   1.75862   -41.12976   0.38349   110.95457   0.82035   103.21146
1.00000   9.06882   125.97623   4.03254   -18.70319   6.54545   -67.47110   19.06915   -30.58816   7.69183   -177.03261   12.72251   127.43831   10.36155   166.80862   5.14770   19.18090   7.43072 -33.08072
1.05000   1.19318   10.74208   0.10924   -109.28418   0.18104   -138.78669   1.77496   -127.21159   0.62380   52.14059   1.92522   28.58316   1.49366   52.89203   0.76049   -30.79878   0.97481   -124.66104
1.10000   0.63486   -26.45717   0.27182   36.74400   0.24531   29.34988   0.68070   -167.57259   0.32167   0.37492   1.35082   6.13578   1.17745   21.38499   0.48910   -19.68083   0.61658   -154.58495
1.15000   0.31547   -45.70551   0.41378   10.65643   0.40181   21.81051   0.43452   148.03056   0.18444   -17.59361   1.20547   -8.31419   1.14831   -0.21247   0.41806   -2.84719   0.56640   177.46777
1.20000   0.17306   -13.10465   0.40718   -13.15287   0.45451   16.86889   0.58054   125.29485   0.17046   -8.21037   1.25031   -21.06971   1.24518   -20.42747   0.45025   15.06092   0.68035   152.17205
1.25000   0.37613   -4.16380   0.26581   -29.05857   0.42253   21.72716   1.58549   114.67123   0.36841   -53.93264   1.84232   -38.34515   1.91137   -47.68848   0.69683   37.77952   1.29404   130.32560
1.30000   1.16506   49.66417   0.33230   -124.39672   0.75159   -54.76422   5.81197   -142.74903   2.54640   5.68413   4.49762   46.56234   5.53668   28.35970   1.34633   179.06407   3.66246   -133.60700
1.35000   0.52070   31.57561   0.03895   -123.01251   0.62548   -22.56183   1.42546   -137.17198   1.09209   5.96885   1.28529   41.72657   1.74664   23.49655   0.10375   -128.75961   0.81672   -131.09743
1.40000   0.44068   14.55600   0.15359   48.64967   0.52333   -25.59106   0.86343   -168.46354   0.87093   -13.74606   1.06963   20.78817   1.42080   2.49797   0.10565   60.17465   0.49635   -161.97627
1.45000   0.49445   16.04046   0.23121   17.34981   0.36707   -34.05800   0.87680   159.41587   0.78634   -27.09187   1.12187   2.54662   1.41726   -18.29499   0.29983   74.67485   0.45251   159.87087
1.50000   0.98506   1.24819   0.04277   -70.63308   0.01892   87.01180   1.65608   130.59742   1.06861   -38.52005   1.37550   -25.48979   1.68225   -49.48586   0.72158   78.02250   0.62229   112.94473
1.55000   2.99819   -103.94206   1.63114   71.53915   1.81961   48.49306   6.23101   38.42757   3.16278   -126.90219   2.39468   -145.87044   3.30244   -163.04851   2.57700   22.39840   1.77648   -0.61559
1.60000   1.30425   131.71611   1.03215   -26.40406   1.07463   -28.60900   2.78146   -54.26914   1.35334   127.73177   1.20494   80.25834   1.30724   79.26091   1.09107   -34.07717   0.68894   -102.34606
1.65000   1.05345   63.60173   0.51174   -70.45261   0.58544   -52.00321   1.61299   -100.90101   0.92713   71.09199   1.22832   35.12835   1.05356   37.42633   0.65959   -36.77245   0.43985   -146.08328
1.70000   0.99808   18.16089   0.11595   -104.93282   0.21510   -67.72886   1.11719   -148.40203   0.73420   31.79801   1.34231   8.50351   1.04002   15.29066   0.49017   -34.10368   0.40908   179.92051
1.75000   0.89981   -19.51176   0.18206   35.33865   0.19526   89.01775   0.98860   160.77967   0.53601   10.19060   1.46741   -16.64312   1.08564   -1.31480   0.38077   -31.70976   0.46708   151.19529
1.80000   0.84136   -52.34786   0.28479   -1.40423   0.70258   73.34693   1.30936   119.89853   0.48794   14.81696   1.72683   -46.85189   1.23150   -22.38362   0.27058   -25.80908   0.70032   123.08577
1.85000   1.63855   -93.89266   0.05489   -34.48370   1.97773   57.38435   3.61582   90.31675   0.93320   -0.54322   3.60796   -88.62094   2.28123   -60.27186   0.04539   61.58293   1.94708   94.50183
1.90000   2.28009   42.57208   0.46069   -68.33143   1.40108   -127.30947   4.38417   -111.83246   0.62687   77.34302   4.26308   54.21043   2.70032   69.37187   0.71644   -14.84029   2.43053   -105.36147
1.95000   1.00945   3.13311   0.04143   -162.89904   0.05339   -53.63715   1.33885   -148.01287   0.61060   3.86856   1.66614   23.63725   1.30358   30.11499   0.43136   -3.85666   0.83789   -131.75715
2.00000   0.71690   -29.48173   0.25748   70.45550   0.31003   20.81545   0.79762   164.84799   0.60788   -30.30759   1.24896   4.51320   1.15488   7.17962   0.39431   9.35768   0.57407   -158.70851
2.05000   0.47453   -59.37811   0.44055   40.84309   0.44169   15.79640   0.73419   121.37144   0.53413   -58.58609   1.11698   -8.80722   1.16124   -10.84585   0.42300   23.36036   0.53125   174.51448
2.10000   0.23090   -95.42118   0.54046   14.96812   0.50779   10.24094   0.94282   93.97109   0.48790   -85.27429   1.12126   -23.90261   1.29880   -33.17438   0.55833   38.37958   0.63870   145.25173
2.15000   0.10209   58.44247   0.49104   -12.17025   0.46686   2.02923   1.84449   86.83916   0.74269   -101.62700   1.52963   -46.75507   2.10560   -66.34378   1.06723   51.13485   1.21231   115.11467
2.20000   0.60324   168.58019   0.76501   -21.66240   0.89527   10.48735   6.32950   -79.40976   3.16582   83.52960   3.11969   99.59535   6.11725   85.98763   2.86406   -91.35524   3.30156   -78.82783
2.25000   0.42612   70.34516   0.42461   -56.67619   0.62514   -4.26570   1.50815   -109.79048   1.10885   49.17800   0.97662   36.43043   1.70453   36.66296   0.48613   -85.05939   0.67231   -127.48872
2.30000   0.55113   37.76413   0.22894   -86.60863   0.56145   -11.19246   1.03096   -140.63632   0.99761   25.40237   0.92396   14.15363   1.39766   13.08218   0.21689   -66.83990   0.46174   -165.32813
2.35000   0.62348   15.76663   0.05427   -152.57626   0.47085   -17.86110   0.97722   -176.63606   0.98357   4.08838   0.99456   -0.73638   1.38008   -4.65786   0.08087   -33.91747   0.46971   160.44793
2.40000   0.76913   -0.31019   0.09708   86.31412   0.24302   -22.42604   1.36699   149.56217   1.02929   -11.99454   1.26575   -22.21780   1.56859   -26.02992   0.11776   96.36667   0.69539   124.75500
2.45000   1.83664   -25.23416   0.27314   162.05736   0.80598   119.87923   4.18874   115.38684   1.92628   -28.76607   3.06430   -68.81724   3.20850   -69.29377   0.94561   116.95959   2.17837   82.23682
2.50000   1.27692   157.93453   0.97819   14.24420   1.42999   -30.24970   3.24223   -47.62195   1.06245   176.61175   2.33562   93.06136   1.91539   90.05796   1.15313   -15.25884   1.61569   -93.92311
2.60000   0.88050   54.19133   0.44551   -52.29370   0.41934   -59.57510   1.10557   -110.93203   0.45454   68.83793   1.37318   26.31430   0.93571   19.90342   0.56794   -7.22418   0.50748   -150.85826
2.70000   0.94650   -27.90063   0.22269   73.26082   0.25023   66.59880   0.94914   141.19355   0.44535   -28.49834   1.40140   -15.83188   0.91584   -9.54795   0.54447   -0.08017   0.47295   161.16666
2.80000   0.94156   -123.34166   0.74162   3.29247   1.07584   43.75244   2.06596   62.35241   0.51911   -164.58570   1.77670   -72.24619   1.18371   -61.82890   0.76601   7.15317   1.00029   108.58973
2.90000   1.06936   9.40811   0.06508   -31.87661   0.17854   -128.13160   2.10588   -133.53999   1.10186   11.21969   1.89690   43.76746   1.94297   44.08365   0.22566   -127.08339   1.20013   -102.49305
3.00000   0.59275   -23.57464   0.08245   94.38709   0.48824   18.49218   0.90148   161.34445   0.90844   -15.05613   0.97826   -3.06938   1.31184   -2.24102   0.20075   49.99555   0.45167   -166.88619
3.10000   0.37850   -81.08555   0.44080   48.31754   0.64976   3.94658   1.52715   98.33456   1.06430   -60.59677   0.91061   -39.87536   1.62631   -44.36166   0.62577   72.86702   0.64115   122.77264
3.20000   0.25321   -32.23995   0.40736   19.45810   0.40174   -0.08841   2.37122   -75.65418   1.00598   107.61037   1.51831   61.82787   2.44043   85.33912   1.43000   -49.94373   1.34306   -95.06455
3.30000   0.36840   70.62346   0.47811   -30.81323   0.47829   -12.39074   0.77925   -108.59951   0.55645   64.32565   1.03497   13.24018   1.19226   19.14506   0.43262   -36.38025   0.49328   -164.18775
3.40000   0.77887   19.00773   0.20484   -75.13281   0.21827   -14.78281   0.88675   174.60426   0.65643   21.11007   1.31007   -14.12943   1.19494   -16.38389   0.33726   -6.54447   0.61059   142.04996
3.50000   3.25919   -74.15556   0.42457   68.89856   2.73959   90.89307   6.72765   77.88192   0.63088   -75.10725   5.99564   -95.49811   3.68043   -110.72032   0.71753   17.31745   3.61114   63.39575
3.60000   0.85987   64.82498   0.23815   7.32236   0.90120   -63.79105   1.43991   -101.94689   0.46819   -8.41216   1.69683   60.52507   1.12549   34.07111   0.30304   7.23024   0.70807   -109.20548
3.70000   0.85765   4.63937   0.13385   1.58891   0.07396   -81.15876   0.84074   -178.93830   0.52764   -20.97540   1.36334   8.62501   0.98722   -3.12347   0.41691   26.36847   0.38255   -159.91497
3.80000   0.82300   -68.52706   0.46122   48.57049   0.57561   46.86682   1.31791   94.21227   0.69203   -76.15254   1.13129   -34.60253   0.96628   -34.58413   0.62159   31.64323   0.39356   145.59608
3.90000   1.31019   163.51778   1.07064   -17.55932   1.23655   -2.25797   3.21709   12.26039   1.43803   -178.04318   0.94932   -138.09394   1.37848   -130.07031   1.46450   14.71941   0.82943   55.40516
4.00000   0.79391   -1.02077   0.02118   -28.42032   0.18915   7.35807   1.29519   -127.01579   0.96495   38.31721   1.11167   23.08497   1.43913   46.75538   0.62951   -69.12822   0.50587   -114.55814
4.10000   0.40464   -23.06448   0.16067   -2.31003   0.49545   19.45265   0.66788   175.46161   0.74618   13.22974   0.96566   -13.38947   1.29781   4.67058   0.19945   -55.45994   0.41078   171.79620
4.20000   0.33235   -34.81048   0.15231   27.93435   0.60427   11.29734   1.31624   123.65771   0.94039   -11.81378   1.21245   -48.14370   1.71532   -31.87711   0.13309   114.42454   0.88148   117.10289
4.30000   0.21041   19.85819   0.29226   12.73611   0.53459   -14.72764   2.45305   -85.44312   0.52984   118.73222   2.24641   61.85005   2.45025   75.65167   1.10456   -28.61719   1.93287   -107.36382
4.40000   0.22859   45.81207   0.34768   -2.45976   0.51532   -16.80518   0.50779   -113.23136   0.19009   19.84795   1.09778   21.48548   1.08409   16.21423   0.47644   -5.97798   0.57366   -153.82055
4.50000   0.53127   27.89979   0.22627   -23.43288   0.35973   -26.16239   0.46697   -177.28076   0.30500   -0.88286   1.16179   1.32444   1.02232   -12.79693   0.49653   10.99293   0.50195   164.78213
4.60000   1.03812   -30.62242   0.30898   66.40195   0.24625   93.96733   1.51999   104.08267   0.52361   -79.63701   1.59607   -36.94149   1.05879   -63.25374   0.81578   16.51708   0.75900   109.92180
4.70000   1.44856   151.68269   0.87733   -45.23459   1.65864   -2.21926   3.38243   -38.19355   1.49446   91.81537   1.71830   159.64425   1.45561   105.26006   0.97098   -63.74560   1.09268   -29.22430
4.80000   0.90854   40.70841   0.17470   -75.52761   0.50090   -57.70328   1.22112   -127.70707   0.89737   14.92990   1.14633   39.87211   1.12215   19.44282   0.10871   -34.80302   0.34460   -115.32725
4.90000   0.96014   -12.62797   0.10511   168.57935   0.25169   48.70149   1.06005   157.69894   0.94514   -12.96302   1.07664   -10.17763   1.06142   -10.44104   0.26396   46.41650   0.22582   179.70808
5.00000   0.95106   -81.75649   0.54031   75.97872   0.84309   29.64561   1.69048   86.32264   1.10607   -62.18953   0.80203   -62.08016   1.06137   -44.63932   0.57520   52.13554   0.31111   110.36614
5.20000   0.74289   -6.45182   0.18750   15.24883   0.08783   22.88817   0.84766   -127.17059   0.43812   48.15928   1.26885   15.96744   1.08397   44.43786   0.64709   -35.49418   0.48717   -128.13120
5.40000   0.27518   0.12379   0.27429   -41.69717   0.55090   19.27586   0.60653   130.12462   0.48120   19.86043   1.12866   -33.76290   1.20848   -22.59798   0.34314   3.17045   0.63909   135.81913
