! Filename:  P:\Prog\Test\Noise\ATS_data\Testdata_Net\Split files Spar\BFU730_2W_B1_Bias7_2.5V_1mA_25mA_D.s2p
! Date/Time: Fri 29/Apr/2011 15:08:39
! BFU730_2W_B1_Bias7_2.5V_1mA_25mA_R.s2p
! MDIF S-parameter v. bias file
! BFU730_2W_B1_2.5V_1mA_25mA
! Date/time Thu Mar 17 13:38:09 2011
! VAR V_out= 2.5000
! VAR I_out= 15.0750
! VAR V_in= 0.8056
! VAR I_in= 0.0504
! Device data file deembeded for feedlines and parallel
! Original file: \Split files Spar\BFU730_2W_B1_Bias7_2.5V_1mA_25mA_R.s2p
! Feed-files: PR003V01_101208_Feed1.s2p, PR003V01_101208_Feed2.s2p
! Parallel-file: PR003V01_101208_Par.s2p
!3-port S-parameters
# GHz S MA R 50
!  Freq-GHz   S11-mag  S11-arg   S12-mag  S12-arg   S13-mag  S13-arg   S21-mag  S21-arg   S22-mag  S22-arg   S23-mag  S23-arg   S31-mag  S31-arg   S32-mag  S32-arg   S33-mag  S33-arg
 0.060   1.108  -1.764   0.055   174.847   0.060   150.888
       2.300  -177.990   1.138   3.450   2.163   0.323
       2.195   2.998   0.109  -137.767   1.112  -177.868
 0.070   1.022   0.136   0.011  -166.567   0.012   179.732
       2.197  -175.923   1.095   4.310   2.101   2.017
       2.175   4.055   0.114  -135.548   1.090  -176.109
 0.080   0.947   3.388   0.040  -49.840   0.039  -41.010
       2.008  -172.574   1.015   7.286   1.989   3.771
       2.056   5.682   0.104  -108.425   1.019  -174.066
 0.090   0.888   3.713   0.063  -40.476   0.068  -14.302
       1.822  -173.119   0.944   7.617   1.875   2.847
       1.929   4.780   0.086  -78.704   0.942  -175.353
 0.100   0.874   3.437   0.063  -44.871   0.083  -5.606
       1.762  -175.056   0.931   6.620   1.830   1.391
       1.885   3.022   0.070  -64.369   0.913  -177.721
 0.120   0.915   0.165   0.024  -52.291   0.072   12.905
       1.824   178.299   0.961   1.859   1.864  -2.623
       1.908  -1.705   0.028  -26.409   0.935   175.754
 0.140   0.998  -0.532   0.002  -13.999   0.010   88.877
       2.077   177.254   1.023   0.373   2.055  -2.963
       2.079  -2.488   0.026  -166.250   1.057   174.767
 0.160   1.025   6.933   0.058  -70.112   0.079  -117.989
       2.162  -173.545   1.014   7.214   2.146   3.093
       2.134   3.206   0.077  -108.992   1.107  -177.600
 0.180   0.996   10.850   0.095  -74.355   0.096  -92.415
       1.966  -168.788   0.952   11.026   2.004   5.734
       1.960   5.703   0.099  -65.951   0.996  -173.966
 0.200   0.976   4.986   0.047  -79.199   0.043  -63.412
       1.796  -175.547   0.908   5.140   1.887   1.764
       1.820   1.722   0.094  -22.110   0.906  -178.769
 0.220   1.010  -3.163   0.022   82.638   0.035   108.897
       1.881   175.240   0.924  -2.580   1.955  -3.358
       1.869  -3.079   0.077   14.669   0.944   175.079
 0.240   1.089  -5.028   0.038   91.655   0.102   145.574
       2.153   174.105   0.986  -4.433   2.164  -3.841
       2.061  -3.497   0.042   64.934   1.079   175.348
 0.260   1.100   0.104   0.008  -162.846   0.092   179.763
       2.203  -178.143   1.005   0.821   2.197   1.486
       2.103   1.891   0.012  -78.137   1.105  -177.026
 0.280   1.005   0.618   0.003   25.746   0.015  -122.570
       1.932  -175.984   0.944   1.261   1.987   3.305
       1.927   3.704   0.058  -22.751   0.981  -174.020
 0.300   0.917  -5.116   0.062   55.717   0.061   30.424
       1.740   177.090   0.888  -4.839   1.852  -0.414
       1.825  -0.207   0.083   16.660   0.905  -178.902
 0.320   0.889  -9.086   0.095   46.837   0.091   51.008
       1.781   170.377   0.888  -9.547   1.886  -4.574
       1.885  -4.789   0.098   52.720   0.941   175.159
 0.340   0.954  -6.299   0.056   44.558   0.066   80.278
       2.051   171.606   0.986  -8.097   2.060  -4.472
       2.090  -5.346   0.100   99.146   1.069   174.874
 0.360   1.020   1.777   0.017  -125.801   0.020  -117.652
       2.196  -179.513   1.069  -1.515   2.128   1.264
       2.177  -0.341   0.072   144.180   1.119  -178.508
 0.380   0.985   5.867   0.029  -131.269   0.088  -63.391
       2.012  -173.713   1.040   1.669   1.970   5.537
       2.024   3.390   0.022  -157.688   1.006  -173.647
 0.400   0.929   2.999   0.011   60.963   0.089  -40.671
       1.819  -177.579   0.978  -1.425   1.842   3.148
       1.890   0.857   0.023   41.523   0.908  -177.269
 0.420   0.951  -0.763   0.024   66.590   0.040  -13.795
       1.869   175.690   0.991  -4.896   1.878  -1.707
       1.917  -3.823   0.062   86.977   0.919   175.907
 0.440   1.073  -2.105   0.041   154.126   0.041   148.410
       2.155   173.396   1.096  -5.553   2.054  -3.956
       2.079  -5.753   0.104   121.524   1.021   173.249
 0.460   1.214   0.555   0.100  -179.182   0.115  -174.835
       2.476   179.134   1.228  -0.966   2.248  -0.426
       2.262  -1.246   0.130   170.170   1.134   178.633
 0.480   1.162   4.059   0.077  -165.069   0.105  -143.585
       2.333  -173.586   1.169   4.233   2.160   4.630
       2.167   4.722   0.113  -144.074   1.074  -174.021
 0.500   1.020   2.987   0.021  -112.180   0.036  -108.124
       1.981  -173.624   1.026   5.032   1.952   3.821
       1.957   4.891   0.072  -101.052   0.941  -174.151
 0.550   1.029  -5.999   0.030   179.207   0.107   86.337
       2.057   173.255   1.053  -0.749   2.003  -6.530
       2.024  -3.798   0.026   149.181   1.004   173.097
 0.600   0.959   3.172   0.023  -33.324   0.047  -60.305
       2.007  -172.117   0.981   6.872   2.020   4.482
       2.042   6.246   0.105  -86.158   1.044  -173.549
 0.650   0.861   2.158   0.069  -19.271   0.075  -7.434
       1.674   179.713   0.848   1.785   1.827  -1.092
       1.814  -1.289   0.087  -2.464   0.902   177.169
 0.700   1.094   1.142   0.003  -122.242   0.094  -168.064
       2.233   178.455   1.009  -1.453   2.224  -0.892
       2.141  -2.195   0.029   103.840   1.133   177.265
 0.750   1.017   5.080   0.040  -86.602   0.053  -106.548
       1.908  -173.467   0.939   3.397   1.965   4.713
       1.887   3.861   0.063  -14.863   0.950  -173.288
 0.800   0.974  -10.972   0.094   90.131   0.101   64.036
       1.863   168.418   0.969  -11.287   1.884  -5.617
       1.878  -5.764   0.108   62.206   0.924   174.198
 0.850   1.041  -4.621   0.054   97.865   0.043   134.830
       2.311   176.405   1.123  -5.594   2.188  -0.926
       2.269  -1.541   0.124   153.191   1.158   179.749
 0.900   0.909   6.646   0.039  -58.751   0.106  -43.080
       1.860  -171.879   0.997   4.690   1.857   5.603
       1.945   4.648   0.050  -105.369   0.932  -173.278
 0.950   0.942   0.564   0.025  -27.766   0.036   3.740
       1.845   176.601   0.976  -0.833   1.869  -2.921
       1.904  -3.573   0.026   85.142   0.907   174.126
 1.000   1.220   2.045   0.104  -141.821   0.139   171.326
       2.487   179.558   1.195   3.967   2.298  -2.540
       2.269  -1.583   0.111  -170.572   1.161   176.004
 1.050   1.099   5.659   0.077  -131.521   0.066  -130.128
       2.114  -169.255   1.047   10.321   2.057   5.761
       2.003   8.199   0.132  -80.801   1.016  -171.173
 1.100   0.879  -4.095   0.053   29.295   0.086   25.479
       1.643   179.144   0.851   0.410   1.791  -0.980
       1.766   1.240   0.108  -17.297   0.869  -179.587
 1.150   0.908  -8.066   0.067   45.079   0.096   56.182
       1.869   169.077   0.904  -7.749   1.953  -6.828
       1.949  -6.678   0.094   52.692   1.004   171.289
 1.200   1.058   1.536   0.024   109.815   0.070  -134.276
       2.290  -179.436   1.057  -2.939   2.235   1.967
       2.232  -0.149   0.057   146.009   1.185  -178.731
 1.250   0.950   8.488   0.045  -18.195   0.127  -82.168
       1.900  -170.262   0.934   2.357   1.960   8.300
       1.941   5.353   0.034  -45.255   0.969  -170.693
 1.300   0.929   1.156   0.041  -8.063   0.033  -22.927
       1.724   179.028   0.907  -2.479   1.818   0.315
       1.796  -1.531   0.069   40.401   0.848   179.801
 1.350   1.057  -9.136   0.054   122.170   0.123   96.839
       2.065   167.235   1.062  -8.830   1.986  -8.490
       1.992  -8.329   0.119   100.188   0.965   169.794
 1.400   1.203  -6.132   0.099   161.411   0.141   136.538
       2.595   175.142   1.270  -2.443   2.323  -4.089
       2.392  -2.188   0.177   172.628   1.216   176.769
 1.450   1.000   7.191   0.070  -95.794   0.057  -75.147
       2.149  -167.602   1.083   11.552   2.052   6.842
       2.133   9.068   0.156  -110.133   1.069  -169.796
 1.500   0.851   8.290   0.085  -60.092   0.125  -22.973
       1.664  -169.516   0.900   10.569   1.757   4.497
       1.803   5.732   0.116  -51.421   0.871  -174.130
 1.550   0.887   2.040   0.036  -56.991   0.094  -0.719
       1.647   178.421   0.883   1.922   1.765  -2.435
       1.761  -2.503   0.098   0.445   0.861   174.925
 1.600   1.052  -4.776   0.044   124.979   0.057   113.977
       2.033   169.804   0.983  -6.410   2.039  -7.044
       1.971  -7.938   0.088   56.866   1.020   168.796
 1.650   1.263  -2.751   0.087   144.632   0.191   176.932
       2.569   176.216   1.132  -5.003   2.437  -1.665
       2.305  -2.709   0.075   139.750   1.247   177.214
 1.700   1.157   4.402   0.040   171.517   0.148  -140.204
       2.296  -171.140   1.062   2.461   2.229   7.944
       2.132   7.137   0.056  -112.562   1.115  -168.964
 1.750   0.965   0.622   0.027   70.167   0.044  -53.916
       1.802  -173.975   0.936   0.120   1.866   5.757
       1.836   5.584   0.062  -26.281   0.895  -170.268
 1.800   0.859  -7.742   0.083   59.980   0.115   22.244
       1.613   174.237   0.897  -7.277   1.716  -1.615
       1.753  -1.508   0.080   31.008   0.822   179.673
 1.850   0.860  -12.862   0.113   62.170   0.142   40.041
       1.769   164.733   0.952  -12.787   1.796  -8.164
       1.888  -8.355   0.112   80.460   0.902   169.551
 1.900   0.993  -9.460   0.077   80.491   0.087   85.168
       2.276   167.115   1.124  -9.862   2.135  -8.486
       2.265  -8.742   0.167   135.814   1.142   168.486
 1.950   1.110   6.861   0.056  -108.857   0.116  -136.473
       2.604  -174.035   1.221   6.098   2.380   3.394
       2.492   3.176   0.211  -158.603   1.293  -177.291
 2.000   1.019   17.891   0.132  -76.445   0.184  -90.119
       2.183  -159.985   1.052   17.189   2.092   12.036
       2.127   11.783   0.186  -101.276   1.076  -166.444
 2.050   0.933   14.264   0.110  -61.762   0.140  -71.652
       1.772  -162.611   0.899   14.701   1.846   9.395
       1.812   9.522   0.153  -59.242   0.881  -168.968
 2.100   0.894   4.123   0.069  -29.458   0.056  -32.306
       1.575  -174.808   0.819   5.874   1.755   1.918
       1.679   2.672   0.135  -21.669   0.802  -177.958
 2.150   0.895  -6.523   0.076   18.671   0.087   62.907
       1.601   171.694   0.805  -3.392   1.790  -5.889
       1.701  -4.374   0.127   10.664   0.827   172.619
 2.200   0.931  -14.690   0.103   40.728   0.170   82.806
       1.823   161.919   0.850  -11.568   1.941  -11.753
       1.862  -10.200   0.137   49.027   0.949   166.198
 2.250   1.054  -14.165   0.078   60.651   0.199   107.444
       2.310   163.682   1.007  -12.004   2.275  -11.142
       2.230  -10.103   0.143   99.215   1.198   167.981
 2.300   1.126  -2.237   0.012   177.070   0.122   159.137
       2.584   179.082   1.131  -1.808   2.454  -0.134
       2.459   0.059   0.124   163.515   1.341  -178.392
 2.350   0.996   9.316   0.062  -77.875   0.100  -87.759
       2.229  -166.981   1.049   7.184   2.164   9.875
       2.215   8.852   0.088  -127.244   1.167  -166.593
 2.400   0.870   13.001   0.083  -56.885   0.166  -49.720
       1.814  -163.867   0.944   8.389   1.846   11.450
       1.920   9.243   0.071  -72.927   0.947  -165.315
 2.450   0.831   11.451   0.081  -46.232   0.167  -39.508
       1.597  -168.342   0.889   5.681   1.696   7.954
       1.756   5.148   0.066  -26.183   0.818  -170.972
 2.500   0.867   5.879   0.059  -46.530   0.107  -25.569
       1.566  -177.686   0.891   1.409   1.675   1.414
       1.702  -0.862   0.072   16.767   0.771   179.630
 2.600   1.060  -7.725   0.031   168.167   0.137   98.261
       2.011   164.933   1.039  -6.438   1.952  -12.009
       1.929  -11.367   0.110   90.709   0.930   163.110
 2.700   1.449  -4.267   0.161  -168.426   0.320   153.990
       3.077   175.981   1.358   2.428   2.727  -5.750
       2.626  -2.352   0.200  -172.780   1.432   174.671
 2.800   1.055   9.426   0.082  -100.488   0.095  -105.575
       2.132  -161.868   0.995   14.116   2.103   11.538
       2.045   13.882   0.169  -72.749   1.086  -162.368
 2.900   0.783   3.121   0.062  -13.050   0.161  -10.300
       1.451  -172.484   0.809   2.438   1.638   5.445
       1.664   5.077   0.133  -8.871   0.798  -170.868
 3.000   0.774  -3.537   0.064   16.519   0.169   10.085
       1.460   169.514   0.840  -8.548   1.611  -5.015
       1.677  -7.466   0.152   44.539   0.779   171.789
 3.100   1.081  -8.064   0.071   143.873   0.110   96.611
       2.320   160.498   1.172  -13.778   2.108  -13.595
       2.207  -16.398   0.251   108.923   1.105   159.577
 3.200   1.598   15.194   0.303  -139.276   0.383  -144.727
       3.541  -167.922   1.632   12.600   2.895   7.639
       2.938   6.293   0.396  -156.435   1.565  -174.003
 3.300   1.150   23.248   0.202  -103.463   0.258  -92.192
       2.204  -150.670   1.091   24.491   2.028   18.016
       1.967   18.545   0.262  -78.093   0.990  -158.089
 3.400   0.925   5.871   0.051  -84.359   0.086  -30.517
       1.515  -169.116   0.840   9.654   1.666   5.001
       1.579   6.964   0.190  -28.373   0.741  -172.145
 3.500   0.878  -12.551   0.069   55.527   0.170   52.320
       1.480   165.047   0.795  -7.767   1.666  -9.488
       1.584  -6.927   0.181   16.292   0.759   169.351
 3.600   0.987  -25.143   0.143   74.625   0.289   76.346
       2.050   149.888   0.947  -21.807   2.012  -19.661
       1.976  -17.955   0.229   68.828   1.041   157.660
 3.700   1.418  -10.776   0.184   142.506   0.290   148.185
       3.391   171.834   1.486  -9.808   2.902  -4.518
       2.972  -4.180   0.347   156.092   1.648   177.363
 3.800   0.986   15.549   0.094  -110.462   0.195  -64.651
       2.200  -155.832   1.128   14.533   2.012   17.873
       2.154   17.188   0.203  -106.832   1.092  -156.141
 3.900   0.777   10.398   0.059  -61.726   0.226  -23.056
       1.473  -163.760   0.896   9.412   1.552   9.838
       1.672   9.349   0.129  -47.153   0.758  -166.521
 4.000   0.783   1.398   0.025  -5.132   0.193  -5.018
       1.377   176.578   0.862  -1.209   1.513  -2.423
       1.595  -3.642   0.115   10.261   0.709   173.452
 4.100   0.936  -8.548   0.048   106.417   0.128   46.504
       1.781   159.867   0.961  -10.480   1.783  -14.237
       1.810  -15.180   0.146   61.773   0.886   157.066
 4.200   1.511  -9.143   0.189   158.734   0.359   151.474
       3.266   162.447   1.396  -10.772   2.837  -14.788
       2.726  -15.858   0.273   135.357   1.530   158.834
 4.300   1.581   24.382   0.242  -122.612   0.545  -124.588
       3.429  -153.703   1.376   21.423   2.972   19.998
       2.773   18.208   0.334  -116.748   1.589  -159.052
 4.400   1.042   20.848   0.098  -86.871   0.274  -85.718
       1.890  -150.389   0.894   17.310   1.910   20.462
       1.761   18.634   0.220  -49.956   0.901  -154.030
 4.500   0.893   4.730   0.023   15.110   0.118  -42.413
       1.401  -170.404   0.790   1.753   1.605   7.495
       1.500   6.120   0.190  -9.141   0.691  -169.184
 4.600   0.871  -13.658   0.116   73.105   0.152   38.413
       1.381   163.804   0.803  -14.243   1.558  -6.908
       1.490  -6.914   0.207   24.798   0.673   172.079
 4.700   0.979  -31.446   0.234   79.342   0.306   66.593
       1.836   142.220   0.945  -30.119   1.759  -21.715
       1.729  -20.807   0.281   60.262   0.841   153.899
 4.800   1.439  -40.712   0.401   94.137   0.542   96.578
       3.380   140.213   1.498  -36.274   2.709  -28.113
       2.789  -26.032   0.518   110.195   1.518   150.937
 4.900   2.056   22.039   0.445  -148.342   0.753  -134.408
       4.489  -151.380   1.964   21.813   3.425   24.498
       3.333   24.433   0.666  -131.859   1.818  -150.968
 5.000   1.108   19.143   0.107  -109.245   0.263  -92.507
       2.076  -146.303   1.036   23.458   1.924   22.591
       1.856   25.133   0.323  -74.770   0.901  -148.081
 5.200   0.772  -13.522   0.130   36.199   0.177   35.741
       1.235   168.675   0.719  -4.717   1.506  -6.997
       1.462  -2.430   0.179  -5.724   0.643   172.872
 5.400   0.989  -38.757   0.228   57.083   0.440   76.197
       2.342   138.390   0.938  -28.815   2.222  -29.760
       2.190  -25.306   0.266   78.382   1.235   146.829
 5.600   0.910   13.398   0.087  -27.673   0.175  -77.273
       2.143  -148.972   0.933   17.254   2.114   23.053
       2.147   24.609   0.239  -82.206   1.183  -146.254
 5.800   0.581  -1.584   0.168   7.832   0.253  -1.541
       1.052  -178.249   0.675  -3.098   1.379   2.853
       1.471   1.877   0.160   4.878   0.633  -174.399
 6.000   0.682  -20.001   0.171   27.490   0.258   36.726
       1.645   142.047   0.846  -25.954   1.665  -22.661
       1.830  -25.175   0.304   73.313   0.889   146.757
 6.200   1.357   38.543   0.346  -87.288   0.506  -98.860
       4.213  -142.665   1.751   34.832   3.302   28.098
       3.706   27.467   0.796  -124.709   2.116  -150.108
 6.400   0.641   28.929   0.230  -44.213   0.312  -28.587
       1.213  -145.182   0.714   25.842   1.406   15.741
       1.485   14.930   0.244  -38.006   0.669  -159.706
 6.600   0.761   2.086   0.095  -40.599   0.170   11.580
       1.210   165.831   0.726  -1.933   1.474  -10.629
       1.449  -12.917   0.220   23.103   0.659   158.881
 6.800   1.985  -18.088   0.333   156.362   0.757   140.326
       4.546   145.582   1.735  -23.653   3.674  -30.653
       3.466  -34.300   0.630   116.805   2.104   138.629
 7.000   0.998   45.947   0.253  -69.678   0.528  -65.553
       2.009  -126.392   0.870   35.325   1.854   36.934
       1.748   30.996   0.334  -52.776   0.945  -137.851
 7.200   0.775   11.581   0.069  -43.147   0.220  -29.611
       1.082  -170.529   0.691   2.676   1.384   6.043
       1.308   0.984   0.260   3.225   0.568  -176.261
 7.400   1.061  -28.726   0.222   86.932   0.294   78.628
       1.891   132.433   0.887  -36.881   1.789  -28.865
       1.611  -33.359   0.417   48.074   0.849   137.321
 7.600   2.877   57.732   0.797  -115.037   1.722  -96.617
       6.872  -121.631   2.600   43.387   4.888   56.266
       4.593   48.092   1.198  -117.427   2.801  -122.775
 7.800   0.802   13.715   0.106  -5.426   0.214  -57.231
       1.196  -156.143   0.688   6.841   1.467   15.892
       1.347   12.585   0.224  -18.722   0.571  -157.187
 8.000   0.788  -9.311   0.126   39.428   0.134   20.885
       1.122   166.759   0.720  -8.956   1.388  -5.987
       1.320  -5.623   0.194   9.568   0.515   169.133
 8.200   1.997  -65.346   0.642   78.880   1.186   87.914
       4.629   104.788   1.686  -68.181   3.300  -61.890
       2.983  -63.126   0.968   75.066   1.827   109.111
 8.400   1.273   47.271   0.354  -78.904   0.591  -83.386
       2.651  -116.133   1.123   49.130   2.096   46.892
       1.946   47.935   0.539  -68.567   1.068  -117.971
 8.600   0.801   2.362   0.072  -54.630   0.160   9.204
       1.083  -172.245   0.737   5.392   1.342   3.285
       1.278   5.078   0.225  -2.692   0.508  -168.362
 8.800   0.912  -34.075   0.150   82.595   0.427   58.117
       1.518   130.905   0.852  -28.427   1.449  -30.787
       1.392  -27.191   0.346   47.943   0.604   141.115
 9.000   3.067  -93.372   1.217   72.684   2.068   66.698
       7.018   80.095   2.662  -91.866   4.254  -91.623
       3.852  -90.399   1.665   64.207   2.372   82.678
 9.200   1.138   37.802   0.224  -102.381   0.501  -72.688
       2.009  -122.271   1.001   36.340   1.681   41.119
       1.543   40.467   0.446  -57.106   0.752  -123.534
 9.400   0.816  -5.782   0.093   66.646   0.151  -1.138
       1.037   176.273   0.723  -6.593   1.317   0.678
       1.223   0.691   0.245  -0.511   0.468  -178.461
 9.600   0.907  -44.165   0.313   64.300   0.410   58.585
       1.551   120.562   0.771  -43.478   1.469  -33.222
