! Filename:  P:\Prog\Test\Noise\ATS_data\Testdata_Net\Split files Spar\BFU730_2W_B1_Bias9_2.5V_1mA_25mA_D.s2p
! Date/Time: Fri 29/Apr/2011 15:08:53
! BFU730_2W_B1_Bias9_2.5V_1mA_25mA_R.s2p
! MDIF S-parameter v. bias file
! BFU730_2W_B1_2.5V_1mA_25mA
! Date/time Thu Mar 17 13:38:09 2011
! VAR V_out= 2.5000
! VAR I_out= 24.9850
! VAR V_in= 0.8095
! VAR I_in= 0.0936
! Device data file deembeded for feedlines and parallel
! Original file: \Split files Spar\BFU730_2W_B1_Bias9_2.5V_1mA_25mA_R.s2p
! Feed-files: PR003V01_101208_Feed1.s2p, PR003V01_101208_Feed2.s2p
! Parallel-file: PR003V01_101208_Par.s2p
!3-port S-parameters
# GHz S MA R 50
!  Freq-GHz   S11-mag  S11-arg   S12-mag  S12-arg   S13-mag  S13-arg   S21-mag  S21-arg   S22-mag  S22-arg   S23-mag  S23-arg   S31-mag  S31-arg   S32-mag  S32-arg   S33-mag  S33-arg
 0.060   0.991  -0.365   0.002   89.008   0.009   25.853
       1.919   179.575   1.000  -0.219   1.920  -0.311
       1.928  -0.236   0.002   78.078   0.928   179.612
 0.070   0.991  -0.416   0.002   85.176   0.010   29.325
       1.919   179.516   1.000  -0.266   1.920  -0.346
       1.928  -0.268   0.002   82.319   0.928   179.577
 0.080   0.991  -0.477   0.003   85.963   0.010   33.026
       1.920   179.439   1.000  -0.312   1.920  -0.398
       1.928  -0.313   0.003   84.564   0.929   179.512
 0.090   0.991  -0.541   0.003   86.383   0.010   36.294
       1.920   179.356   1.000  -0.362   1.920  -0.456
       1.928  -0.363   0.003   85.924   0.929   179.438
 0.100   0.991  -0.597   0.004   87.325   0.011   38.957
       1.920   179.286   1.000  -0.406   1.920  -0.502
       1.928  -0.404   0.004   86.566   0.928   179.381
 0.120   0.992  -0.724   0.004   88.083   0.012   44.636
       1.920   179.136   1.000  -0.501   1.920  -0.604
       1.928  -0.488   0.004   87.903   0.929   179.260
 0.140   0.992  -0.846   0.005   88.552   0.013   49.103
       1.920   178.986   1.000  -0.595   1.920  -0.705
       1.928  -0.575   0.005   88.866   0.929   179.137
 0.160   0.992  -0.969   0.006   88.667   0.014   52.931
       1.920   178.834   1.000  -0.684   1.920  -0.810
       1.928  -0.663   0.006   89.273   0.929   179.006
 0.180   0.992  -1.092   0.006   89.151   0.015   56.273
       1.920   178.689   1.000  -0.777   1.920  -0.907
       1.929  -0.744   0.007   89.577   0.929   178.890
 0.200   0.992  -1.216   0.007   89.536   0.016   59.142
       1.921   178.536   1.000  -0.867   1.921  -1.013
       1.929  -0.832   0.008   89.989   0.929   178.760
 0.220   0.992  -1.339   0.008   89.780   0.017   61.557
       1.921   178.389   1.000  -0.959   1.921  -1.112
       1.929  -0.916   0.009   90.177   0.929   178.639
 0.240   0.992  -1.464   0.009   89.877   0.019   63.603
       1.922   178.237   1.000  -1.049   1.921  -1.217
       1.929  -1.003   0.010   90.475   0.929   178.510
 0.260   0.992  -1.589   0.009   89.996   0.020   65.591
       1.922   178.085   1.000  -1.142   1.921  -1.320
       1.929  -1.090   0.010   90.671   0.929   178.383
 0.280   0.992  -1.713   0.010   90.386   0.021   67.187
       1.922   177.937   1.000  -1.232   1.921  -1.423
       1.929  -1.175   0.011   90.891   0.929   178.259
 0.300   0.992  -1.841   0.011   90.432   0.022   68.651
       1.922   177.783   1.001  -1.326   1.921  -1.527
       1.929  -1.261   0.012   91.027   0.929   178.132
 0.320   0.992  -1.964   0.012   90.393   0.024   69.774
       1.923   177.636   1.001  -1.417   1.921  -1.627
       1.930  -1.345   0.013   91.049   0.929   178.011
 0.340   0.993  -2.088   0.012   90.463   0.025   71.030
       1.923   177.486   1.001  -1.507   1.922  -1.730
       1.930  -1.430   0.014   91.149   0.930   177.885
 0.360   0.993  -2.213   0.013   90.511   0.026   72.018
       1.923   177.340   1.001  -1.597   1.922  -1.830
       1.930  -1.512   0.015   91.120   0.930   177.766
 0.380   0.993  -2.340   0.014   90.559   0.028   72.900
       1.924   177.189   1.001  -1.689   1.922  -1.933
       1.930  -1.597   0.016   91.323   0.930   177.641
 0.400   0.993  -2.463   0.015   90.461   0.029   73.697
       1.924   177.041   1.001  -1.779   1.922  -2.034
       1.930  -1.681   0.016   91.368   0.930   177.517
 0.420   0.993  -2.585   0.015   90.569   0.030   74.436
       1.925   176.895   1.001  -1.866   1.923  -2.136
       1.931  -1.765   0.017   91.570   0.930   177.393
 0.440   0.993  -2.712   0.016   90.574   0.032   75.126
       1.925   176.744   1.001  -1.962   1.923  -2.237
       1.931  -1.850   0.018   91.555   0.930   177.273
 0.460   0.993  -2.836   0.017   90.627   0.033   75.723
       1.925   176.597   1.001  -2.051   1.923  -2.338
       1.931  -1.933   0.019   91.683   0.931   177.150
 0.480   0.993  -2.964   0.018   90.572   0.035   76.359
       1.926   176.443   1.001  -2.148   1.923  -2.443
       1.931  -2.022   0.020   91.777   0.931   177.022
 0.500   0.993  -3.089   0.019   90.557   0.036   76.828
       1.926   176.291   1.002  -2.241   1.923  -2.546
       1.931  -2.108   0.021   91.778   0.931   176.895
 0.550   0.994  -3.398   0.020   90.573   0.039   78.076
       1.927   175.921   1.002  -2.463   1.924  -2.802
       1.932  -2.320   0.023   91.786   0.931   176.581
 0.600   0.994  -3.713   0.022   90.557   0.043   79.019
       1.929   175.548   1.002  -2.691   1.925  -3.058
       1.933  -2.530   0.025   92.027   0.932   176.273
 0.650   0.994  -4.029   0.024   90.486   0.046   79.831
       1.930   175.171   1.003  -2.924   1.925  -3.315
       1.933  -2.745   0.027   92.136   0.932   175.962
 0.700   0.995  -4.346   0.026   90.435   0.050   80.508
       1.931   174.796   1.003  -3.155   1.926  -3.572
       1.934  -2.957   0.029   92.207   0.933   175.651
 0.750   0.995  -4.660   0.028   90.374   0.053   81.116
       1.933   174.427   1.003  -3.381   1.926  -3.825
       1.935  -3.166   0.031   92.353   0.934   175.346
 0.800   0.996  -4.977   0.030   90.317   0.057   81.595
       1.934   174.056   1.004  -3.610   1.927  -4.081
       1.935  -3.376   0.033   92.533   0.934   175.040
 0.850   0.996  -5.296   0.032   90.266   0.061   82.050
       1.936   173.677   1.004  -3.844   1.928  -4.340
       1.936  -3.591   0.035   92.684   0.935   174.727
 0.900   0.996  -5.611   0.034   90.219   0.064   82.445
       1.938   173.302   1.004  -4.073   1.929  -4.599
       1.937  -3.806   0.038   92.748   0.936   174.412
 0.950   0.997  -5.929   0.036   90.161   0.068   82.789
       1.940   172.931   1.005  -4.302   1.930  -4.854
       1.938  -4.016   0.040   92.870   0.936   174.107
 1.000   0.997  -6.244   0.038   90.061   0.071   83.082
       1.942   172.558   1.005  -4.535   1.931  -5.111
       1.939  -4.229   0.042   93.020   0.937   173.797
 1.050   0.998  -6.563   0.040   89.988   0.075   83.306
       1.944   172.182   1.006  -4.768   1.932  -5.370
       1.940  -4.444   0.044   93.131   0.938   173.485
 1.100   0.998  -6.879   0.042   89.936   0.078   83.572
       1.946   171.812   1.006  -4.997   1.933  -5.626
       1.941  -4.655   0.046   93.269   0.939   173.178
 1.150   0.999  -7.197   0.044   89.899   0.082   83.802
       1.948   171.439   1.007  -5.226   1.934  -5.885
       1.942  -4.868   0.048   93.438   0.940   172.868
 1.200   0.999  -7.514   0.046   89.779   0.086   83.961
       1.950   171.067   1.008  -5.460   1.935  -6.141
       1.943  -5.082   0.050   93.531   0.941   172.559
 1.250   1.000  -7.839   0.048   89.719   0.089   84.123
       1.953   170.686   1.008  -5.698   1.936  -6.404
       1.945  -5.300   0.053   93.656   0.942   172.245
 1.300   1.001  -8.158   0.049   89.660   0.093   84.315
       1.955   170.313   1.009  -5.930   1.937  -6.664
       1.946  -5.515   0.055   93.771   0.943   171.934
 1.350   1.001  -8.475   0.051   89.608   0.097   84.464
       1.958   169.942   1.009  -6.162   1.938  -6.921
       1.947  -5.728   0.057   93.879   0.944   171.626
 1.400   1.002  -8.797   0.053   89.555   0.100   84.591
       1.961   169.567   1.010  -6.397   1.940  -7.183
       1.949  -5.945   0.059   94.030   0.945   171.314
 1.450   1.003  -9.120   0.055   89.464   0.104   84.691
       1.963   169.192   1.011  -6.633   1.941  -7.443
       1.950  -6.161   0.062   94.109   0.946   171.004
 1.500   1.003  -9.438   0.057   89.427   0.108   84.817
       1.966   168.819   1.011  -6.865   1.942  -7.704
       1.951  -6.378   0.064   94.234   0.947   170.691
 1.550   1.004  -9.761   0.059   89.392   0.111   84.935
       1.969   168.445   1.012  -7.098   1.944  -7.967
       1.953  -6.594   0.066   94.376   0.948   170.378
 1.600   1.005  -10.081   0.061   89.304   0.115   85.012
       1.972   168.072   1.013  -7.334   1.945  -8.228
       1.954  -6.811   0.068   94.482   0.950   170.067
 1.650   1.006  -10.414   0.063   89.245   0.119   85.079
       1.976   167.689   1.014  -7.576   1.947  -8.496
       1.956  -7.034   0.071   94.615   0.951   169.749
 1.700   1.006  -10.729   0.065   89.220   0.123   85.199
       1.979   167.320   1.015  -7.808   1.949  -8.756
       1.958  -7.251   0.073   94.765   0.952   169.438
 1.750   1.007  -11.053   0.067   89.191   0.126   85.276
       1.983   166.942   1.015  -8.049   1.950  -9.021
       1.960  -7.473   0.075   94.885   0.954   169.121
 1.800   1.008  -11.387   0.069   89.140   0.130   85.341
       1.987   166.558   1.016  -8.294   1.952  -9.292
       1.962  -7.698   0.078   95.017   0.955   168.801
 1.850   1.009  -11.720   0.071   89.061   0.134   85.398
       1.990   166.175   1.017  -8.538   1.954  -9.562
       1.963  -7.923   0.080   95.111   0.957   168.483
 1.900   1.010  -12.045   0.073   89.066   0.138   85.483
       1.995   165.801   1.018  -8.776   1.956  -9.829
       1.965  -8.144   0.082   95.299   0.958   168.167
 1.950   1.011  -12.377   0.076   89.072   0.142   85.542
       1.999   165.413   1.019  -9.024   1.958  -10.104
       1.967  -8.377   0.085   95.451   0.960   167.839
 2.000   1.012  -12.722   0.078   89.049   0.146   85.574
       2.003   165.012   1.020  -9.291   1.960  -10.384
       1.969  -8.616   0.087   95.485   0.962   167.508
 2.050   1.013  -13.073   0.080   88.926   0.150   85.566
       2.006   164.613   1.021  -9.552   1.961  -10.662
       1.971  -8.848   0.090   95.405   0.963   167.183
 2.100   1.014  -13.406   0.082   88.860   0.154   85.585
       2.010   164.238   1.022  -9.792   1.963  -10.931
       1.973  -9.069   0.092   95.508   0.965   166.868
 2.150   1.015  -13.753   0.084   88.806   0.158   85.580
       2.014   163.844   1.023  -10.052   1.965  -11.208
       1.975  -9.301   0.095   95.520   0.966   166.546
 2.200   1.016  -14.082   0.086   88.633   0.161   85.569
       2.018   163.474   1.024  -10.288   1.967  -11.474
       1.977  -9.519   0.097   95.560   0.968   166.235
 2.250   1.017  -14.426   0.088   88.627   0.165   85.588
       2.023   163.083   1.025  -10.543   1.969  -11.755
       1.979  -9.755   0.100   95.780   0.970   165.905
 2.300   1.018  -14.780   0.091   88.623   0.170   85.587
       2.028   162.674   1.026  -10.818   1.971  -12.043
       1.981  -10.002   0.103   95.826   0.971   165.567
 2.350   1.019  -15.153   0.093   88.515   0.174   85.529
       2.032   162.257   1.027  -11.106   1.973  -12.332
       1.983  -10.246   0.105   95.695   0.973   165.236
 2.400   1.020  -15.509   0.095   88.335   0.178   85.459
       2.036   161.867   1.028  -11.367   1.974  -12.607
       1.984  -10.473   0.108   95.586   0.974   164.922
 2.450   1.021  -15.870   0.098   88.107   0.182   85.315
       2.039   161.470   1.028  -11.634   1.976  -12.886
       1.986  -10.705   0.110   95.514   0.976   164.600
 2.500   1.021  -16.204   0.100   87.839   0.186   85.196
       2.043   161.105   1.029  -11.878   1.978  -13.146
       1.988  -10.920   0.113   95.530   0.978   164.301
 2.600   1.023  -16.864   0.104   87.584   0.194   85.156
       2.052   160.359   1.031  -12.367   1.982  -13.686
       1.992  -11.372   0.117   95.548   0.982   163.672
 2.700   1.025  -17.557   0.108   87.319   0.202   85.081
       2.062   159.598   1.033  -12.867   1.987  -14.243
       1.997  -11.831   0.122   95.639   0.986   163.035
 2.800   1.028  -18.226   0.112   87.153   0.210   85.057
       2.072   158.852   1.035  -13.356   1.992  -14.794
       2.002  -12.289   0.127   95.749   0.990   162.399
 2.900   1.030  -18.920   0.117   86.894   0.218   84.895
       2.082   158.094   1.037  -13.850   1.996  -15.354
       2.007  -12.748   0.132   95.786   0.994   161.761
 3.000   1.032  -19.580   0.121   86.728   0.226   84.813
       2.093   157.378   1.040  -14.333   2.001  -15.885
       2.013  -13.188   0.137   95.944   0.999   161.157
 3.100   1.036  -20.253   0.125   86.701   0.234   84.850
       2.107   156.655   1.043  -14.815   2.008  -16.435
       2.019  -13.640   0.142   96.260   1.004   160.539
 3.200   1.039  -20.954   0.130   86.526   0.243   84.771
       2.119   155.894   1.046  -15.339   2.014  -17.002
       2.026  -14.118   0.148   96.386   1.009   159.896
 3.300   1.042  -21.661   0.134   86.402   0.251   84.687
       2.132   155.143   1.049  -15.864   2.020  -17.564
       2.032  -14.586   0.154   96.528   1.015   159.270
 3.400   1.045  -22.359   0.139   86.297   0.260   84.647
       2.147   154.403   1.052  -16.385   2.027  -18.125
       2.039  -15.057   0.159   96.740   1.021   158.645
 3.500   1.049  -23.069   0.144   86.135   0.269   84.587
       2.161   153.662   1.056  -16.909   2.034  -18.690
       2.046  -15.527   0.165   96.895   1.027   158.022
 3.600   1.052  -23.819   0.149   85.909   0.278   84.456
       2.176   152.880   1.059  -17.462   2.041  -19.285
       2.054  -16.023   0.171   96.977   1.033   157.368
 3.700   1.056  -24.528   0.153   85.817   0.287   84.468
       2.192   152.131   1.063  -17.992   2.049  -19.870
       2.062  -16.516   0.177   97.124   1.040   156.719
 3.800   1.060  -25.278   0.158   85.602   0.296   84.329
       2.208   151.370   1.066  -18.544   2.057  -20.458
       2.070  -17.005   0.183   97.276   1.046   156.085
 3.900   1.064  -26.005   0.163   85.487   0.305   84.274
       2.225   150.610   1.070  -19.093   2.065  -21.054
       2.078  -17.510   0.189   97.398   1.053   155.426
 4.000   1.068  -26.798   0.169   85.235   0.315   84.094
       2.242   149.813   1.074  -19.677   2.074  -21.676
       2.087  -18.027   0.195   97.488   1.061   154.762
 4.100   1.073  -27.546   0.174   85.026   0.325   83.989
       2.260   149.045   1.078  -20.239   2.082  -22.282
       2.096  -18.538   0.202   97.493   1.068   154.103
 4.200   1.077  -28.316   0.179   84.803   0.335   83.848
       2.278   148.274   1.082  -20.811   2.091  -22.896
       2.105  -19.054   0.208   97.619   1.076   153.446
 4.300   1.082  -29.076   0.184   84.676   0.344   83.758
       2.298   147.513   1.087  -21.382   2.101  -23.510
       2.115  -19.571   0.215   97.763   1.084   152.790
 4.400   1.087  -29.878   0.189   84.469   0.355   83.602
       2.318   146.724   1.091  -21.969   2.110  -24.152
       2.125  -20.104   0.222   97.894   1.092   152.114
 4.500   1.092  -30.654   0.195   84.284   0.365   83.476
       2.338   145.952   1.096  -22.552   2.120  -24.782
       2.135  -20.638   0.229   97.965   1.101   151.444
 4.600   1.096  -31.470   0.200   84.021   0.376   83.287
       2.359   145.155   1.101  -23.168   2.130  -25.428
       2.146  -21.183   0.236   97.972   1.109   150.769
 4.700   1.102  -32.272   0.206   83.828   0.386   83.165
       2.381   144.376   1.106  -23.783   2.141  -26.067
       2.157  -21.727   0.243   98.028   1.118   150.105
 4.800   1.108  -33.137   0.212   83.614   0.398   82.937
       2.404   143.550   1.111  -24.425   2.152  -26.752
       2.169  -22.302   0.251   98.131   1.128   149.399
 4.900   1.114  -33.945   0.218   83.398   0.409   82.805
       2.428   142.781   1.117  -25.033   2.165  -27.400
       2.181  -22.849   0.259   98.202   1.138   148.734
 5.000   1.119  -34.778   0.224   83.110   0.420   82.607
       2.451   141.978   1.122  -25.663   2.176  -28.075
       2.193  -23.424   0.266   98.164   1.148   148.033
 5.200   1.132  -36.539   0.236   82.639   0.444   82.197
       2.503   140.316   1.134  -27.008   2.201  -29.487
       2.219  -24.626   0.283   98.199   1.170   146.596
 5.400   1.145  -38.237   0.248   82.138   0.467   81.795
       2.556   138.746   1.146  -28.272   2.228  -30.857
       2.246  -25.779   0.300   98.237   1.192   145.219
 5.600   1.160  -40.084   0.262   81.603   0.493   81.329
       2.615   137.051   1.159  -29.703   2.257  -32.335
       2.275  -27.049   0.318   98.166   1.217   143.748
 5.800   1.175  -41.908   0.275   81.022   0.519   80.821
       2.675   135.394   1.173  -31.083   2.287  -33.818
       2.306  -28.312   0.337   98.055   1.242   142.280
 6.000   1.192  -43.803   0.290   80.510   0.547   80.352
       2.742   133.710   1.188  -32.553   2.320  -35.343
       2.340  -29.622   0.357   97.971   1.270   140.799
 6.200   1.211  -45.743   0.305   79.923   0.576   79.814
       2.811   132.011   1.204  -34.035   2.355  -36.908
       2.374  -30.955   0.377   97.796   1.299   139.297
 6.400   1.230  -47.782   0.321   79.254   0.607   79.189
       2.885   130.246   1.221  -35.619   2.393  -38.547
       2.412  -32.365   0.400   97.561   1.331   137.741
 6.600   1.250  -49.834   0.337   78.582   0.638   78.541
       2.965   128.516   1.240  -37.178   2.433  -40.200
       2.454  -33.773   0.423   97.393   1.365   136.198
 6.800   1.273  -51.885   0.354   77.939   0.671   77.935
       3.049   126.797   1.260  -38.797   2.476  -41.855
       2.498  -35.211   0.447   97.186   1.401   134.662
 7.000   1.298  -54.129   0.372   77.159   0.707   77.172
       3.141   124.910   1.281  -40.561   2.523  -43.688
       2.544  -36.801   0.474   96.757   1.440   132.963
 7.200   1.326  -56.247   0.391   76.564   0.743   76.589
       3.240   123.201   1.305  -42.219   2.575  -45.417
       2.596  -38.290   0.501   96.586   1.482   131.409
 7.400   1.360  -58.614   0.412   75.858   0.785   75.911
       3.358   121.315   1.335  -44.126   2.638  -47.342
       2.658  -39.978   0.533   96.327   1.532   129.704
 7.600   1.396  -60.913   0.434   75.233   0.828   75.260
       3.479   119.516   1.365  -45.938   2.702  -49.229
       2.722  -41.605   0.565   96.075   1.582   128.058
 7.800   1.433  -63.940   0.461   73.837   0.879   73.995
       3.618   117.067   1.397  -48.502   2.773  -51.656
       2.794  -43.804   0.606   95.098   1.642   125.894
 8.000   1.457  -66.069   0.477   72.912   0.915   72.926
       3.708   115.294   1.416  -50.091   2.819  -53.521
       2.839  -45.397   0.631   94.406   1.682   124.175
 8.200   1.517  -69.078   0.511   72.011   0.978   72.115
       3.902   113.074   1.467  -52.657   2.926  -55.924
       2.945  -47.550   0.682   94.005   1.764   122.201
 8.400   1.559  -71.955   0.538   70.831   1.032   70.724
       4.049   110.814   1.503  -54.909   3.002  -58.354
       3.022  -49.659   0.723   93.209   1.827   120.073
 8.600   1.605  -75.607   0.571   68.781   1.096   68.899
       4.221   107.813   1.540  -58.171   3.088  -61.378
       3.107  -52.480   0.776   91.372   1.901   117.364
 8.800   1.662  -78.731   0.603   67.477   1.161   67.506
       4.412   105.317   1.586  -60.844   3.190  -64.113
       3.206  -54.963   0.828   90.254   1.983   114.969
 9.000   1.718  -81.682   0.635   66.197   1.223   66.118
       4.585   102.970   1.629  -63.379   3.281  -66.668
       3.292  -57.255   0.875   89.092   2.054   112.759
 9.200   1.782  -85.428   0.674   64.245   1.299   64.215
       4.804   99.989   1.680  -66.706   3.396  -69.865
       3.405  -60.214   0.937   87.388   2.148   109.984
 9.400   1.860  -89.307   0.717   62.382   1.384   62.223
       5.052   96.956   1.742  -70.061   3.527  -73.228
       3.532  -63.260   1.005   85.791   2.252   107.122
 9.600   1.927  -93.291   0.757   60.032   1.464   59.983
       5.266   93.822   1.788  -73.593   3.639  -76.556
