! Filename:  P:\Prog\Test\Noise\ATS_data\Testdata_Net\Split files Spar\BFU730_2W_B1_Bias6_2.5V_1mA_25mA_D.s2p
! Date/Time: Fri 29/Apr/2011 15:08:32
! BFU730_2W_B1_Bias6_2.5V_1mA_25mA_R.s2p
! MDIF S-parameter v. bias file
! BFU730_2W_B1_2.5V_1mA_25mA
! Date/time Thu Mar 17 13:38:09 2011
! VAR V_out= 2.5000
! VAR I_out= 9.9400
! VAR V_in= 0.7993
! VAR I_in= 0.0309
! Device data file deembeded for feedlines and parallel
! Original file: \Split files Spar\BFU730_2W_B1_Bias6_2.5V_1mA_25mA_R.s2p
! Feed-files: PR003V01_101208_Feed1.s2p, PR003V01_101208_Feed2.s2p
! Parallel-file: PR003V01_101208_Par.s2p
!3-port S-parameters
# GHz S MA R 50
!  Freq-GHz   S11-mag  S11-arg   S12-mag  S12-arg   S13-mag  S13-arg   S21-mag  S21-arg   S22-mag  S22-arg   S23-mag  S23-arg   S31-mag  S31-arg   S32-mag  S32-arg   S33-mag  S33-arg
 0.060   1.195  -8.271   0.118   154.434   0.143   122.149
       2.491   174.150   1.253  -2.115   2.235  -5.330
       2.297  -2.045   0.146  -178.087   1.153   175.681
 0.070   1.134  -8.536   0.102   136.405   0.109   116.117
       2.457   174.738   1.238  -3.252   2.216  -4.014
       2.326  -1.404   0.162   179.962   1.164   177.200
 0.080   1.090  -3.511   0.054   147.582   0.057   138.089
       2.398  -178.428   1.196   2.257   2.202   0.486
       2.313   3.284   0.168  -153.014   1.161  -177.213
 0.090   1.001   0.980   0.009  -87.858   0.008  -101.414
       2.168  -172.282   1.088   7.531   2.075   4.106
       2.164   7.273   0.155  -120.612   1.077  -172.497
 0.100   0.928   3.368   0.047  -44.156   0.046  -28.765
       2.000  -170.348   1.022   9.371   1.970   4.917
       2.064   7.817   0.140  -107.425   1.014  -171.666
 0.120   0.839   5.223   0.084  -46.040   0.107  -8.532
       1.724  -171.809   0.929   9.620   1.792   2.887
       1.878   5.168   0.098  -75.061   0.898  -175.250
 0.140   0.853   1.914   0.052  -52.254   0.116   6.238
       1.696  -178.953   0.934   4.965   1.766  -1.617
       1.842   0.077   0.055  -46.284   0.881   177.580
 0.160   0.921  -2.062   0.010  -31.338   0.081   28.158
       1.885   174.950   0.983   0.365   1.903  -5.191
       1.962  -3.881   0.009  -7.448   0.976   172.109
 0.180   1.006   0.183   0.006  -47.956   0.011   172.016
       2.161   177.522   1.043   1.348   2.120  -3.190
       2.155  -2.571   0.051  -156.907   1.113   173.989
 0.200   1.013   9.555   0.077  -60.517   0.107  -109.985
       2.199  -170.938   1.005   9.846   2.189   4.575
       2.181   4.691   0.108  -105.189   1.147  -176.305
 0.220   0.956   15.014   0.130  -60.280   0.136  -84.825
       1.938  -164.736   0.911   14.661   2.008   8.005
       1.964   7.682   0.130  -65.326   1.011  -171.787
 0.240   0.930   11.185   0.103  -64.287   0.098  -63.715
       1.718  -169.767   0.857   10.255   1.853   4.721
       1.783   4.015   0.127  -28.226   0.892  -175.825
 0.260   0.968   3.152   0.034  -74.299   0.032  -40.376
       1.728  -179.858   0.872   1.938   1.856  -0.779
       1.762  -1.591   0.119   1.387   0.882   177.006
 0.280   1.051  -4.596   0.041   102.121   0.059   131.369
       1.942   171.800   0.927  -5.946   2.009  -5.170
       1.885  -5.872   0.103   32.690   0.972   171.895
 0.300   1.149  -6.023   0.064   100.526   0.143   156.156
       2.255   172.260   0.997  -7.293   2.253  -4.510
       2.100  -5.003   0.068   70.266   1.121   173.890
 0.320   1.167  -0.086   0.018   119.625   0.159  -175.013
       2.337  -178.850   1.014  -1.208   2.324   1.685
       2.170   1.285   0.008   132.638   1.166  -177.320
 0.340   1.066   3.355   0.016  -71.173   0.084  -145.730
       2.049  -173.319   0.952   2.344   2.094   5.467
       1.979   5.103   0.050  -28.357   1.027  -171.462
 0.360   0.977  -0.626   0.018   44.982   0.010  -12.679
       1.800  -177.124   0.900  -0.794   1.901   3.100
       1.824   3.175   0.087  -0.268   0.914  -173.680
 0.380   0.914  -8.155   0.079   63.137   0.084   44.675
       1.688   173.570   0.875  -8.205   1.813  -2.030
       1.774  -1.920   0.112   28.805   0.871   179.642
 0.400   0.902  -13.943   0.123   60.504   0.127   59.780
       1.789   165.565   0.904  -14.347   1.870  -6.816
       1.871  -7.019   0.133   61.533   0.927   173.056
 0.420   0.959  -12.970   0.106   63.265   0.122   81.599
       2.087   165.850   1.009  -13.943   2.062  -7.443
       2.110  -8.036   0.151   100.174   1.072   172.139
 0.440   1.024  -4.435   0.029   84.339   0.055   115.236
       2.307   175.238   1.108  -6.231   2.199  -1.858
       2.281  -2.823   0.138   138.779   1.174   178.963
 0.460   1.005   5.107   0.046  -126.002   0.058  -64.217
       2.189  -173.739   1.116   2.340   2.069   5.354
       2.179   3.925   0.089  -174.357   1.095  -172.630
 0.480   0.933   5.471   0.029  -136.220   0.115  -36.653
       1.904  -172.717   1.042   2.265   1.859   6.185
       1.966   4.448   0.029  -133.540   0.949  -172.028
 0.500   0.880   1.068   0.027   83.476   0.125  -20.192
       1.736  -178.914   0.984  -2.597   1.754   2.531
       1.856   0.510   0.023   51.923   0.871  -177.738
 0.550   1.041  -0.441   0.011   164.672   0.031   170.321
       2.242   173.687   1.128  -4.195   2.109  -4.458
       2.200  -6.222   0.140   145.296   1.084   171.579
 0.600   1.146   13.616   0.143  -116.128   0.150  -109.600
       2.258  -164.889   1.148   13.968   2.089   8.575
       2.091   8.774   0.157  -108.963   1.030  -170.462
 0.650   0.991  -1.405   0.009  -98.221   0.034   71.511
       1.801   179.086   0.952   2.863   1.852  -2.360
       1.811  -0.141   0.064  -37.709   0.863   177.105
 0.700   1.170  -7.749   0.068   167.311   0.170   122.977
       2.359   172.988   1.124  -0.224   2.236  -7.286
       2.186  -3.415   0.058  -169.576   1.134   172.868
 0.750   0.940   0.499   0.039   16.854   0.029  -41.608
       1.909  -171.353   0.912   6.652   1.990   5.231
       1.967   8.151   0.130  -64.281   1.017  -170.839
 0.800   0.752  -0.178   0.130  -6.211   0.120   7.846
       1.499   177.877   0.748  -0.105   1.750  -1.773
       1.746  -1.745   0.124   7.139   0.869   177.508
 0.850   1.027  -0.148   0.015  -133.627   0.021   139.136
       2.130   173.189   0.998  -5.171   2.128  -4.385
       2.103  -6.825   0.103   80.431   1.115   172.331
 0.900   1.070   9.515   0.031  -153.335   0.165  -99.478
       2.147  -170.023   1.033   1.766   2.110   9.279
       2.069   5.413   0.018  -104.608   1.070  -170.460
 0.950   0.965   1.203   0.024   53.939   0.045  -61.719
       1.744  -179.810   0.921  -4.021   1.826   2.208
       1.779  -0.466   0.081   34.101   0.847  -177.907
 1.000   1.107  -13.542   0.127   108.500   0.143   104.515
       2.150   163.716   1.095  -14.690   2.031  -9.214
       2.017  -9.810   0.158   96.978   0.986   169.105
 1.050   1.200  -4.774   0.086   144.028   0.136   158.705
       2.621   179.769   1.270  -1.532   2.351   0.570
       2.426   2.110   0.200  -175.217   1.227  -176.608
 1.100   0.889   5.698   0.076  -65.232   0.085  -12.864
       1.837  -169.290   0.995   10.026   1.832   5.263
       1.936   7.509   0.105  -96.579   0.920  -170.674
 1.150   0.867  -0.188   0.033  -84.049   0.134   15.219
       1.690   177.402   0.959   2.461   1.734  -3.895
       1.823  -2.319   0.039  -12.922   0.864   174.515
 1.200   1.056  -2.383   0.040   158.474   0.034   120.394
       2.232   173.669   1.095  -1.634   2.134  -5.778
       2.173  -5.340   0.059   163.943   1.122   170.465
 1.250   1.093   13.173   0.085  -81.771   0.182  -114.904
       2.305  -165.750   1.033   12.796   2.252   8.646
       2.193   8.346   0.146  -97.768   1.163  -171.436
 1.300   0.949   9.551   0.075  -46.955   0.104  -82.665
       1.721  -167.989   0.835   8.989   1.873   6.985
       1.760   6.553   0.145  -31.407   0.881  -171.840
 1.350   0.927  -7.017   0.077   40.955   0.067   70.832
       1.642   171.761   0.810  -6.806   1.826  -4.375
       1.709  -4.095   0.145   18.362   0.846   174.817
 1.400   1.014  -15.851   0.112   58.775   0.184   100.629
       2.087   162.050   0.936  -15.129   2.120  -10.848
       2.043  -10.326   0.153   75.427   1.071   168.262
 1.450   1.105  -1.531   0.021  -178.696   0.088   160.144
       2.461  -179.544   1.132  -2.004   2.331   1.456
       2.358   1.194   0.117   160.028   1.250  -175.909
 1.500   0.925   7.157   0.049  -105.056   0.117  -35.906
       1.896  -169.205   1.023   5.062   1.863   8.175
       1.959   7.032   0.044  -97.856   0.959  -168.176
 1.550   0.850   1.321   0.010   87.389   0.152  -11.029
       1.628  -179.560   0.959  -1.837   1.669   1.485
       1.777  -0.229   0.046   27.469   0.818  -179.012
 1.600   0.937  -4.689   0.052   100.081   0.080   18.787
       1.868   168.953   1.030  -8.487   1.826  -6.474
       1.921  -8.425   0.102   95.518   0.908   168.548
 1.650   1.255  -1.656   0.107   175.019   0.150   169.655
       2.670   173.217   1.295  -3.380   2.370  -5.786
       2.413  -6.640   0.199   160.259   1.228   170.065
 1.700   1.306   13.032   0.156  -128.266   0.247  -135.666
       2.693  -164.437   1.257   14.987   2.413   9.481
       2.360   10.444   0.234  -120.119   1.225  -169.405
 1.750   1.024   8.799   0.055  -81.724   0.104  -101.149
       1.894  -164.148   0.937   13.371   1.934   8.944
       1.845   11.271   0.181  -63.664   0.912  -167.417
 1.800   0.855  -4.273   0.091   14.369   0.072   34.796
       1.521  -179.752   0.777   2.265   1.744  -0.793
       1.670   2.412   0.145  -21.539   0.804  -178.788
 1.850   0.811  -12.492   0.127   16.018   0.165   58.336
       1.584   165.848   0.763  -6.365   1.803  -9.662
       1.757  -6.926   0.130   22.400   0.879   169.361
 1.900   0.938  -11.856   0.077   21.990   0.164   86.256
       2.088   164.317   0.920  -9.511   2.144  -11.096
       2.126  -10.075   0.125   80.109   1.142   167.420
 1.950   1.072   3.327   0.039  -107.368   0.063  -156.620
       2.471  -177.211   1.101   0.744   2.369   2.562
       2.399   1.386   0.092   165.685   1.311  -176.470
 2.000   0.937   13.543   0.069  -79.058   0.170  -63.388
       1.985  -164.211   0.984   7.356   1.978   12.085
       2.025   9.113   0.059  -79.568   1.043  -165.431
 2.050   0.856   11.259   0.054  -52.652   0.178  -44.264
       1.623  -168.774   0.894   3.316   1.720   8.840
       1.759   4.855   0.075  -6.568   0.839  -170.372
 2.100   0.889   3.602   0.017  -38.868   0.109  -24.473
       1.593   178.463   0.912  -3.562   1.682   0.474
       1.708  -3.310   0.102   41.464   0.782   177.725
 2.150   1.041  -5.929   0.063   144.550   0.073   77.354
       1.907   165.910   1.041  -10.472   1.847  -8.567
       1.849  -11.126   0.155   79.697   0.866   166.359
 2.200   1.340  -12.972   0.200   149.653   0.240   123.722
       2.642   161.606   1.334  -12.736   2.271  -13.745
       2.265  -13.609   0.232   123.648   1.125   162.427
 2.250   1.641  -4.749   0.299   171.540   0.353   164.880
       3.422   177.836   1.630  -0.133   2.793  -2.575
       2.784   0.137   0.337  -173.147   1.450   178.676
 2.300   1.295   5.957   0.143  -164.819   0.178  -147.015
       2.641  -163.837   1.284   13.457   2.328   10.798
       2.327   14.957   0.284  -112.934   1.188  -163.394
 2.350   0.928   3.181   0.022  -5.244   0.071  -44.138
       1.821  -164.199   0.946   12.192   1.851   9.200
       1.878   13.680   0.205  -75.077   0.912  -164.319
 2.400   0.750  -0.631   0.101   5.573   0.150  -0.580
       1.422  -172.613   0.780   6.919   1.638   3.108
       1.671   6.564   0.163  -39.684   0.790  -173.660
 2.450   0.711  -2.821   0.118   5.713   0.174   7.658
       1.348   176.872   0.738   0.686   1.610  -2.934
       1.637  -1.351   0.146  -8.121   0.783   175.665
 2.500   0.785  -4.863   0.100   14.001   0.129   19.239
       1.536   167.422   0.778  -6.356   1.744  -8.189
       1.738  -8.869   0.144   25.441   0.872   166.340
 2.600   1.248  -2.360   0.066   120.728   0.213  -178.569
       2.746   170.943   1.139  -10.837   2.602  -4.807
       2.494  -8.784   0.179   118.474   1.398   170.803
 2.700   1.124   15.922   0.068  -89.933   0.254  -108.521
       2.261  -159.762   1.048   9.108   2.175   16.455
       2.095   13.072   0.105  -109.724   1.073  -159.526
 2.800   0.882   1.371   0.057  -26.563   0.067   3.751
       1.552  -175.877   0.879   2.307   1.671   2.613
       1.669   3.108   0.071  -8.013   0.741  -173.755
 2.900   0.864  -14.318   0.046   41.012   0.224   55.106
       1.678   161.898   0.940  -7.397   1.710  -13.538
       1.784  -9.929   0.097   69.978   0.820   164.665
 3.000   1.120  -12.410   0.061   152.657   0.217   100.705
       2.683   165.142   1.254  -4.827   2.415  -13.956
       2.539  -10.145   0.210   158.354   1.355   164.170
 3.100   0.951   20.045   0.146  -65.428   0.198  -76.599
       2.226  -154.569   0.988   21.913   2.175   15.669
       2.209   16.573   0.236  -84.450   1.207  -160.903
 3.200   0.758   17.874   0.146  -40.778   0.217  -39.178
       1.395  -160.461   0.729   12.579   1.632   10.869
       1.611   8.356   0.189  -19.666   0.790  -167.537
 3.300   0.863   2.552   0.049  -39.288   0.100  -4.354
       1.412   173.991   0.777  -4.308   1.632  -3.142
       1.553  -6.887   0.208   25.438   0.736   172.421
 3.400   1.215  -17.904   0.165   119.517   0.242   107.988
       2.283   151.215   1.096  -23.859   2.104  -18.173
       1.983  -21.478   0.310   75.247   1.018   155.232
 3.500   2.066  -5.922   0.456   163.167   0.624   172.532
       4.426   175.601   1.988  -7.413   3.442  -1.381
       3.360  -2.153   0.549   166.904   1.823   179.941
 3.600   1.142   11.751   0.124  -138.063   0.152  -99.709
       2.262  -155.189   1.178   17.470   2.020   17.153
       2.064   20.319   0.272  -96.560   1.008  -153.747
 3.700   0.806  -0.705   0.036  -21.061   0.163   8.028
       1.400  -171.817   0.851   8.074   1.545   2.957
       1.594   7.543   0.164  -40.791   0.711  -171.722
 3.800   0.747  -11.347   0.061   31.107   0.245   28.132
       1.389   164.799   0.823  -4.561   1.550  -11.121
       1.623  -7.697   0.132   14.918   0.759   166.007
 3.900   0.949  -18.244   0.089   88.689   0.230   65.202
       2.138   153.825   1.011  -14.640   2.058  -19.509
       2.118  -17.754   0.168   83.271   1.142   155.209
 4.000   1.356   12.103   0.119  -153.959   0.319  -133.365
       3.319  -168.541   1.347   6.961   2.958   9.656
       2.951   7.302   0.255  -154.217   1.717  -171.158
 4.100   0.917   24.173   0.076  -60.225   0.335  -67.864
       1.905  -149.532   0.910   13.849   1.912   23.046
       1.900   18.111   0.172  -62.450   0.988  -153.647
 4.200   0.814   11.373   0.057  -3.417   0.214  -47.330
       1.358  -166.950   0.787   1.254   1.564   10.667
       1.532   5.473   0.157  -5.038   0.694  -169.010
 4.300   0.875  -5.735   0.078   67.065   0.100   8.785
       1.418   166.313   0.833  -13.253   1.573  -5.268
       1.527  -9.347   0.198   36.861   0.677   169.002
 4.400   1.174  -27.340   0.239   100.382   0.304   89.904
       2.238   142.896   1.128  -29.413   1.970  -23.832
       1.922  -24.962   0.324   79.263   0.942   148.474
 4.500   2.360  -24.681   0.615   140.075   0.895   138.717
       5.227   155.880   2.287  -20.775   3.867  -20.039
       3.804  -17.604   0.785   148.002   2.093   159.460
 4.600   1.495   17.178   0.219  -140.217   0.398  -130.790
       3.180  -147.240   1.432   26.939   2.627   24.092
       2.585   29.667   0.520  -101.993   1.375  -145.882
 4.700   0.852   4.823   0.065  -1.506   0.111  -39.248
       1.522  -156.729   0.813   16.225   1.660   13.024
       1.637   18.877   0.273  -55.641   0.766  -156.605
 4.800   0.654  -9.109   0.157   16.584   0.212   16.118
       1.112   178.997   0.663   2.119   1.450  -1.738
       1.468   3.284   0.200  -20.285   0.653  -178.691
 4.900   0.627  -19.142   0.185   21.101   0.273   30.627
       1.230   154.950   0.656  -11.591   1.523  -14.807
       1.554  -11.702   0.196   19.399   0.750   160.514
 5.000   0.790  -25.681   0.180   38.303   0.273   57.509
       1.984   143.581   0.835  -25.380   2.016  -23.993
       2.062  -23.909   0.267   67.144   1.151   149.194
 5.200   0.809   26.510   0.125  -34.720   0.338  -59.070
       2.001  -144.580   0.923   16.703   1.962   27.118
       2.068   22.727   0.195  -86.007   1.101  -146.712
 5.400   0.592  -5.941   0.156   15.013   0.261   4.591
       1.080   175.675   0.717  -5.882   1.365  -0.338
       1.488  -0.777   0.140   13.606   0.625  -178.822
 5.600   0.841  -21.269   0.143   48.944   0.232   58.310
       2.275   141.279   1.092  -27.102   2.027  -27.178
       2.284  -29.316   0.395   99.659   1.177   141.775
 5.800   0.860   49.189   0.333  -49.352   0.455  -61.017
       2.274  -126.652   0.963   45.777   2.032   33.935
       2.145   33.170   0.451  -75.769   1.168  -140.920
 6.000   0.684   18.503   0.192  -37.290   0.223  -26.807
       1.061  -163.698   0.639   14.970   1.407   5.411
       1.372   3.374   0.235  -11.913   0.600  -176.918
 6.200   0.992  -15.731   0.072   42.707   0.220   92.003
       1.800   144.025   0.797  -20.485   1.879  -24.474
       1.696  -27.696   0.305   48.880   0.898   141.514
 6.400   2.125   48.102   0.478  -103.162   1.158  -105.525
       4.784  -130.280   1.650   37.913   3.839   43.361
       3.381   37.721   0.581  -109.409   2.122  -134.254
 6.600   0.860   13.610   0.109  -61.769   0.155  -43.344
       1.288  -158.798   0.764   10.297   1.486   12.798
       1.390   10.921   0.201  -11.561   0.604  -158.350
 6.800   0.866  -25.311   0.118   72.172   0.315   54.956
       1.392   143.136   0.811  -23.473   1.462  -20.490
       1.409  -19.247   0.304   43.822   0.606   155.239
 7.000   3.586  -67.948   1.282   100.109   2.065   93.369
       8.866   115.488   3.605  -58.354   5.736  -59.351
       5.825  -53.451   1.925   110.249   3.392   122.102
 7.200   0.970   20.258   0.157  -94.395   0.206  -60.191
       1.754  -137.048   0.951   31.583   1.631   25.319
       1.621   32.024   0.396  -59.338   0.775  -138.026
 7.400   0.701  -17.209   0.073   44.228   0.319   29.369
       1.069   162.344   0.754  -5.466   1.293  -11.260
       1.354  -4.950   0.198   6.074   0.554   170.032
 7.600   1.100  -59.367   0.332   80.504   0.729   58.121
       2.665   116.909   1.186  -41.661   2.065  -50.268
       2.181  -40.995   0.465   82.706   1.198   126.035
 7.800   0.822   18.108   0.085  -44.502   0.252  -51.024
       1.887  -130.011   0.894   35.783   1.750   31.796
       1.862   39.717   0.510  -65.217   0.972  -131.635
 8.000   0.563  -1.516   0.141   18.434   0.304  -5.611
       0.898  -163.241   0.594   4.938   1.285   9.307
       1.325   11.926   0.290  -19.267   0.598  -162.670
 8.200   0.559  -32.759   0.213   32.724   0.398   28.065
       1.305   132.014   0.666  -24.845   1.444  -28.522
       1.554  -25.424   0.272   37.246   0.798   141.008
 8.400   2.127   12.761   0.287  -166.993   0.892  -152.989
       7.986  -159.674   2.597   14.652   6.340   19.507
       6.815   19.760   1.368  -154.340   4.518  -157.735
 8.600   0.435   20.823   0.267  -7.686   0.349  -19.952
       0.925  -140.268   0.508   19.525   1.302   18.871
       1.375   18.494   0.289  -27.631   0.636  -151.657
 8.800   0.445   0.998   0.251  -3.770   0.305   1.649
       0.763   162.647   0.494  -6.541   1.249  -7.880
       1.305  -10.388   0.269   15.720   0.566   163.311
 9.000   0.574  -25.950   0.218   11.187   0.342   37.684
       1.718   123.920   0.682  -33.213   1.742  -37.159
       1.860  -39.149   0.395   56.957   1.070   127.983
 9.200   0.673   54.165   0.297  -38.139   0.520  -44.239
       2.406  -113.129   0.849   49.769   2.097   48.243
       2.277   47.064   0.514  -64.876   1.427  -122.621
 9.400   0.454   19.254   0.230  -23.059   0.365  -9.462
       0.759  -153.348   0.521   14.861   1.193   9.986
       1.264   8.673   0.289  -8.680   0.555  -164.633
 9.600   0.538  -0.103   0.155  -23.258   0.325   11.034
