! Filename:  P:\Prog\Test\Noise\ATS_data\Testdata_Net\Split files Spar\BFU730_2W_B1_Bias5_2.5V_1mA_25mA_D.s2p
! Date/Time: Fri 29/Apr/2011 15:08:25
! BFU730_2W_B1_Bias5_2.5V_1mA_25mA_R.s2p
! MDIF S-parameter v. bias file
! BFU730_2W_B1_2.5V_1mA_25mA
! Date/time Thu Mar 17 13:38:09 2011
! VAR V_out= 2.5000
! VAR I_out= 7.5600
! VAR V_in= 0.7941
! VAR I_in= 0.0222
! Device data file deembeded for feedlines and parallel
! Original file: \Split files Spar\BFU730_2W_B1_Bias5_2.5V_1mA_25mA_R.s2p
! Feed-files: PR003V01_101208_Feed1.s2p, PR003V01_101208_Feed2.s2p
! Parallel-file: PR003V01_101208_Par.s2p
!3-port S-parameters
# GHz S MA R 50
!  Freq-GHz   S11-mag  S11-arg   S12-mag  S12-arg   S13-mag  S13-arg   S21-mag  S21-arg   S22-mag  S22-arg   S23-mag  S23-arg   S31-mag  S31-arg   S32-mag  S32-arg   S33-mag  S33-arg
 0.060   0.994  -0.412   0.002   85.911   0.008   38.436
       1.825   179.452   0.999  -0.263   1.826  -0.404
       1.831  -0.322   0.002   80.607   0.832   179.457
 0.070   0.994  -0.471   0.002   83.257   0.008   42.398
       1.825   179.399   0.999  -0.311   1.826  -0.431
       1.832  -0.343   0.003   82.871   0.832   179.447
 0.080   0.994  -0.540   0.003   84.460   0.009   46.500
       1.827   179.311   0.999  -0.355   1.827  -0.495
       1.833  -0.394   0.003   84.254   0.833   179.367
 0.090   0.994  -0.611   0.003   85.417   0.010   49.874
       1.827   179.209   0.999  -0.404   1.827  -0.570
       1.833  -0.457   0.004   85.198   0.833   179.261
 0.100   0.994  -0.676   0.004   85.921   0.010   52.621
       1.826   179.132   0.999  -0.451   1.826  -0.621
       1.832  -0.498   0.004   85.708   0.833   179.204
 0.120   0.994  -0.819   0.004   87.091   0.012   57.895
       1.826   178.958   1.000  -0.550   1.827  -0.741
       1.833  -0.594   0.005   86.949   0.833   179.059
 0.140   0.994  -0.957   0.005   87.792   0.013   61.744
       1.827   178.785   1.000  -0.647   1.827  -0.861
       1.833  -0.692   0.006   87.919   0.833   178.910
 0.160   0.994  -1.097   0.006   88.305   0.015   64.896
       1.826   178.603   1.000  -0.742   1.826  -0.991
       1.832  -0.798   0.007   88.298   0.833   178.741
 0.180   0.994  -1.235   0.006   88.626   0.016   67.508
       1.827   178.439   1.000  -0.837   1.827  -1.103
       1.833  -0.886   0.008   88.663   0.833   178.610
 0.200   0.994  -1.375   0.007   89.184   0.018   69.611
       1.827   178.256   1.000  -0.933   1.827  -1.233
       1.833  -0.993   0.009   89.074   0.833   178.441
 0.220   0.994  -1.516   0.008   89.413   0.019   71.261
       1.828   178.084   1.000  -1.032   1.827  -1.352
       1.833  -1.088   0.010   89.323   0.833   178.296
 0.240   0.994  -1.653   0.009   89.678   0.021   72.691
       1.829   177.907   1.000  -1.125   1.828  -1.478
       1.834  -1.191   0.011   89.788   0.834   178.134
 0.260   0.994  -1.797   0.009   89.919   0.023   74.089
       1.828   177.723   1.000  -1.226   1.827  -1.606
       1.833  -1.295   0.012   89.941   0.833   177.971
 0.280   0.994  -1.937   0.010   90.352   0.024   75.111
       1.829   177.549   1.000  -1.320   1.828  -1.729
       1.834  -1.393   0.013   90.227   0.834   177.820
 0.300   0.995  -2.079   0.011   90.298   0.026   76.125
       1.829   177.369   1.000  -1.421   1.828  -1.855
       1.834  -1.496   0.014   90.481   0.834   177.661
 0.320   0.995  -2.221   0.012   90.407   0.028   76.887
       1.829   177.191   1.001  -1.520   1.827  -1.978
       1.833  -1.596   0.015   90.478   0.833   177.508
 0.340   0.995  -2.361   0.012   90.574   0.029   77.629
       1.829   177.012   1.001  -1.616   1.828  -2.104
       1.834  -1.699   0.016   90.593   0.834   177.346
 0.360   0.995  -2.503   0.013   90.657   0.031   78.228
       1.829   176.840   1.001  -1.718   1.828  -2.222
       1.834  -1.794   0.017   90.455   0.834   177.205
 0.380   0.995  -2.645   0.014   90.706   0.033   78.802
       1.830   176.667   1.001  -1.814   1.828  -2.343
       1.834  -1.890   0.018   90.567   0.834   177.058
 0.400   0.995  -2.782   0.015   90.637   0.034   79.291
       1.831   176.500   1.001  -1.904   1.829  -2.461
       1.835  -1.983   0.019   90.572   0.835   176.912
 0.420   0.995  -2.921   0.016   90.698   0.036   79.672
       1.832   176.328   1.001  -1.997   1.829  -2.583
       1.835  -2.080   0.019   90.917   0.835   176.757
 0.440   0.995  -3.066   0.016   90.820   0.038   80.147
       1.832   176.142   1.001  -2.101   1.829  -2.712
       1.835  -2.186   0.020   90.954   0.835   176.596
 0.460   0.995  -3.206   0.017   90.904   0.039   80.484
       1.833   175.975   1.001  -2.195   1.830  -2.828
       1.836  -2.278   0.021   91.055   0.835   176.454
 0.480   0.995  -3.350   0.018   90.924   0.041   80.838
       1.833   175.788   1.002  -2.300   1.829  -2.958
       1.835  -2.387   0.022   91.322   0.835   176.291
 0.500   0.996  -3.494   0.019   90.963   0.043   81.131
       1.833   175.602   1.002  -2.405   1.829  -3.087
       1.835  -2.494   0.023   91.168   0.835   176.128
 0.550   0.996  -3.842   0.020   90.908   0.047   81.866
       1.834   175.174   1.002  -2.641   1.830  -3.389
       1.836  -2.735   0.026   90.972   0.836   175.753
 0.600   0.996  -4.197   0.022   90.947   0.051   82.323
       1.836   174.746   1.002  -2.879   1.831  -3.688
       1.838  -2.971   0.028   91.291   0.837   175.386
 0.650   0.997  -4.556   0.024   91.059   0.055   82.826
       1.837   174.289   1.003  -3.134   1.831  -4.009
       1.837  -3.234   0.030   91.424   0.837   174.983
 0.700   0.997  -4.920   0.026   91.101   0.060   83.145
       1.838   173.834   1.003  -3.396   1.831  -4.321
       1.837  -3.491   0.033   91.288   0.837   174.598
 0.750   0.997  -5.271   0.028   91.075   0.064   83.445
       1.840   173.417   1.003  -3.629   1.832  -4.614
       1.838  -3.721   0.035   91.317   0.838   174.244
 0.800   0.998  -5.623   0.030   90.964   0.068   83.652
       1.842   173.001   1.004  -3.858   1.834  -4.911
       1.840  -3.950   0.037   91.709   0.839   173.886
 0.850   0.998  -5.989   0.032   91.031   0.072   83.850
       1.844   172.542   1.005  -4.118   1.834  -5.231
       1.840  -4.212   0.040   91.904   0.839   173.487
 0.900   0.999  -6.350   0.034   91.058   0.077   84.048
       1.845   172.089   1.005  -4.374   1.834  -5.547
       1.841  -4.471   0.043   91.682   0.840   173.093
 0.950   0.999  -6.707   0.036   91.003   0.081   84.152
       1.847   171.674   1.005  -4.608   1.835  -5.840
       1.842  -4.697   0.045   91.660   0.841   172.748
 1.000   1.000  -7.057   0.038   90.927   0.085   84.265
       1.850   171.245   1.006  -4.850   1.836  -6.142
       1.843  -4.941   0.047   91.962   0.842   172.373
 1.050   1.000  -7.417   0.040   90.893   0.089   84.321
       1.852   170.806   1.006  -5.100   1.837  -6.452
       1.844  -5.190   0.049   92.055   0.843   171.993
 1.100   1.001  -7.777   0.042   90.890   0.094   84.398
       1.854   170.369   1.007  -5.352   1.838  -6.756
       1.844  -5.436   0.052   91.985   0.843   171.622
 1.150   1.001  -8.134   0.044   90.849   0.098   84.463
       1.857   169.948   1.007  -5.584   1.840  -7.059
       1.846  -5.671   0.054   92.169   0.845   171.255
 1.200   1.002  -8.489   0.046   90.768   0.102   84.473
       1.859   169.521   1.008  -5.827   1.841  -7.361
       1.847  -5.912   0.056   92.364   0.846   170.887
 1.250   1.002  -8.863   0.048   90.799   0.107   84.505
       1.862   169.057   1.009  -6.097   1.841  -7.686
       1.848  -6.180   0.059   92.454   0.847   170.487
 1.300   1.003  -9.225   0.050   90.752   0.111   84.543
       1.864   168.624   1.009  -6.343   1.842  -7.994
       1.849  -6.425   0.061   92.441   0.848   170.114
 1.350   1.004  -9.580   0.052   90.700   0.115   84.563
       1.868   168.206   1.010  -6.580   1.844  -8.293
       1.851  -6.661   0.064   92.592   0.849   169.752
 1.400   1.004  -9.942   0.054   90.668   0.120   84.562
       1.871   167.774   1.011  -6.827   1.845  -8.602
       1.853  -6.907   0.066   92.759   0.850   169.379
 1.450   1.005  -10.306   0.056   90.622   0.124   84.543
       1.874   167.339   1.012  -7.079   1.847  -8.912
       1.854  -7.156   0.069   92.848   0.852   169.004
 1.500   1.006  -10.667   0.058   90.597   0.129   84.547
       1.877   166.906   1.013  -7.326   1.848  -9.221
       1.855  -7.403   0.071   92.933   0.853   168.629
 1.550   1.007  -11.028   0.060   90.561   0.133   84.560
       1.880   166.474   1.013  -7.571   1.849  -9.534
       1.857  -7.652   0.073   93.077   0.854   168.248
 1.600   1.007  -11.393   0.062   90.517   0.137   84.520
       1.884   166.036   1.014  -7.824   1.850  -9.848
       1.858  -7.906   0.076   93.224   0.855   167.865
 1.650   1.008  -11.774   0.064   90.510   0.142   84.467
       1.887   165.581   1.015  -8.088   1.851  -10.173
       1.859  -8.167   0.079   93.271   0.856   167.473
 1.700   1.009  -12.131   0.066   90.489   0.146   84.474
       1.891   165.158   1.016  -8.333   1.853  -10.479
       1.861  -8.412   0.081   93.358   0.858   167.105
 1.750   1.010  -12.496   0.069   90.454   0.151   84.447
       1.895   164.724   1.017  -8.588   1.855  -10.792
       1.863  -8.665   0.083   93.515   0.860   166.725
 1.800   1.011  -12.880   0.071   90.448   0.155   84.400
       1.898   164.271   1.018  -8.853   1.856  -11.118
       1.865  -8.926   0.086   93.626   0.861   166.336
 1.850   1.012  -13.252   0.073   90.423   0.160   84.367
       1.903   163.834   1.019  -9.109   1.858  -11.436
       1.866  -9.181   0.089   93.720   0.863   165.956
 1.900   1.013  -13.613   0.075   90.431   0.164   84.365
       1.907   163.405   1.020  -9.357   1.860  -11.752
       1.869  -9.436   0.091   93.935   0.864   165.573
 1.950   1.014  -13.994   0.077   90.463   0.169   84.307
       1.911   162.950   1.022  -9.627   1.861  -12.081
       1.870  -9.704   0.094   94.039   0.866   165.175
 2.000   1.015  -14.392   0.079   90.451   0.174   84.245
       1.916   162.477   1.023  -9.916   1.863  -12.420
       1.872  -9.983   0.097   94.055   0.867   164.768
 2.050   1.016  -14.780   0.082   90.340   0.178   84.138
       1.919   162.022   1.024  -10.192   1.864  -12.746
       1.873  -10.248   0.100   93.986   0.869   164.378
 2.100   1.017  -15.160   0.084   90.314   0.183   84.089
       1.924   161.579   1.025  -10.453   1.866  -13.071
       1.875  -10.508   0.102   94.063   0.870   163.991
 2.150   1.018  -15.547   0.086   90.210   0.188   83.991
       1.928   161.132   1.026  -10.731   1.867  -13.391
       1.877  -10.767   0.105   94.054   0.872   163.613
 2.200   1.019  -15.922   0.088   90.059   0.192   83.895
       1.932   160.702   1.027  -10.981   1.869  -13.710
       1.878  -11.019   0.107   94.092   0.873   163.235
 2.250   1.020  -16.306   0.091   90.107   0.197   83.821
       1.937   160.249   1.028  -11.254   1.871  -14.045
       1.881  -11.293   0.110   94.288   0.875   162.835
 2.300   1.021  -16.708   0.093   90.087   0.202   83.737
       1.942   159.779   1.030  -11.549   1.873  -14.385
       1.883  -11.574   0.113   94.333   0.877   162.431
 2.350   1.022  -17.127   0.096   89.972   0.207   83.591
       1.946   159.300   1.030  -11.855   1.874  -14.725
       1.884  -11.852   0.116   94.182   0.878   162.036
 2.400   1.023  -17.523   0.098   89.790   0.211   83.457
       1.951   158.859   1.031  -12.129   1.875  -15.046
       1.886  -12.107   0.119   94.099   0.880   161.663
 2.450   1.024  -17.922   0.100   89.582   0.216   83.278
       1.955   158.405   1.032  -12.410   1.877  -15.375
       1.887  -12.372   0.122   94.041   0.881   161.276
 2.500   1.024  -18.307   0.103   89.339   0.221   83.100
       1.959   157.967   1.033  -12.680   1.878  -15.696
       1.889  -12.631   0.124   94.038   0.883   160.899
 2.600   1.026  -19.069   0.107   89.101   0.230   82.899
       1.968   157.094   1.035  -13.212   1.882  -16.346
       1.893  -13.156   0.130   94.062   0.887   160.135
 2.700   1.028  -19.858   0.112   88.892   0.240   82.682
       1.979   156.202   1.037  -13.757   1.886  -17.017
       1.897  -13.694   0.135   94.133   0.891   159.353
 2.800   1.031  -20.629   0.116   88.770   0.249   82.523
       1.990   155.331   1.040  -14.288   1.890  -17.681
       1.902  -14.227   0.141   94.225   0.895   158.581
 2.900   1.033  -21.434   0.121   88.543   0.259   82.216
       2.001   154.428   1.042  -14.838   1.893  -18.367
       1.906  -14.773   0.147   94.222   0.899   157.787
 3.000   1.036  -22.194   0.125   88.390   0.269   82.000
       2.013   153.584   1.045  -15.369   1.898  -19.013
       1.911  -15.295   0.152   94.352   0.903   157.042
 3.100   1.039  -22.978   0.130   88.388   0.279   81.864
       2.027   152.719   1.049  -15.911   1.903  -19.688
       1.917  -15.836   0.158   94.583   0.908   156.271
 3.200   1.042  -23.795   0.135   88.231   0.289   81.639
       2.040   151.817   1.052  -16.494   1.908  -20.379
       1.922  -16.399   0.164   94.606   0.913   155.480
 3.300   1.046  -24.613   0.140   88.106   0.299   81.381
       2.053   150.933   1.056  -17.079   1.913  -21.060
       1.928  -16.952   0.171   94.725   0.918   154.716
 3.400   1.049  -25.421   0.145   87.998   0.309   81.200
       2.069   150.054   1.060  -17.661   1.919  -21.749
       1.935  -17.517   0.177   94.863   0.924   153.932
 3.500   1.053  -26.253   0.151   87.853   0.319   80.991
       2.084   149.161   1.064  -18.255   1.925  -22.449
       1.941  -18.086   0.183   94.923   0.929   153.150
 3.600   1.056  -27.119   0.156   87.587   0.330   80.699
       2.099   148.245   1.067  -18.864   1.931  -23.170
       1.947  -18.668   0.190   94.929   0.935   152.349
 3.700   1.060  -27.955   0.161   87.462   0.341   80.521
       2.116   147.348   1.071  -19.461   1.938  -23.892
       1.954  -19.258   0.197   94.992   0.941   151.539
 3.800   1.064  -28.830   0.167   87.232   0.352   80.245
       2.133   146.438   1.075  -20.091   1.944  -24.616
       1.962  -19.848   0.204   95.048   0.948   150.747
 3.900   1.069  -29.689   0.172   87.076   0.363   80.013
       2.151   145.529   1.080  -20.710   1.951  -25.353
       1.969  -20.452   0.210   95.094   0.954   149.926
 4.000   1.073  -30.614   0.178   86.802   0.374   79.681
       2.169   144.579   1.084  -21.374   1.958  -26.117
       1.976  -21.074   0.218   95.093   0.961   149.099
 4.100   1.077  -31.498   0.184   86.546   0.385   79.420
       2.186   143.658   1.088  -22.013   1.965  -26.868
       1.983  -21.691   0.225   95.013   0.968   148.275
 4.200   1.081  -32.399   0.190   86.302   0.397   79.135
       2.206   142.742   1.093  -22.661   1.972  -27.625
       1.992  -22.309   0.232   95.060   0.975   147.459
 4.300   1.086  -33.301   0.196   86.133   0.409   78.871
       2.226   141.821   1.098  -23.325   1.980  -28.388
       2.000  -22.940   0.240   95.092   0.983   146.633
 4.400   1.091  -34.248   0.202   85.885   0.421   78.567
       2.248   140.872   1.103  -24.001   1.988  -29.188
       2.009  -23.591   0.248   95.129   0.991   145.781
 4.500   1.096  -35.182   0.208   85.645   0.433   78.268
       2.269   139.932   1.108  -24.680   1.996  -29.981
       2.018  -24.242   0.256   95.088   0.998   144.933
 4.600   1.101  -36.151   0.215   85.300   0.445   77.898
       2.289   138.970   1.113  -25.391   2.004  -30.783
       2.026  -24.903   0.264   94.971   1.006   144.086
 4.700   1.107  -37.110   0.221   85.054   0.458   77.617
       2.313   138.024   1.118  -26.106   2.013  -31.588
       2.036  -25.572   0.272   94.917   1.015   143.242
 4.800   1.112  -38.150   0.229   84.738   0.471   77.195
       2.336   137.014   1.124  -26.866   2.022  -32.451
       2.046  -26.281   0.282   94.885   1.024   142.344
 4.900   1.118  -39.121   0.235   84.459   0.484   76.888
       2.361   136.076   1.130  -27.575   2.032  -33.272
       2.057  -26.959   0.290   94.849   1.033   141.493
 5.000   1.123  -40.130   0.242   84.070   0.497   76.494
       2.384   135.097   1.135  -28.312   2.041  -34.120
       2.066  -27.659   0.299   94.694   1.042   140.612
 5.200   1.137  -42.239   0.257   83.440   0.525   75.770
       2.438   133.071   1.148  -29.897   2.061  -35.905
       2.088  -29.151   0.318   94.466   1.062   138.775
 5.400   1.149  -44.339   0.271   82.683   0.553   74.914
       2.491   131.105   1.160  -31.426   2.081  -37.669
       2.110  -30.601   0.337   94.208   1.082   136.992
 5.600   1.163  -46.582   0.287   81.886   0.583   74.062
       2.551   129.008   1.174  -33.135   2.104  -39.561
       2.134  -32.196   0.358   93.818   1.104   135.087
 5.800   1.177  -48.850   0.303   81.046   0.613   73.132
       2.611   126.924   1.188  -34.823   2.127  -41.486
       2.159  -33.798   0.379   93.405   1.127   133.175
 6.000   1.194  -51.195   0.321   80.210   0.645   72.227
       2.678   124.806   1.204  -36.618   2.153  -43.465
       2.186  -35.466   0.402   92.953   1.152   131.238
 6.200   1.212  -53.613   0.339   79.302   0.679   71.230
       2.747   122.648   1.220  -38.447   2.179  -45.517
       2.213  -37.184   0.426   92.427   1.178   129.251
 6.400   1.230  -56.165   0.358   78.251   0.714   70.126
       2.820   120.410   1.236  -40.407   2.206  -47.658
       2.243  -38.991   0.451   91.804   1.205   127.208
 6.600   1.249  -58.755   0.377   77.201   0.750   69.016
       2.899   118.178   1.254  -42.372   2.238  -49.858
       2.275  -40.841   0.478   91.225   1.236   125.135
 6.800   1.270  -61.406   0.398   76.087   0.787   67.843
       2.981   115.906   1.273  -44.454   2.268  -52.093
       2.308  -42.748   0.506   90.518   1.266   123.043
 7.000   1.292  -64.255   0.420   74.821   0.827   66.548
       3.068   113.466   1.292  -46.682   2.301  -54.531
       2.341  -44.828   0.535   89.608   1.298   120.770
 7.200   1.317  -67.025   0.442   73.699   0.867   65.353
       3.162   111.167   1.314  -48.857   2.338  -56.899
       2.379  -46.842   0.565   88.887   1.333   118.615
 7.400   1.348  -70.138   0.468   72.365   0.914   64.013
       3.273   108.607   1.341  -51.369   2.383  -59.564
       2.426  -49.151   0.602   87.999   1.375   116.222
 7.600   1.379  -73.176   0.494   71.098   0.960   62.663
       3.383   106.146   1.367  -53.761   2.428  -62.187
       2.470  -51.379   0.636   87.125   1.416   113.899
 7.800   1.407  -77.055   0.524   68.892   1.012   60.636
       3.501   102.925   1.390  -57.021   2.469  -65.441
       2.514  -54.279   0.680   85.401   1.461   110.962
 8.000   1.426  -79.864   0.544   67.478   1.051   59.046
       3.582   100.563   1.405  -59.161   2.497  -67.976
       2.541  -56.419   0.707   84.216   1.492   108.646
 8.200   1.475  -83.967   0.582   65.528   1.115   57.201
       3.746   97.361   1.445  -62.644   2.565  -71.452
       2.610  -59.492   0.760   82.819   1.553   105.693
 8.400   1.506  -87.707   0.611   63.584   1.167   55.102
       3.866   94.328   1.470  -65.650   2.607  -74.756
       2.653  -62.344   0.802   81.260   1.597   102.778
 8.600   1.533  -92.284   0.644   60.651   1.224   52.469
       3.988   90.523   1.489  -69.658   2.643  -78.679
       2.690  -65.921   0.851   78.695   1.643   99.262
 8.800   1.572  -96.411   0.677   58.423   1.283   50.194
       4.128   87.157   1.517  -73.160   2.695  -82.411
       2.739  -69.238   0.899   76.737   1.695   95.994
 9.000   1.607  -100.322   0.708   56.274   1.336   47.959
       4.248   83.965   1.541  -76.514   2.733  -85.930
       2.774  -72.344   0.942   74.778   1.736   92.931
 9.200   1.643  -105.062   0.743   53.366   1.396   45.187
       4.384   80.133   1.563  -80.665   2.776  -90.100
       2.815  -76.115   0.994   72.243   1.786   89.319
 9.400   1.688  -110.081   0.781   50.476   1.462   42.244
       4.541   76.111   1.594  -85.015   2.829  -94.632
       2.864  -80.155   1.051   69.712   1.843   85.456
 9.600   1.717  -114.958   0.813   47.311   1.516   39.270
       4.649   72.227   1.605  -89.292   2.856  -98.841
