! Filename:  P:\Prog\Test\Noise\ATS_data\Testdata_Net\Split files Spar\BFU730_2W_B1_Bias6_2.5V_1mA_25mA_D.s2p
! Date/Time: Fri 29/Apr/2011 15:08:32
! BFU730_2W_B1_Bias6_2.5V_1mA_25mA_R.s2p
! MDIF S-parameter v. bias file
! BFU730_2W_B1_2.5V_1mA_25mA
! Date/time Thu Mar 17 13:38:09 2011
! VAR V_out= 2.5000
! VAR I_out= 9.9400
! VAR V_in= 0.7993
! VAR I_in= 0.0309
! Device data file deembeded for feedlines and parallel
! Original file: \Split files Spar\BFU730_2W_B1_Bias6_2.5V_1mA_25mA_R.s2p
! Feed-files: PR003V01_101208_Feed1.s2p, PR003V01_101208_Feed2.s2p
! Parallel-file: PR003V01_101208_Par.s2p
!3-port S-parameters
# GHz S MA R 50
!  Freq-GHz   S11-mag  S11-arg   S12-mag  S12-arg   S13-mag  S13-arg   S21-mag  S21-arg   S22-mag  S22-arg   S23-mag  S23-arg   S31-mag  S31-arg   S32-mag  S32-arg   S33-mag  S33-arg
 0.060   0.993  -0.386   0.002   77.027   0.008   34.500
       1.858   179.493   0.999  -0.246   1.859  -0.375
       1.865  -0.299   0.002   80.414   0.865   179.504
 0.070   0.993  -0.448   0.002   82.448   0.009   38.623
       1.858   179.436   0.999  -0.298   1.859  -0.404
       1.865  -0.323   0.003   82.024   0.866   179.486
 0.080   0.993  -0.515   0.003   83.276   0.009   42.644
       1.859   179.352   0.999  -0.344   1.860  -0.463
       1.866  -0.371   0.003   83.725   0.866   179.412
 0.090   0.993  -0.585   0.003   84.510   0.010   46.248
       1.859   179.256   0.999  -0.394   1.860  -0.532
       1.866  -0.429   0.004   84.792   0.866   179.318
 0.100   0.993  -0.648   0.004   84.846   0.010   48.810
       1.859   179.182   0.999  -0.442   1.859  -0.580
       1.865  -0.470   0.004   85.414   0.866   179.261
 0.120   0.993  -0.782   0.004   86.400   0.011   54.380
       1.859   179.019   0.999  -0.534   1.860  -0.693
       1.866  -0.561   0.005   86.766   0.866   179.126
 0.140   0.993  -0.913   0.005   87.535   0.013   58.465
       1.859   178.855   1.000  -0.631   1.860  -0.805
       1.866  -0.654   0.006   87.757   0.866   178.987
 0.160   0.993  -1.048   0.006   87.836   0.014   61.822
       1.859   178.684   1.000  -0.724   1.859  -0.927
       1.866  -0.754   0.007   88.231   0.866   178.832
 0.180   0.993  -1.180   0.006   88.483   0.015   64.742
       1.859   178.528   1.000  -0.817   1.860  -1.033
       1.866  -0.839   0.008   88.602   0.866   178.707
 0.200   0.994  -1.315   0.007   88.848   0.017   67.081
       1.860   178.355   1.000  -0.913   1.860  -1.155
       1.866  -0.939   0.009   89.099   0.866   178.553
 0.220   0.994  -1.447   0.008   89.276   0.018   68.967
       1.860   178.193   1.000  -1.007   1.860  -1.266
       1.866  -1.031   0.010   89.312   0.866   178.416
 0.240   0.994  -1.581   0.009   89.377   0.020   70.484
       1.861   178.025   1.000  -1.101   1.861  -1.383
       1.867  -1.127   0.011   89.746   0.867   178.268
 0.260   0.994  -1.716   0.009   89.675   0.021   72.024
       1.861   177.854   1.000  -1.196   1.860  -1.503
       1.867  -1.226   0.011   89.952   0.867   178.117
 0.280   0.994  -1.850   0.010   89.887   0.023   73.262
       1.861   177.689   1.000  -1.291   1.860  -1.618
       1.867  -1.319   0.012   90.221   0.867   177.975
 0.300   0.994  -1.988   0.011   89.998   0.024   74.419
       1.861   177.517   1.000  -1.390   1.860  -1.736
       1.867  -1.416   0.013   90.457   0.867   177.830
 0.320   0.994  -2.119   0.012   90.162   0.026   75.254
       1.861   177.353   1.000  -1.485   1.860  -1.850
       1.867  -1.511   0.014   90.508   0.867   177.688
 0.340   0.994  -2.258   0.012   90.378   0.028   76.102
       1.862   177.182   1.001  -1.581   1.861  -1.969
       1.867  -1.607   0.015   90.591   0.867   177.539
 0.360   0.994  -2.391   0.013   90.435   0.029   76.859
       1.862   177.021   1.001  -1.677   1.861  -2.079
       1.867  -1.697   0.016   90.501   0.867   177.408
 0.380   0.994  -2.527   0.014   90.470   0.031   77.486
       1.863   176.858   1.001  -1.772   1.861  -2.191
       1.867  -1.788   0.017   90.626   0.867   177.272
 0.400   0.995  -2.661   0.015   90.542   0.032   77.971
       1.863   176.696   1.001  -1.863   1.861  -2.305
       1.868  -1.879   0.018   90.666   0.868   177.130
 0.420   0.995  -2.793   0.015   90.550   0.034   78.537
       1.864   176.534   1.001  -1.952   1.862  -2.420
       1.868  -1.971   0.019   90.992   0.868   176.988
 0.440   0.995  -2.930   0.016   90.575   0.035   79.033
       1.864   176.361   1.001  -2.056   1.862  -2.536
       1.868  -2.069   0.020   91.000   0.868   176.843
 0.460   0.995  -3.066   0.017   90.574   0.037   79.455
       1.865   176.201   1.001  -2.148   1.862  -2.648
       1.869  -2.158   0.021   91.121   0.868   176.709
 0.480   0.995  -3.203   0.018   90.690   0.038   79.875
       1.865   176.026   1.001  -2.250   1.862  -2.769
       1.869  -2.260   0.022   91.356   0.868   176.558
 0.500   0.995  -3.339   0.019   90.729   0.040   80.214
       1.865   175.854   1.002  -2.350   1.862  -2.887
       1.869  -2.358   0.023   91.216   0.868   176.411
 0.550   0.995  -3.673   0.020   90.708   0.044   81.074
       1.867   175.447   1.002  -2.581   1.863  -3.172
       1.869  -2.589   0.025   91.096   0.869   176.058
 0.600   0.996  -4.013   0.022   90.680   0.048   81.640
       1.869   175.040   1.002  -2.815   1.864  -3.455
       1.870  -2.816   0.027   91.404   0.870   175.714
 0.650   0.996  -4.356   0.024   90.742   0.052   82.218
       1.869   174.613   1.003  -3.063   1.864  -3.751
       1.871  -3.060   0.029   91.523   0.870   175.347
 0.700   0.997  -4.699   0.026   90.776   0.056   82.651
       1.870   174.189   1.003  -3.314   1.864  -4.042
       1.871  -3.301   0.032   91.439   0.870   174.990
 0.750   0.997  -5.039   0.028   90.734   0.060   83.012
       1.872   173.789   1.003  -3.544   1.865  -4.321
       1.872  -3.522   0.034   91.526   0.871   174.655
 0.800   0.997  -5.377   0.030   90.640   0.064   83.313
       1.875   173.390   1.004  -3.773   1.867  -4.602
       1.873  -3.744   0.036   91.876   0.872   174.315
 0.850   0.998  -5.725   0.032   90.689   0.068   83.591
       1.876   172.960   1.004  -4.024   1.867  -4.900
       1.874  -3.991   0.038   92.038   0.873   173.948
 0.900   0.998  -6.070   0.034   90.678   0.072   83.818
       1.878   172.538   1.005  -4.270   1.868  -5.193
       1.874  -4.231   0.041   91.893   0.873   173.588
 0.950   0.999  -6.410   0.036   90.600   0.076   83.970
       1.879   172.141   1.005  -4.501   1.869  -5.471
       1.875  -4.451   0.043   91.941   0.874   173.257
 1.000   0.999  -6.749   0.038   90.565   0.080   84.144
       1.882   171.730   1.006  -4.741   1.870  -5.757
       1.876  -4.685   0.045   92.193   0.875   172.906
 1.050   1.000  -7.092   0.040   90.475   0.084   84.252
       1.884   171.316   1.006  -4.984   1.870  -6.046
       1.877  -4.920   0.048   92.296   0.876   172.552
 1.100   1.000  -7.436   0.042   90.457   0.088   84.382
       1.886   170.905   1.007  -5.227   1.871  -6.333
       1.878  -5.153   0.050   92.316   0.877   172.206
 1.150   1.001  -7.777   0.044   90.412   0.092   84.498
       1.889   170.503   1.007  -5.456   1.873  -6.620
       1.880  -5.380   0.052   92.526   0.878   171.859
 1.200   1.001  -8.117   0.046   90.344   0.096   84.534
       1.891   170.096   1.008  -5.696   1.874  -6.904
       1.881  -5.611   0.054   92.681   0.879   171.514
 1.250   1.002  -8.472   0.048   90.365   0.100   84.623
       1.894   169.664   1.009  -5.954   1.875  -7.206
       1.882  -5.861   0.057   92.780   0.880   171.146
 1.300   1.002  -8.816   0.050   90.307   0.104   84.704
       1.896   169.255   1.009  -6.193   1.876  -7.494
       1.883  -6.093   0.059   92.831   0.881   170.797
 1.350   1.003  -9.157   0.052   90.266   0.108   84.769
       1.899   168.854   1.010  -6.429   1.877  -7.778
       1.885  -6.322   0.061   92.971   0.882   170.455
 1.400   1.004  -9.505   0.054   90.193   0.112   84.797
       1.902   168.442   1.011  -6.673   1.879  -8.070
       1.886  -6.558   0.064   93.141   0.883   170.104
 1.450   1.004  -9.854   0.056   90.166   0.116   84.823
       1.905   168.028   1.011  -6.919   1.880  -8.362
       1.887  -6.795   0.066   93.242   0.885   169.752
 1.500   1.005  -10.199   0.058   90.117   0.121   84.842
       1.908   167.619   1.012  -7.160   1.881  -8.653
       1.889  -7.031   0.068   93.355   0.886   169.401
 1.550   1.006  -10.543   0.060   90.095   0.125   84.902
       1.912   167.209   1.013  -7.400   1.883  -8.946
       1.890  -7.268   0.071   93.499   0.887   169.045
 1.600   1.007  -10.894   0.062   90.049   0.129   84.891
       1.915   166.793   1.014  -7.649   1.884  -9.241
       1.892  -7.509   0.073   93.618   0.888   168.689
 1.650   1.007  -11.254   0.064   89.970   0.133   84.868
       1.918   166.366   1.014  -7.903   1.885  -9.545
       1.893  -7.756   0.076   93.696   0.889   168.325
 1.700   1.008  -11.596   0.066   89.964   0.137   84.918
       1.922   165.964   1.015  -8.144   1.887  -9.833
       1.895  -7.990   0.078   93.827   0.891   167.978
 1.750   1.009  -11.945   0.068   89.953   0.141   84.938
       1.926   165.550   1.016  -8.393   1.889  -10.129
       1.897  -8.233   0.080   93.970   0.892   167.621
 1.800   1.010  -12.310   0.070   89.949   0.146   84.922
       1.929   165.123   1.017  -8.649   1.890  -10.435
       1.899  -8.481   0.083   94.101   0.894   167.257
 1.850   1.011  -12.665   0.072   89.854   0.150   84.904
       1.933   164.707   1.018  -8.902   1.892  -10.734
       1.900  -8.724   0.086   94.197   0.895   166.900
 1.900   1.012  -13.013   0.074   89.907   0.154   84.942
       1.938   164.296   1.020  -9.148   1.894  -11.033
       1.903  -8.969   0.088   94.391   0.897   166.540
 1.950   1.013  -13.374   0.076   89.931   0.159   84.929
       1.942   163.867   1.021  -9.407   1.896  -11.342
       1.904  -9.224   0.091   94.520   0.899   166.168
 2.000   1.014  -13.756   0.079   89.910   0.163   84.873
       1.946   163.419   1.022  -9.691   1.897  -11.658
       1.906  -9.487   0.094   94.526   0.900   165.791
 2.050   1.015  -14.131   0.081   89.782   0.168   84.794
       1.950   162.984   1.023  -9.963   1.898  -11.967
       1.907  -9.741   0.096   94.449   0.901   165.425
 2.100   1.016  -14.490   0.083   89.731   0.172   84.778
       1.954   162.568   1.024  -10.214   1.900  -12.271
       1.909  -9.987   0.099   94.549   0.903   165.064
 2.150   1.017  -14.862   0.085   89.671   0.176   84.724
       1.958   162.140   1.025  -10.485   1.902  -12.576
       1.911  -10.237   0.101   94.556   0.905   164.706
 2.200   1.018  -15.218   0.088   89.525   0.181   84.640
       1.962   161.733   1.025  -10.730   1.904  -12.873
       1.913  -10.476   0.104   94.585   0.906   164.354
 2.250   1.019  -15.589   0.090   89.532   0.185   84.603
       1.967   161.302   1.027  -10.997   1.906  -13.189
       1.915  -10.736   0.107   94.796   0.908   163.980
 2.300   1.021  -15.972   0.092   89.526   0.190   84.550
       1.972   160.854   1.028  -11.286   1.907  -13.510
       1.917  -11.006   0.110   94.840   0.910   163.598
 2.350   1.022  -16.372   0.095   89.396   0.194   84.430
       1.976   160.401   1.029  -11.583   1.909  -13.829
       1.919  -11.270   0.112   94.700   0.911   163.230
 2.400   1.022  -16.755   0.097   89.236   0.199   84.323
       1.980   159.975   1.030  -11.854   1.911  -14.135
       1.920  -11.517   0.115   94.617   0.913   162.876
 2.450   1.023  -17.138   0.099   89.024   0.203   84.160
       1.984   159.542   1.031  -12.130   1.912  -14.446
       1.922  -11.771   0.118   94.552   0.914   162.512
 2.500   1.024  -17.506   0.102   88.770   0.208   84.001
       1.988   159.131   1.031  -12.391   1.913  -14.744
       1.924  -12.012   0.120   94.548   0.916   162.167
 2.600   1.026  -18.227   0.106   88.534   0.216   83.863
       1.998   158.307   1.033  -12.905   1.917  -15.353
       1.928  -12.512   0.125   94.581   0.920   161.451
 2.700   1.028  -18.974   0.110   88.309   0.225   83.692
       2.008   157.466   1.036  -13.431   1.922  -15.979
       1.932  -13.020   0.131   94.653   0.924   160.724
 2.800   1.030  -19.715   0.115   88.161   0.234   83.563
       2.019   156.633   1.038  -13.953   1.926  -16.605
       1.937  -13.529   0.136   94.750   0.928   159.999
 2.900   1.033  -20.477   0.119   87.947   0.244   83.320
       2.029   155.785   1.041  -14.482   1.930  -17.245
       1.942  -14.045   0.142   94.766   0.932   159.262
 3.000   1.035  -21.197   0.124   87.798   0.253   83.153
       2.041   154.988   1.043  -14.994   1.935  -17.848
       1.947  -14.537   0.147   94.907   0.937   158.569
 3.100   1.039  -21.941   0.128   87.783   0.262   83.067
       2.055   154.175   1.047  -15.515   1.941  -18.476
       1.953  -15.045   0.153   95.157   0.942   157.856
 3.200   1.042  -22.710   0.133   87.615   0.271   82.886
       2.067   153.328   1.050  -16.075   1.946  -19.119
       1.959  -15.577   0.159   95.216   0.947   157.121
 3.300   1.045  -23.493   0.138   87.499   0.281   82.700
       2.081   152.489   1.053  -16.640   1.951  -19.758
       1.965  -16.100   0.165   95.338   0.952   156.406
 3.400   1.048  -24.254   0.143   87.398   0.290   82.564
       2.096   151.663   1.057  -17.199   1.958  -20.397
       1.972  -16.631   0.171   95.513   0.958   155.682
 3.500   1.052  -25.035   0.148   87.241   0.300   82.405
       2.111   150.830   1.061  -17.763   1.964  -21.045
       1.978  -17.163   0.177   95.615   0.963   154.959
 3.600   1.055  -25.864   0.153   87.011   0.310   82.177
       2.126   149.960   1.064  -18.355   1.971  -21.722
       1.985  -17.714   0.183   95.644   0.969   154.212
 3.700   1.060  -26.652   0.158   86.891   0.321   82.064
       2.143   149.117   1.068  -18.926   1.978  -22.393
       1.992  -18.269   0.190   95.733   0.976   153.462
 3.800   1.064  -27.480   0.164   86.669   0.331   81.838
       2.160   148.263   1.072  -19.529   1.985  -23.064
       2.000  -18.822   0.196   95.823   0.983   152.730
 3.900   1.068  -28.282   0.169   86.544   0.341   81.679
       2.177   147.412   1.076  -20.118   1.992  -23.748
       2.008  -19.390   0.203   95.907   0.989   151.968
 4.000   1.072  -29.159   0.174   86.267   0.352   81.388
       2.195   146.518   1.080  -20.754   2.000  -24.458
       2.016  -19.974   0.210   95.931   0.996   151.202
 4.100   1.076  -29.997   0.180   86.037   0.363   81.185
       2.212   145.648   1.084  -21.368   2.007  -25.159
       2.023  -20.554   0.217   95.879   1.003   150.436
 4.200   1.081  -30.848   0.186   85.807   0.374   80.951
       2.232   144.786   1.089  -21.988   2.015  -25.862
       2.032  -21.135   0.224   95.948   1.011   149.680
 4.300   1.086  -31.695   0.191   85.658   0.385   80.753
       2.252   143.924   1.094  -22.616   2.024  -26.571
       2.041  -21.725   0.231   96.028   1.018   148.915
 4.400   1.091  -32.586   0.197   85.431   0.396   80.505
       2.273   143.035   1.099  -23.258   2.033  -27.311
       2.051  -22.334   0.239   96.106   1.027   148.128
 4.500   1.096  -33.458   0.203   85.215   0.408   80.268
       2.294   142.158   1.104  -23.902   2.042  -28.042
       2.060  -22.942   0.246   96.097   1.034   147.346
 4.600   1.100  -34.376   0.209   84.898   0.419   79.950
       2.314   141.251   1.109  -24.581   2.050  -28.790
       2.069  -23.564   0.254   96.023   1.043   146.560
 4.700   1.106  -35.279   0.216   84.673   0.431   79.730
       2.337   140.366   1.114  -25.259   2.060  -29.533
       2.080  -24.186   0.262   96.009   1.052   145.784
 4.800   1.112  -36.241   0.222   84.426   0.444   79.398
       2.361   139.431   1.120  -25.972   2.070  -30.325
       2.090  -24.846   0.271   96.035   1.061   144.959
 4.900   1.118  -37.159   0.229   84.165   0.456   79.140
       2.386   138.549   1.126  -26.647   2.081  -31.086
       2.102  -25.478   0.279   96.034   1.070   144.174
 5.000   1.123  -38.093   0.235   83.825   0.468   78.828
       2.409   137.642   1.131  -27.339   2.091  -31.866
       2.112  -26.131   0.287   95.933   1.080   143.361
 5.200   1.137  -40.076   0.249   83.263   0.495   78.221
       2.463   135.744   1.144  -28.841   2.114  -33.515
       2.136  -27.521   0.306   95.793   1.101   141.668
 5.400   1.149  -42.016   0.263   82.615   0.521   77.534
       2.515   133.934   1.156  -30.265   2.136  -35.124
       2.160  -28.857   0.324   95.653   1.122   140.045
 5.600   1.164  -44.117   0.278   81.921   0.550   76.814
       2.575   131.980   1.170  -31.874   2.162  -36.867
       2.186  -30.336   0.344   95.378   1.145   138.297
 5.800   1.179  -46.217   0.293   81.182   0.579   76.032
       2.636   130.050   1.183  -33.449   2.187  -38.628
       2.213  -31.818   0.364   95.069   1.169   136.543
 6.000   1.196  -48.396   0.309   80.471   0.609   75.278
       2.703   128.091   1.199  -35.126   2.216  -40.438
       2.243  -33.356   0.386   94.751   1.195   134.777
 6.200   1.214  -50.632   0.326   79.697   0.641   74.465
       2.773   126.106   1.215  -36.823   2.247  -42.309
       2.274  -34.933   0.409   94.368   1.222   132.969
 6.400   1.233  -52.984   0.344   78.814   0.675   73.549
       2.848   124.046   1.233  -38.641   2.278  -44.260
       2.307  -36.596   0.433   93.888   1.251   131.105
 6.600   1.253  -55.379   0.362   77.901   0.710   72.596
       2.928   121.991   1.251  -40.464   2.313  -46.260
       2.343  -38.290   0.459   93.453   1.284   129.224
 6.800   1.275  -57.812   0.382   76.974   0.745   71.628
       3.011   119.922   1.271  -42.376   2.349  -48.281
       2.381  -40.025   0.485   92.934   1.316   127.339
 7.000   1.298  -60.442   0.402   75.895   0.784   70.524
       3.102   117.678   1.291  -44.440   2.388  -50.503
       2.420  -41.937   0.514   92.202   1.352   125.267
 7.200   1.325  -62.962   0.424   74.975   0.823   69.549
       3.198   115.594   1.314  -46.425   2.431  -52.633
       2.464  -43.764   0.543   91.672   1.389   123.328
 7.400   1.357  -65.818   0.448   73.858   0.869   68.426
       3.314   113.271   1.343  -48.724   2.484  -55.029
       2.517  -45.850   0.579   91.012   1.435   121.186
 7.600   1.392  -68.582   0.473   72.853   0.915   67.343
       3.431   111.045   1.371  -50.910   2.538  -57.393
       2.570  -47.876   0.613   90.366   1.480   119.094
 7.800   1.424  -72.149   0.502   70.945   0.967   65.593
       3.558   108.100   1.399  -53.928   2.591  -60.347
       2.626  -50.533   0.656   88.902   1.531   116.433
 8.000   1.445  -74.727   0.521   69.685   1.006   64.157
       3.644   105.942   1.415  -55.871   2.626  -62.639
       2.660  -52.475   0.683   87.890   1.566   114.333
 8.200   1.500  -78.437   0.558   68.120   1.071   62.684
       3.823   103.077   1.461  -59.043   2.711  -65.744
       2.744  -55.247   0.736   86.835   1.636   111.707
 8.400   1.536  -81.884   0.587   66.436   1.125   60.817
       3.956   100.299   1.491  -61.800   2.766  -68.748
       2.801  -57.856   0.778   85.527   1.688   109.053
 8.600   1.572  -86.175   0.621   63.796   1.186   58.440
       4.101   96.734   1.518  -65.591   2.823  -72.396
       2.857  -61.214   0.831   83.180   1.745   105.778
 8.800   1.618  -89.970   0.655   61.856   1.249   56.436
       4.261   93.643   1.553  -68.830   2.893  -75.793
       2.925  -64.267   0.881   81.480   1.809   102.789
 9.000   1.662  -93.594   0.687   59.977   1.308   54.449
       4.406   90.697   1.585  -71.944   2.952  -79.020
       2.980  -67.139   0.927   79.763   1.862   99.975
 9.200   1.710  -98.028   0.725   57.365   1.375   51.936
       4.577   87.109   1.620  -75.865   3.023  -82.901
       3.049  -70.695   0.984   77.469   1.930   96.593
 9.400   1.768  -102.741   0.766   54.742   1.451   49.225
       4.768   83.346   1.663  -79.952   3.103  -87.093
       3.126  -74.463   1.046   75.179   2.003   93.004
 9.600   1.812  -107.362   0.802   51.802   1.516   46.448
       4.918   79.655   1.687  -84.041   3.161  -91.056
