! Filename:  P:\Prog\Test\Noise\ATS_data\Testdata_Net\Split files Spar\BFU730_2W_B1_1V_1mA_30mA_Bias10_D.s2p
! Date/Time: Fri 29/Apr/2011 14:16:29
! BFU730_2W_B1_1V_1mA_30mA_Bias10_R.s2p
! MDIF S-parameter v. bias file
! BFU730_2W_B1_1V_1mA_30mA
! Date/time Thu Mar 17 14:34:31 2011
! VAR V_out= 1.0000
! VAR I_out= 30.0000
! VAR V_in= 0.8383
! VAR I_in= 0.1101
! Device data file deembeded for feedlines and parallel
! Original file: \Split files Spar\BFU730_2W_B1_1V_1mA_30mA_Bias10_R.s2p
! Feed-files: PR003V01_101208_Feed1.s2p, PR003V01_101208_Feed2.s2p
! Parallel-file: PR003V01_101208_Par.s2p
!3-port S-parameters
# GHz S MA R 50
!  Freq-GHz   S11-mag  S11-arg   S12-mag  S12-arg   S13-mag  S13-arg   S21-mag  S21-arg   S22-mag  S22-arg   S23-mag  S23-arg   S31-mag  S31-arg   S32-mag  S32-arg   S33-mag  S33-arg
 0.060   0.982  -0.648   0.004   65.347   0.018   23.384
       1.888   179.289   0.993  -0.442   1.895  -0.476
       1.906  -0.370   0.006   36.177   0.911   179.460
 0.070   0.982  -0.738   0.005   66.548   0.018   26.408
       1.888   179.194   0.993  -0.521   1.895  -0.530
       1.907  -0.418   0.007   41.311   0.912   179.416
 0.080   0.982  -0.837   0.005   70.115   0.019   29.812
       1.891   179.076   0.993  -0.597   1.897  -0.608
       1.908  -0.485   0.007   46.972   0.913   179.322
 0.090   0.982  -0.953   0.006   72.527   0.020   33.062
       1.891   178.932   0.993  -0.686   1.897  -0.705
       1.909  -0.568   0.008   51.860   0.913   179.204
 0.100   0.982  -1.044   0.007   73.624   0.020   35.213
       1.890   178.830   0.993  -0.769   1.897  -0.763
       1.908  -0.622   0.009   54.579   0.913   179.143
 0.120   0.982  -1.266   0.008   76.669   0.022   40.935
       1.892   178.559   0.993  -0.940   1.898  -0.944
       1.909  -0.776   0.010   60.304   0.914   178.925
 0.140   0.982  -1.467   0.009   78.324   0.023   44.843
       1.892   178.329   0.993  -1.099   1.898  -1.090
       1.909  -0.901   0.011   63.805   0.914   178.759
 0.160   0.982  -1.680   0.010   80.352   0.025   48.633
       1.892   178.070   0.994  -1.278   1.898  -1.255
       1.910  -1.048   0.013   67.661   0.914   178.564
 0.180   0.983  -1.877   0.012   81.086   0.026   52.046
       1.894   177.849   0.993  -1.421   1.900  -1.400
       1.911  -1.166   0.014   68.908   0.916   178.398
 0.200   0.983  -2.107   0.013   82.689   0.029   55.311
       1.894   177.570   0.994  -1.592   1.900  -1.590
       1.911  -1.325   0.016   71.691   0.916   178.169
 0.220   0.983  -2.307   0.014   82.879   0.030   57.522
       1.895   177.344   0.994  -1.741   1.900  -1.737
       1.911  -1.446   0.017   72.374   0.916   178.000
 0.240   0.983  -2.515   0.015   83.725   0.033   59.153
       1.895   177.105   0.994  -1.897   1.900  -1.894
       1.911  -1.576   0.018   74.214   0.916   177.820
 0.260   0.983  -2.739   0.017   84.655   0.035   61.705
       1.896   176.831   0.994  -2.075   1.901  -2.075
       1.912  -1.733   0.020   75.572   0.917   177.600
 0.280   0.983  -2.946   0.018   85.019   0.037   63.102
       1.896   176.606   0.994  -2.226   1.901  -2.221
       1.912  -1.851   0.021   76.387   0.917   177.439
 0.300   0.983  -3.191   0.019   85.662   0.039   64.785
       1.896   176.307   0.994  -2.424   1.901  -2.415
       1.912  -2.020   0.023   77.571   0.917   177.207
 0.320   0.983  -3.401   0.021   85.428   0.041   65.422
       1.895   176.082   0.994  -2.590   1.900  -2.552
       1.911  -2.135   0.025   77.083   0.917   177.059
 0.340   0.983  -3.577   0.022   85.713   0.043   66.864
       1.898   175.878   0.994  -2.715   1.902  -2.691
       1.913  -2.248   0.026   78.022   0.918   176.891
 0.360   0.984  -3.811   0.023   85.989   0.045   68.125
       1.898   175.614   0.994  -2.884   1.902  -2.867
       1.913  -2.390   0.027   78.250   0.918   176.690
 0.380   0.984  -4.034   0.025   86.022   0.048   68.965
       1.898   175.368   0.994  -3.038   1.902  -3.033
       1.913  -2.520   0.029   78.665   0.918   176.502
 0.400   0.984  -4.210   0.026   85.874   0.050   69.707
       1.900   175.172   0.994  -3.158   1.903  -3.166
       1.914  -2.625   0.030   79.190   0.920   176.344
 0.420   0.984  -4.411   0.027   86.141   0.052   70.195
       1.900   174.945   0.994  -3.308   1.903  -3.315
       1.914  -2.748   0.031   80.009   0.920   176.172
 0.440   0.984  -4.620   0.028   86.367   0.054   71.248
       1.902   174.702   0.995  -3.478   1.904  -3.470
       1.915  -2.883   0.032   80.363   0.920   175.990
 0.460   0.984  -4.814   0.030   86.359   0.056   71.698
       1.902   174.492   0.995  -3.611   1.905  -3.611
       1.916  -2.992   0.034   80.786   0.921   175.833
 0.480   0.985  -5.018   0.031   86.895   0.058   72.761
       1.905   174.243   0.995  -3.782   1.906  -3.772
       1.917  -3.137   0.035   81.627   0.922   175.637
 0.500   0.984  -5.258   0.033   86.334   0.060   72.602
       1.903   173.983   0.995  -3.967   1.905  -3.933
       1.915  -3.270   0.037   80.940   0.921   175.459
 0.550   0.985  -5.725   0.035   86.325   0.065   74.367
       1.907   173.453   0.995  -4.275   1.908  -4.307
       1.918  -3.562   0.039   81.818   0.923   175.015
 0.600   0.986  -6.205   0.038   86.496   0.071   75.500
       1.910   172.908   0.996  -4.620   1.910  -4.676
       1.920  -3.862   0.042   83.015   0.925   174.584
 0.650   0.986  -6.683   0.041   86.338   0.076   76.078
       1.912   172.365   0.996  -5.001   1.910  -5.021
       1.921  -4.158   0.046   83.306   0.926   174.182
 0.700   0.986  -7.236   0.045   86.200   0.081   76.749
       1.914   171.746   0.996  -5.419   1.911  -5.425
       1.921  -4.493   0.049   83.465   0.927   173.718
 0.750   0.987  -7.692   0.048   85.977   0.086   77.357
       1.916   171.238   0.996  -5.740   1.913  -5.771
       1.923  -4.769   0.052   83.956   0.928   173.317
 0.800   0.987  -8.193   0.051   85.998   0.092   77.610
       1.918   170.676   0.997  -6.098   1.913  -6.150
       1.924  -5.075   0.055   84.550   0.929   172.882
 0.850   0.988  -8.734   0.054   86.167   0.098   78.118
       1.921   170.064   0.998  -6.516   1.914  -6.550
       1.925  -5.412   0.059   84.988   0.930   172.422
 0.900   0.988  -9.161   0.057   85.612   0.102   78.448
       1.924   169.584   0.997  -6.845   1.916  -6.863
       1.926  -5.676   0.062   84.902   0.931   172.053
 0.950   0.989  -9.624   0.060   85.449   0.107   78.930
       1.927   169.067   0.998  -7.174   1.918  -7.218
       1.928  -5.962   0.065   85.203   0.933   171.642
 1.000   0.989  -10.127   0.063   85.388   0.113   79.006
       1.929   168.498   0.998  -7.543   1.918  -7.601
       1.929  -6.276   0.068   85.529   0.934   171.201
 1.050   0.988  -10.636   0.067   85.088   0.118   78.902
       1.931   167.931   0.998  -7.933   1.918  -7.970
       1.929  -6.585   0.072   85.561   0.934   170.777
 1.100   0.989  -11.086   0.069   84.850   0.123   79.247
       1.934   167.427   0.999  -8.272   1.920  -8.307
       1.931  -6.866   0.075   85.660   0.936   170.386
 1.150   0.990  -11.511   0.072   84.577   0.128   79.451
       1.937   166.950   0.999  -8.582   1.922  -8.633
       1.932  -7.133   0.077   85.824   0.937   170.007
 1.200   0.990  -11.971   0.075   84.423   0.133   79.455
       1.940   166.433   0.999  -8.932   1.922  -8.977
       1.933  -7.421   0.081   85.988   0.938   169.608
 1.250   0.990  -12.499   0.078   84.289   0.139   79.424
       1.942   165.844   1.000  -9.345   1.923  -9.361
       1.934  -7.747   0.084   86.079   0.939   169.168
 1.300   0.991  -12.929   0.081   84.034   0.143   79.602
       1.946   165.364   1.000  -9.672   1.925  -9.683
       1.936  -8.017   0.087   86.142   0.941   168.794
 1.350   0.991  -13.362   0.084   83.786   0.148   79.662
       1.949   164.880   1.000  -9.991   1.926  -10.013
       1.937  -8.289   0.090   86.196   0.942   168.413
 1.400   0.992  -13.844   0.087   83.631   0.153   79.694
       1.952   164.344   1.001  -10.350   1.927  -10.376
       1.939  -8.590   0.094   86.322   0.944   167.997
 1.450   0.992  -14.300   0.090   83.388   0.158   79.633
       1.955   163.835   1.001  -10.701   1.928  -10.715
       1.940  -8.875   0.097   86.313   0.945   167.606
 1.500   0.993  -14.781   0.093   83.216   0.164   79.678
       1.959   163.299   1.001  -11.063   1.929  -11.079
       1.941  -9.178   0.100   86.385   0.946   167.188
 1.550   0.993  -15.293   0.096   82.992   0.169   79.567
       1.961   162.732   1.002  -11.437   1.930  -11.466
       1.942  -9.496   0.103   86.373   0.947   166.745
 1.600   0.993  -15.753   0.099   82.822   0.174   79.523
       1.965   162.221   1.002  -11.783   1.931  -11.814
       1.943  -9.786   0.107   86.451   0.948   166.345
 1.650   0.994  -16.212   0.102   82.661   0.179   79.599
       1.969   161.715   1.003  -12.136   1.933  -12.158
       1.945  -10.076   0.110   86.555   0.950   165.951
 1.700   0.995  -16.659   0.105   82.468   0.184   79.640
       1.974   161.218   1.003  -12.479   1.935  -12.497
       1.947  -10.362   0.113   86.594   0.952   165.560
 1.750   0.995  -17.116   0.108   82.263   0.189   79.543
       1.977   160.707   1.004  -12.832   1.936  -12.843
       1.948  -10.656   0.116   86.610   0.953   165.161
 1.800   0.996  -17.656   0.111   82.082   0.195   79.399
       1.981   160.116   1.004  -13.238   1.937  -13.245
       1.950  -10.990   0.120   86.620   0.955   164.706
 1.850   0.996  -18.142   0.114   81.834   0.201   79.306
       1.984   159.584   1.005  -13.606   1.938  -13.608
       1.951  -11.294   0.123   86.585   0.956   164.293
 1.900   0.997  -18.579   0.117   81.669   0.205   79.279
       1.989   159.098   1.005  -13.940   1.939  -13.944
       1.953  -11.578   0.127   86.652   0.958   163.905
 1.950   0.998  -19.076   0.120   81.537   0.211   79.227
       1.994   158.548   1.006  -14.325   1.941  -14.323
       1.955  -11.900   0.130   86.703   0.960   163.472
 2.000   0.998  -19.580   0.124   81.345   0.216   79.091
       1.998   157.992   1.007  -14.725   1.942  -14.697
       1.956  -12.222   0.134   86.639   0.961   163.045
 2.050   0.999  -20.065   0.127   81.093   0.222   78.950
       2.001   157.461   1.007  -15.097   1.943  -15.060
       1.957  -12.527   0.137   86.510   0.962   162.632
 2.100   0.999  -20.568   0.130   80.896   0.227   78.867
       2.006   156.921   1.007  -15.464   1.945  -15.439
       1.959  -12.838   0.141   86.536   0.964   162.207
 2.150   1.000  -21.031   0.133   80.723   0.232   78.797
       2.010   156.415   1.008  -15.828   1.946  -15.786
       1.960  -13.135   0.144   86.481   0.966   161.813
 2.200   1.001  -21.511   0.136   80.468   0.238   78.675
       2.015   155.897   1.008  -16.189   1.947  -16.147
       1.962  -13.436   0.147   86.425   0.968   161.405
 2.250   1.001  -22.031   0.139   80.276   0.243   78.511
       2.019   155.334   1.009  -16.583   1.949  -16.541
       1.964  -13.766   0.151   86.459   0.969   160.960
 2.300   1.002  -22.551   0.142   80.055   0.249   78.304
       2.023   154.765   1.010  -16.993   1.949  -16.929
       1.965  -14.099   0.155   86.364   0.971   160.520
 2.350   1.002  -23.089   0.146   79.820   0.255   78.159
       2.028   154.190   1.010  -17.420   1.950  -17.318
       1.966  -14.431   0.159   86.189   0.972   160.088
 2.400   1.003  -23.582   0.149   79.517   0.260   78.014
       2.032   153.669   1.010  -17.795   1.952  -17.677
       1.967  -14.731   0.162   86.001   0.974   159.690
 2.450   1.002  -24.093   0.152   79.197   0.266   77.756
       2.035   153.129   1.010  -18.178   1.952  -18.049
       1.968  -15.040   0.166   85.849   0.975   159.275
 2.500   1.002  -24.639   0.156   78.863   0.272   77.505
       2.039   152.561   1.010  -18.588   1.953  -18.442
       1.969  -15.368   0.170   85.764   0.977   158.841
 2.600   1.004  -25.569   0.162   78.386   0.282   77.257
       2.049   151.564   1.011  -19.302   1.956  -19.147
       1.973  -15.965   0.176   85.617   0.981   158.048
 2.700   1.004  -26.647   0.168   77.833   0.294   76.820
       2.059   150.429   1.011  -20.104   1.958  -19.954
       1.975  -16.634   0.184   85.411   0.985   157.154
 2.800   1.006  -27.595   0.174   77.392   0.304   76.592
       2.070   149.432   1.012  -20.830   1.962  -20.669
       1.980  -17.238   0.191   85.295   0.989   156.359
 2.900   1.007  -28.644   0.181   76.891   0.316   76.169
       2.080   148.338   1.013  -21.608   1.964  -21.457
       1.983  -17.892   0.198   85.086   0.993   155.490
 3.000   1.008  -29.613   0.187   76.413   0.326   75.823
       2.091   147.334   1.014  -22.343   1.967  -22.182
       1.986  -18.502   0.205   84.961   0.997   154.691
 3.100   1.010  -30.667   0.193   76.047   0.338   75.535
       2.105   146.259   1.016  -23.132   1.972  -22.975
       1.992  -19.163   0.212   84.942   1.003   153.830
 3.200   1.012  -31.727   0.200   75.552   0.350   75.141
       2.117   145.169   1.018  -23.943   1.975  -23.769
       1.996  -19.834   0.220   84.770   1.007   152.962
 3.300   1.013  -32.734   0.207   75.109   0.361   74.833
       2.130   144.153   1.019  -24.726   1.979  -24.511
       2.000  -20.466   0.228   84.639   1.013   152.160
 3.400   1.015  -33.801   0.213   74.651   0.373   74.461
       2.144   143.074   1.021  -25.549   1.984  -25.310
       2.006  -21.146   0.236   84.516   1.018   151.294
 3.500   1.017  -34.873   0.220   74.192   0.385   74.111
       2.159   142.007   1.023  -26.364   1.988  -26.109
       2.011  -21.818   0.243   84.383   1.024   150.440
 3.600   1.019  -36.040   0.227   73.648   0.397   73.642
       2.174   140.850   1.024  -27.249   1.992  -26.973
       2.016  -22.544   0.252   84.152   1.030   149.520
 3.700   1.022  -37.072   0.234   73.210   0.409   73.347
       2.190   139.819   1.026  -28.058   1.998  -27.757
       2.022  -23.217   0.260   83.993   1.036   148.676
 3.800   1.024  -38.251   0.241   72.655   0.422   72.874
       2.206   138.674   1.027  -28.951   2.002  -28.626
       2.027  -23.949   0.268   83.790   1.042   147.761
 3.900   1.026  -39.336   0.248   72.205   0.434   72.506
       2.222   137.599   1.029  -29.796   2.007  -29.454
       2.033  -24.657   0.277   83.597   1.049   146.876
 4.000   1.028  -40.606   0.256   71.576   0.448   71.939
       2.238   136.386   1.031  -30.752   2.011  -30.381
       2.038  -25.433   0.286   83.314   1.055   145.913
 4.100   1.030  -41.715   0.263   71.048   0.460   71.537
       2.255   135.307   1.032  -31.614   2.016  -31.217
       2.043  -26.149   0.294   83.032   1.061   145.029
 4.200   1.032  -42.919   0.271   70.468   0.473   71.040
       2.272   134.162   1.034  -32.537   2.021  -32.111
       2.049  -26.909   0.303   82.789   1.069   144.099
 4.300   1.035  -44.077   0.278   69.979   0.486   70.625
       2.291   133.061   1.036  -33.441   2.027  -32.982
       2.056  -27.655   0.312   82.587   1.076   143.191
 4.400   1.037  -45.364   0.286   69.346   0.500   70.047
       2.310   131.854   1.038  -34.409   2.031  -33.940
       2.062  -28.461   0.322   82.301   1.083   142.204
 4.500   1.040  -46.538   0.293   68.848   0.514   69.633
       2.330   130.750   1.040  -35.324   2.038  -34.834
       2.069  -29.229   0.331   82.076   1.091   141.280
 4.600   1.042  -47.830   0.301   68.163   0.527   69.036
       2.348   129.553   1.041  -36.322   2.042  -35.779
       2.074  -30.035   0.341   81.690   1.098   140.315
 4.700   1.045  -49.035   0.309   67.645   0.541   68.609
       2.369   128.444   1.044  -37.275   2.048  -36.683
       2.082  -30.815   0.350   81.433   1.106   139.398
 4.800   1.047  -50.406   0.317   66.994   0.556   67.973
       2.390   127.194   1.046  -38.325   2.053  -37.698
       2.088  -31.678   0.361   81.112   1.114   138.371
 4.900   1.050  -51.720   0.325   66.357   0.570   67.423
       2.412   126.005   1.047  -39.340   2.059  -38.678
       2.095  -32.516   0.371   80.763   1.123   137.386
 5.000   1.053  -53.022   0.333   65.699   0.584   66.860
       2.433   124.819   1.049  -40.356   2.065  -39.659
       2.102  -33.362   0.381   80.380   1.132   136.392
 5.200   1.059  -55.767   0.350   64.403   0.614   65.658
       2.478   122.358   1.053  -42.505   2.076  -41.715
       2.116  -35.133   0.402   79.622   1.149   134.333
 5.400   1.064  -58.469   0.366   63.060   0.644   64.467
       2.523   119.981   1.056  -44.591   2.088  -43.747
       2.131  -36.875   0.423   78.847   1.168   132.325
 5.600   1.071  -61.425   0.384   61.628   0.675   63.116
       2.572   117.400   1.060  -46.931   2.100  -45.954
       2.145  -38.788   0.447   77.923   1.186   130.157
 5.800   1.077  -64.339   0.401   60.158   0.707   61.770
       2.621   114.893   1.063  -49.192   2.111  -48.156
       2.159  -40.682   0.469   76.967   1.206   128.013
 6.000   1.085  -67.439   0.420   58.686   0.740   60.387
       2.676   112.266   1.068  -51.672   2.125  -50.485
       2.174  -42.708   0.494   75.968   1.227   125.776
 6.200   1.093  -70.489   0.437   57.198   0.773   58.989
       2.730   109.716   1.071  -54.070   2.138  -52.799
       2.189  -44.705   0.518   74.949   1.249   123.573
 6.400   1.100  -73.789   0.456   55.518   0.807   57.414
       2.786   106.985   1.074  -56.705   2.149  -55.278
       2.204  -46.864   0.543   73.748   1.271   121.230
 6.600   1.108  -77.146   0.475   53.838   0.842   55.795
       2.844   104.275   1.077  -59.336   2.162  -57.806
       2.220  -49.046   0.569   72.605   1.294   118.879
 6.800   1.117  -80.517   0.494   52.149   0.877   54.200
       2.904   101.564   1.081  -62.058   2.175  -60.359
       2.235  -51.281   0.596   71.395   1.318   116.515
 7.000   1.124  -84.171   0.514   50.258   0.913   52.372
       2.963   98.637   1.082  -64.998   2.184  -63.123
       2.248  -53.693   0.624   69.931   1.341   113.965
 7.200   1.137  -87.665   0.534   48.591   0.949   50.759
       3.032   95.901   1.088  -67.831   2.201  -65.831
       2.266  -56.056   0.652   68.720   1.368   111.517
 7.400   1.148  -91.689   0.556   46.532   0.989   48.803
       3.103   92.777   1.092  -71.152   2.215  -68.894
       2.283  -58.758   0.683   67.168   1.397   108.769
 7.600   1.164  -95.483   0.577   44.731   1.029   47.013
       3.179   89.864   1.098  -74.272   2.233  -71.868
       2.302  -61.351   0.714   65.778   1.426   106.145
 7.800   1.170  -100.088   0.599   42.152   1.069   44.599
       3.246   86.303   1.096  -78.183   2.239  -75.352
       2.312  -64.492   0.748   63.691   1.453   103.022
 8.000   1.174  -103.546   0.613   40.310   1.099   42.680
       3.287   83.627   1.090  -80.862   2.239  -78.091
       2.312  -66.824   0.769   62.140   1.471   100.562
 8.200   1.195  -108.496   0.640   37.825   1.146   40.309
       3.385   79.960   1.099  -85.173   2.260  -81.925
       2.336  -70.258   0.810   60.215   1.508   97.296
 8.400   1.204  -112.815   0.658   35.593   1.182   37.956
       3.443   76.717   1.097  -88.658   2.262  -85.355
       2.341  -73.224   0.838   58.382   1.532   94.316
 8.600   1.204  -118.014   0.677   32.506   1.216   35.096
       3.487   72.706   1.085  -93.325   2.247  -89.332
       2.328  -76.874   0.872   55.609   1.548   90.777
 8.800   1.215  -122.658   0.695   30.062   1.252   32.621
       3.551   69.188   1.081  -97.340   2.250  -93.144
       2.330  -80.263   0.902   53.456   1.573   87.490
 9.000   1.226  -127.040   0.712   27.761   1.284   30.268
       3.600   65.866   1.077  -101.219   2.244  -96.711
       2.322  -83.406   0.929   51.355   1.589   84.457
 9.200   1.232  -132.203   0.728   24.877   1.315   27.454
       3.648   62.029   1.069  -105.838   2.233  -100.821
       2.312  -87.107   0.959   48.834   1.607   80.971
 9.400   1.243  -137.406   0.745   22.090   1.348   24.614
       3.698   58.191   1.062  -110.442   2.224  -105.068
       2.301  -90.844   0.987   46.396   1.625   77.455
 9.600   1.245  -142.489   0.757   19.163   1.372   21.828
