! Filename:  P:\Prog\Test\Noise\ATS_data\Testdata_Net\Split files Spar\BFU730_2W_B1_Bias9_2.5V_1mA_25mA_D.s2p
! Date/Time: Fri 29/Apr/2011 15:08:53
! BFU730_2W_B1_Bias9_2.5V_1mA_25mA_R.s2p
! MDIF S-parameter v. bias file
! BFU730_2W_B1_2.5V_1mA_25mA
! Date/time Thu Mar 17 13:38:09 2011
! VAR V_out= 2.5000
! VAR I_out= 24.9850
! VAR V_in= 0.8095
! VAR I_in= 0.0936
! Device data file deembeded for feedlines and parallel
! Original file: \Split files Spar\BFU730_2W_B1_Bias9_2.5V_1mA_25mA_R.s2p
! Feed-files: PR003V01_101208_Feed1.s2p, PR003V01_101208_Feed2.s2p
! Parallel-file: PR003V01_101208_Par.s2p
!3-port S-parameters
# GHz S MA R 50
!  Freq-GHz   S11-mag  S11-arg   S12-mag  S12-arg   S13-mag  S13-arg   S21-mag  S21-arg   S22-mag  S22-arg   S23-mag  S23-arg   S31-mag  S31-arg   S32-mag  S32-arg   S33-mag  S33-arg
 0.060   0.959   2.617   0.031  -38.570   0.030  -53.343
       1.981  -174.479   0.979   5.415   2.000   2.815
       2.020   4.169   0.073  -89.217   1.018  -175.843
 0.070   0.934   5.063   0.053  -54.561   0.055  -45.214
       1.912  -173.336   0.968   6.748   1.941   3.195
       1.974   4.052   0.071  -83.308   0.979  -175.954
 0.080   0.921   4.256   0.050  -56.808   0.061  -26.047
       1.826  -175.601   0.944   5.375   1.882   1.573
       1.904   2.159   0.057  -54.756   0.936  -178.469
 0.090   0.936   1.266   0.027  -50.047   0.047  -0.165
       1.842   179.871   0.948   2.103   1.896  -1.177
       1.906  -0.747   0.039  -21.614   0.943   177.625
 0.100   0.975  -0.435   0.006  -18.669   0.021   26.012
       1.941   177.680   0.977   0.107   1.964  -2.346
       1.966  -2.075   0.017   0.388   0.984   175.859
 0.120   1.052   2.883   0.027  -85.350   0.059  -154.379
       2.154  -177.870   1.020   3.335   2.135   0.557
       2.101   0.739   0.038  -122.146   1.081   179.744
 0.140   1.024   5.942   0.054  -87.695   0.055  -111.722
       1.993  -172.998   0.973   6.870   2.016   3.599
       1.965   3.997   0.070  -62.741   0.995  -175.674
 0.160   0.982  -0.971   0.010   24.701   0.015   54.109
       1.845   179.321   0.924   0.172   1.921  -0.735
       1.863  -0.161   0.067  -6.085   0.930   179.240
 0.180   1.001  -5.190   0.032   53.674   0.066   103.685
       1.979   174.329   0.950  -3.307   2.027  -3.985
       1.976  -3.049   0.044   41.165   1.009   175.654
 0.200   1.042  -0.981   0.007   174.166   0.039   153.938
       2.120  -179.671   1.008   0.164   2.112   0.252
       2.078   0.828   0.004  -100.759   1.078  -178.597
 0.220   0.946  -0.009   0.025   39.391   0.038  -24.276
       1.875  -177.476   0.937  -0.048   1.938   2.465
       1.929   2.458   0.046  -18.797   0.973  -176.010
 0.240   0.887  -2.883   0.063   29.508   0.060   12.817
       1.771   176.265   0.895  -4.654   1.877  -1.308
       1.883  -2.154   0.067   37.825   0.935   178.197
 0.260   0.975  -1.770   0.023   34.581   0.018   69.322
       2.018   174.980   0.989  -4.967   2.028  -2.573
       2.041  -4.116   0.073   93.037   1.035   175.909
 0.280   1.058   3.262   0.027  -161.797   0.060  -120.600
       2.174  -177.795   1.067  -0.554   2.107   2.556
       2.117   0.635   0.046   155.925   1.075  -177.754
 0.300   0.996   4.013   0.011  -87.739   0.059  -84.296
       1.957  -175.904   0.997   0.734   1.959   3.717
       1.959   2.049   0.003  -38.618   0.963  -175.940
 0.320   0.998  -0.429   0.008   167.185   0.011   30.102
       1.911   177.891   0.995  -2.353   1.917  -0.882
       1.914  -1.883   0.041   70.575   0.927   178.530
 0.340   1.097  -5.029   0.069   146.043   0.068   121.410
       2.164   173.536   1.104  -5.259   2.056  -3.973
       2.064  -4.100   0.076   123.820   1.020   175.230
 0.360   1.113  -3.650   0.069   141.511   0.064   153.864
       2.293   178.321   1.143  -2.310   2.150  -0.563
       2.181   0.097   0.088   177.826   1.093  -179.632
 0.380   0.980   1.087   0.009  -32.006   0.019  -46.853
       2.011  -175.510   1.027   3.321   1.983   2.833
       2.030   3.922   0.064  -120.782   0.997  -175.151
 0.400   0.912   0.634   0.031  -34.831   0.063   7.125
       1.824  -178.468   0.964   2.673   1.860   0.117
       1.912   1.159   0.029  -67.863   0.923  -179.281
 0.420   0.948  -1.710   0.009  -13.064   0.053   34.893
       1.922   176.659   0.995  -0.325   1.927  -3.165
       1.974  -2.432   0.009   119.296   0.970   175.509
 0.440   1.026   0.939   0.020  -111.229   0.019   172.967
       2.148   179.133   1.058   1.529   2.091  -1.664
       2.122  -1.331   0.051  -169.589   1.074   176.880
 0.460   1.053   7.478   0.072  -98.617   0.074  -116.979
       2.153  -172.588   1.046   7.943   2.103   3.630
       2.096   3.849   0.078  -109.212   1.067  -176.395
 0.480   1.012   6.665   0.057  -100.160   0.061  -85.765
       1.943  -172.258   0.980   7.396   1.958   3.970
       1.925   4.297   0.080  -61.472   0.960  -175.561
 0.500   0.985  -0.178   0.004   80.100   0.014  -3.023
       1.838  -179.782   0.935   1.027   1.904  -0.294
       1.853   0.311   0.068  -17.581   0.918   179.343
 0.550   1.050  -2.537   0.019   69.224   0.063   152.486
       2.160   178.802   1.004  -1.361   2.156  -0.567
       2.111   0.036   0.012   147.564   1.100  -179.594
 0.600   0.876  -0.311   0.056   12.399   0.070  -5.921
       1.736   179.704   0.890  -2.192   1.847   0.778
       1.860  -0.130   0.060   21.493   0.916  -178.881
 0.650   1.084  -0.166   0.044  -178.591   0.041   174.040
       2.216   175.925   1.096  -4.018   2.118  -2.182
       2.132  -4.151   0.092   122.534   1.079   175.938
 0.700   1.054   3.189   0.037  -173.354   0.057  -106.322
       2.051  -174.497   1.059   2.360   1.990   4.413
       1.994   3.970   0.044  -117.971   0.973  -174.176
 0.750   0.977  -6.325   0.037   97.765   0.079   64.380
       1.923   173.589   1.009  -3.560   1.910  -4.567
       1.943  -3.160   0.026   94.563   0.942   175.048
 0.800   1.019   0.527   0.005  -36.187   0.024  -164.756
       2.210  -178.105   1.066   2.764   2.145   0.580
       2.191   1.667   0.084  -144.807   1.121  -179.218
 0.850   0.918   8.071   0.081  -53.054   0.077  -56.454
       1.790  -171.633   0.900   8.046   1.885   4.094
       1.867   4.043   0.086  -45.305   0.926  -175.640
 0.900   0.992  -2.927   0.017   29.530   0.043   96.860
       1.884   174.154   0.925  -3.201   1.956  -4.112
       1.889  -4.288   0.076   34.882   0.951   174.086
 0.950   1.110  -3.077   0.028   147.759   0.096   152.090
       2.283   177.015   1.060  -2.846   2.222  -1.709
       2.173  -1.565   0.052   133.217   1.136   178.920
 1.000   0.975   2.866   0.016  -127.020   0.051  -44.774
       1.945  -174.359   0.998   2.066   1.944   4.579
       1.967   4.153   0.026  -62.136   0.982  -173.019
 1.050   0.906  -1.215   0.027   65.019   0.083  -3.562
       1.761   177.216   0.956  -3.829   1.805  -0.689
       1.854  -2.050   0.053   48.728   0.888   178.268
 1.100   1.071  -3.515   0.051   144.273   0.045   127.105
       2.170   172.486   1.101  -5.616   2.063  -4.894
       2.094  -5.979   0.095   124.937   1.038   172.237
 1.150   1.215   2.910   0.096  -166.160   0.126  -162.111
       2.479  -175.466   1.203   4.349   2.274   2.640
       2.262   3.404   0.126  -147.324   1.154  -176.719
 1.200   0.999   2.449   0.006  -84.978   0.037  -88.597
       1.943  -171.816   0.978   6.427   1.958   4.894
       1.938   6.928   0.107  -75.237   0.960  -172.209
 1.250   0.846  -3.195   0.075   14.646   0.088   18.771
       1.635   178.800   0.843   0.237   1.792  -1.207
       1.790   0.413   0.087  -14.965   0.874   179.373
 1.300   0.892  -5.588   0.067   26.351   0.078   47.530
       1.821   170.973   0.890  -5.804   1.923  -5.842
       1.921  -5.942   0.081   47.838   0.976   171.837
 1.350   1.066  -1.001   0.023   95.935   0.064  -176.073
       2.274   176.027   1.047  -4.764   2.226  -1.817
       2.207  -3.609   0.076   122.872   1.164   176.307
 1.400   1.083   7.036   0.021  -112.584   0.131  -120.352
       2.229  -171.791   1.053   2.721   2.172   7.098
       2.140   4.978   0.053  -144.711   1.100  -171.897
 1.450   0.968   4.575   0.031  -33.371   0.061  -81.876
       1.862  -172.862   0.953   2.883   1.905   5.527
       1.889   4.682   0.038  -54.038   0.913  -172.229
 1.500   0.912  -2.965   0.036   13.317   0.066   35.869
       1.726   177.354   0.928  -1.576   1.798  -1.727
       1.813  -1.027   0.042   24.459   0.851   178.973
 1.550   0.935  -8.655   0.039   55.438   0.121   63.948
       1.883   169.363   0.983  -5.307   1.890  -7.808
       1.937  -6.130   0.059   90.691   0.937   170.902
 1.600   1.025  -6.158   0.018   103.469   0.093   98.871
       2.241   172.111   1.087  -2.891   2.149  -6.755
       2.210  -5.132   0.089   155.574   1.131   171.831
 1.650   1.047   6.567   0.059  -80.149   0.079  -129.285
       2.333  -172.942   1.075   7.681   2.254   3.636
       2.281   4.196   0.114  -131.561   1.202  -176.110
 1.700   0.941   13.155   0.104  -55.046   0.131  -79.274
       1.945  -164.952   0.920   11.851   2.004   9.079
       1.984   8.433   0.111  -68.752   1.020  -169.415
 1.750   0.888   9.961   0.094  -44.130   0.105  -56.837
       1.671  -169.706   0.838   7.280   1.822   6.057
       1.775   4.683   0.108  -21.952   0.876  -173.153
 1.800   0.911   1.281   0.047  -23.996   0.046  -1.410
       1.639   178.557   0.849  -1.241   1.789  -0.733
       1.728  -2.044   0.114   19.262   0.835   178.352
 1.850   0.982  -8.245   0.045   73.349   0.099   81.021
       1.841   167.273   0.935  -9.635   1.891  -7.572
       1.844  -8.260   0.131   60.050   0.903   170.344
 1.900   1.109  -12.652   0.089   109.838   0.167   107.922
       2.274   164.137   1.102  -12.552   2.146  -10.255
       2.139  -10.196   0.162   106.300   1.083   168.118
 1.950   1.215  -6.232   0.089   152.109   0.158   145.142
       2.669   174.507   1.263  -4.561   2.403  -3.700
       2.452  -2.889   0.190   161.938   1.270   177.083
 2.000   1.098   5.207   0.063  -125.258   0.074  -139.712
       2.429  -170.451   1.180   7.638   2.239   6.309
       2.322   7.506   0.169  -141.638   1.186  -170.380
 2.050   0.924   10.364   0.091  -70.441   0.100  -53.078
       1.959  -164.597   1.007   12.770   1.930   8.876
       2.011   10.141   0.137  -95.159   0.991  -167.323
 2.100   0.826   10.028   0.107  -51.076   0.134  -27.028
       1.631  -167.466   0.881   11.478   1.738   5.900
       1.791   6.738   0.116  -53.045   0.857  -172.098
 2.150   0.817   6.572   0.093  -43.860   0.124  -13.383
       1.534  -175.090   0.841   6.738   1.693   1.103
       1.717   1.261   0.103  -19.226   0.814  -179.733
 2.200   0.867   1.489   0.063  -35.051   0.083   9.546
       1.604   175.791   0.844   0.428   1.760  -4.042
       1.738  -4.628   0.108   16.060   0.844   172.488
 2.250   0.992  -4.320   0.014   12.280   0.072   92.719
       1.903   168.127   0.926  -5.938   1.964  -8.663
       1.900  -9.602   0.113   54.881   0.965   166.569
 2.300   1.165  -5.917   0.041   145.850   0.158   142.154
       2.359   167.933   1.061  -7.555   2.283  -8.914
       2.180  -9.853   0.118   98.641   1.159   167.212
 2.350   1.311  -1.880   0.074   178.299   0.240   170.205
       2.746   175.711   1.180  -3.076   2.563  -3.176
       2.433  -3.826   0.121   149.623   1.327   175.626
 2.400   1.284   4.512   0.078  -151.784   0.221  -163.108
       2.705  -173.324   1.185   3.645   2.516   5.455
       2.416   5.069   0.120  -161.293   1.304  -172.296
 2.450   1.107   7.498   0.059  -109.364   0.119  -131.434
       2.295  -166.898   1.076   7.829   2.202   9.774
       2.170   9.972   0.102  -117.012   1.128  -165.370
 2.500   0.921   7.207   0.061  -63.676   0.085  -46.013
       1.855  -166.498   0.963   8.210   1.874   9.074
       1.916   9.538   0.085  -76.559   0.939  -165.548
 2.600   0.793   1.595   0.067  -29.820   0.150   4.201
       1.506  -177.651   0.871   3.125   1.634   0.498
       1.713   1.327   0.074  -11.317   0.785  -178.158
 2.700   0.856  -3.799   0.042  -16.843   0.126   33.122
       1.695   168.725   0.910  -3.522   1.776  -8.927
       1.829  -8.638   0.085   53.096   0.884   166.488
 2.800   1.140  -2.492   0.037  -159.540   0.122   149.161
       2.478   169.879   1.113  -4.476   2.355  -8.510
       2.333  -9.522   0.125   127.174   1.258   166.849
 2.900   1.302   14.141   0.126  -122.893   0.287  -132.400
       2.797  -166.713   1.205   8.837   2.573   10.249
       2.481   7.523   0.146  -147.051   1.360  -169.597
 3.000   1.037   15.977   0.101  -87.093   0.185  -90.647
       1.990  -159.838   0.980   11.934   1.969   14.204
       1.913   12.079   0.108  -70.813   0.954  -161.799
 3.100   0.901   3.689   0.049  -55.222   0.075  -13.649
       1.563  -174.993   0.882   3.431   1.678   2.856
       1.659   2.709   0.092  -7.799   0.752  -174.966
 3.200   0.911  -9.946   0.027   48.852   0.161   58.295
       1.647   166.059   0.917  -6.204   1.713  -10.009
       1.718  -8.013   0.106   48.130   0.788   168.254
 3.300   1.074  -18.403   0.080   114.323   0.267   87.141
       2.248   157.152   1.107  -11.884   2.090  -17.968
       2.120  -14.576   0.163   107.960   1.071   159.310
 3.400   1.340  -3.431   0.123  -168.348   0.241   154.204
       3.122   179.227   1.374   3.906   2.754  -2.825
       2.785   0.783   0.260  -164.665   1.534   178.851
 3.500   0.965   13.770   0.104  -73.291   0.134  -75.930
       2.114  -157.382   0.981   17.814   2.081   14.264
       2.097   16.152   0.203  -79.820   1.117  -159.958
 3.600   0.747   10.510   0.109  -31.076   0.189  -24.986
       1.429  -164.265   0.772   9.124   1.635   9.334
       1.660   8.707   0.158  -24.698   0.806  -166.717
 3.700   0.720   0.721   0.093  -7.136   0.188   0.741
       1.310   176.414   0.765  -3.448   1.544  -1.332
       1.590  -3.280   0.155   21.707   0.732   177.382
 3.800   0.856  -6.448   0.044   26.730   0.134   34.745
       1.674   160.439   0.903  -13.292   1.735  -11.737
       1.788  -15.052   0.205   66.357   0.855   161.133
 3.900   1.223  -8.186   0.107   159.614   0.175   128.759
       2.753   159.604   1.311  -14.524   2.397  -15.263
       2.497  -18.334   0.336   119.962   1.300   157.655
 4.000   1.642   21.780   0.342  -128.884   0.463  -132.107
       3.733  -160.998   1.681   17.921   3.013   13.404
       3.066   11.407   0.459  -146.856   1.659  -167.637
 4.100   1.094   30.403   0.236  -87.939   0.321  -81.375
       2.205  -144.835   1.063   28.977   2.019   21.958
       1.993   21.074   0.285  -77.564   1.020  -154.574
 4.200   0.747   16.909   0.136  -50.010   0.228  -29.717
       1.385  -158.580   0.780   16.351   1.567   10.518
       1.601   10.381   0.200  -35.159   0.758  -166.812
 4.300   0.742   6.209   0.089  -35.916   0.192  -8.354
       1.260  -178.177   0.745   3.847   1.515  -0.376
       1.521  -1.516   0.184   0.768   0.706   176.932
 4.400   0.864  -5.647   0.031   33.867   0.132   30.662
       1.541   161.616   0.824  -10.509   1.686  -11.488
       1.652  -14.050   0.211   39.096   0.812   160.702
 4.500   1.193  -14.159   0.131   124.046   0.201   114.392
       2.459   152.464   1.120  -21.617   2.258  -18.702
       2.193  -22.661   0.306   83.942   1.187   152.876
 4.600   1.929   3.669   0.353   178.115   0.588  -166.714
       4.324   178.645   1.823  -5.126   3.508   0.989
       3.405  -3.801   0.486   161.877   1.937   177.796
 4.700   1.330   28.524   0.214  -122.929   0.458  -96.494
       2.784  -146.638   1.292   20.590   2.374   26.969
       2.336   22.558   0.290  -108.662   1.232  -149.710
 4.800   0.976   17.720   0.069  -104.283   0.246  -69.221
       1.716  -154.462   0.941   12.717   1.716   18.091
       1.678   15.299   0.172  -54.508   0.780  -157.125
 4.900   0.882   2.816   0.018   56.839   0.124  -28.018
       1.394  -174.719   0.850   1.049   1.543   4.192
       1.510   3.227   0.144  -12.234   0.650  -175.189
 5.000   0.899  -11.606   0.087   78.030   0.140   43.192
       1.459   163.867   0.857  -9.892   1.579  -9.413
       1.538  -8.398   0.151   24.142   0.679   166.137
 5.200   1.705  -31.744   0.348   118.942   0.656   115.395
       3.740   146.394   1.560  -24.657   3.047  -27.753
       2.912  -23.757   0.427   125.780   1.639   149.713
 5.400   1.096   16.214   0.077  -76.366   0.242  -106.883
       2.169  -147.437   0.944   22.027   2.115   22.612
       1.974   25.877   0.299  -69.107   1.057  -146.595
 5.600   0.707  -9.751   0.156   23.150   0.170   20.162
       1.131   175.641   0.652  -4.817   1.478  -1.210
       1.430   1.358   0.208  -1.802   0.638  -177.542
 5.800   0.770  -34.914   0.232   41.271   0.347   56.033
       1.691   137.129   0.793  -31.005   1.727  -25.443
       1.757  -23.815   0.295   60.269   0.880   148.948
 6.000   1.676   6.318   0.209  -161.526   0.483  -165.809
       4.560  -163.427   1.849   12.020   3.679   14.415
       3.870   16.767   0.689  -152.411   2.242  -159.160
 6.200   0.709   10.709   0.139  -40.791   0.202  -11.691
       1.350  -154.542   0.796   17.726   1.498   13.022
       1.587   16.416   0.204  -48.088   0.722  -155.737
 6.400   0.655  -10.764   0.089  -2.586   0.297   25.199
       1.164   162.514   0.761  -5.211   1.382  -11.723
       1.485  -8.815   0.170   25.391   0.640   166.038
 6.600   1.106  -31.067   0.164   105.628   0.424   76.806
       2.927   139.358   1.310  -25.762   2.440  -33.225
       2.636  -30.432   0.433   108.225   1.466   140.919
 6.800   0.934   27.808   0.150  -77.015   0.322  -64.145
       2.357  -134.918   1.055   34.359   2.090   30.909
       2.214   33.861   0.460  -78.039   1.219  -139.983
 7.000   0.596   3.971   0.120   6.115   0.291  -10.730
       1.002  -166.310   0.647   5.433   1.341   7.538
       1.393   8.086   0.247  -17.443   0.627  -168.797
 7.200   0.593  -19.865   0.187   32.035   0.302   19.791
       1.162   146.972   0.654  -20.466   1.420  -16.549
       1.481  -16.950   0.263   29.465   0.713   154.913
 7.400   1.557  -18.298   0.211   113.262   0.493   143.237
       5.121   160.024   1.821  -20.188   4.254  -15.279
       4.514  -16.216   0.762   145.219   2.832   163.041
 7.600   0.603   17.234   0.185  -11.076   0.282  -30.529
       1.392  -142.432   0.700   17.917   1.571   23.785
       1.668   23.689   0.236  -49.669   0.839  -144.212
 7.800   0.523   4.190   0.205  -13.149   0.278   1.736
       0.885   172.146   0.573  -2.271   1.308  -4.309
       1.364  -6.702   0.238   16.983   0.589   171.229
 8.000   0.641  -11.518   0.139   4.501   0.261   26.666
       1.385   141.864   0.767  -21.913   1.491  -22.443
       1.632  -26.464   0.314   61.400   0.760   143.521
 8.200   1.284   49.759   0.362  -89.736   0.641  -74.723
       3.925  -126.461   1.600   41.766   2.992   44.348
       3.317   41.010   0.730  -105.481   1.970  -131.612
 8.400   0.633   24.097   0.117  -49.170   0.385  -26.221
       1.180  -144.316   0.760   17.246   1.316   20.585
       1.445   17.290   0.240  -34.745   0.648  -153.134
 8.600   0.589  -5.281   0.149   30.195   0.286  -4.114
       0.966   159.530   0.655  -15.982   1.285  -7.041
       1.349  -12.143   0.264   23.656   0.588   162.372
 8.800   0.859  -34.084   0.255   60.497   0.306   57.883
       2.463   121.668   1.050  -48.928   2.067  -39.136
       2.260  -45.595   0.599   72.052   1.296   126.230
 9.000   1.132   41.354   0.205  -74.620   0.559  -80.135
       4.225  -125.862   1.626   38.791   3.265   47.452
       3.748   45.548   0.882  -111.387   2.267  -125.099
 9.200   0.471   16.056   0.229  -10.668   0.334  -15.292
       0.946  -149.048   0.593   12.530   1.283   16.194
       1.404   14.693   0.214  -23.820   0.616  -154.019
 9.400   0.479  -4.046   0.205  -8.300   0.325   11.263
       0.858   156.494   0.573  -10.041   1.246  -11.210
       1.344  -13.261   0.266   29.149   0.570   161.709
 9.600   0.725  -33.474   0.146   32.919   0.421   49.611
       2.182   119.407   0.917  -41.391   1.895  -43.102
