! Filename:  P:\Prog\Test\Noise\ATS_data\Testdata_Net\Split files Spar\BFU730_2W_B1_Bias5_2.5V_1mA_25mA_D.s2p
! Date/Time: Fri 29/Apr/2011 15:08:25
! BFU730_2W_B1_Bias5_2.5V_1mA_25mA_R.s3p
! MDIF S-parameter v. bias file
! BFU730_2W_B1_2.5V_1mA_25mA
! Date/time Thu Mar 17 13:38:09 2011
! VAR V_out= 2.5000
! VAR I_out= 7.5600
! VAR V_in= 0.7941
! VAR I_in= 0.0222
! Device data file deembeded for feedlines and parallel
!3-port S-parameters
# GHz S MA R 50
!   Freq-GHz   S11-mag   S11-arg   S12-mag   S12-arg   S13-mag   S13-arg   S21-mag   S21-arg   S22-mag   S22-arg   S23-mag   S23-arg   S31-mag   S31-arg   S32-mag   S32-arg   S33-mag   S33-arg
       0.060     1.219   -13.686     0.159   144.829     0.204   105.407     2.497   167.335     1.293    -7.014     2.188   -10.256     2.267    -6.563     0.167   156.580     1.116   170.049
       0.070     1.153   -15.721     0.158   124.607     0.183    96.163     2.463   166.305     1.275    -9.922     2.168    -9.652     2.300    -6.765     0.189   151.657     1.132   170.789
       0.080     1.174   -11.995     0.139   130.647     0.150   112.611     2.596   172.324     1.311    -5.265     2.279    -5.704     2.427    -2.428     0.215   176.134     1.213   175.827
       0.090     1.158    -5.283     0.092   148.703     0.095   141.597     2.558  -178.003     1.273     2.923     2.286     0.608     2.412     4.655     0.223  -149.687     1.214  -176.078
       0.100     1.061    -1.637     0.034   150.401     0.035   156.623     2.389  -173.533     1.194     6.330     2.192     3.596     2.333     7.376     0.216  -136.730     1.166  -172.544
       0.120     0.877     5.038     0.072   -40.495     0.078   -22.843     1.928  -167.386     1.003    12.177     1.912     6.287     2.038     9.722     0.169  -102.064     0.989  -169.579
       0.140     0.803     6.152     0.099   -45.030     0.133    -6.914     1.661  -169.954     0.917    11.650     1.740     3.442     1.849     6.326     0.120   -74.682     0.874  -174.190
       0.160     0.807     2.211     0.072   -46.735     0.146     8.538     1.605  -178.249     0.903     6.855     1.709    -1.968     1.798     0.571     0.077   -45.369     0.853   177.510
       0.180     0.870    -1.014     0.024   -47.197     0.119    15.984     1.752   175.529     0.955     1.791     1.800    -5.306     1.881    -3.695     0.032   -23.205     0.916   171.603
       0.200     0.965    -2.343     0.008    71.141     0.046    43.774     2.070   174.105     1.024    -0.126     2.047    -5.900     2.102    -4.725     0.027  -168.098     1.084   170.506
       0.220     1.028     5.136     0.039   -56.002     0.075  -127.329     2.300  -176.731     1.046     6.055     2.256     0.529     2.273     0.988     0.100  -128.612     1.211   178.169
       0.240     0.954    15.060     0.122   -47.610     0.158   -91.517     2.083  -164.570     0.924    14.555     2.138     8.662     2.109     8.350     0.144   -80.820     1.121  -171.567
       0.260     0.885    17.829     0.157   -48.027     0.163   -71.118     1.768  -162.009     0.823    16.270     1.918     9.470     1.860     8.509     0.155   -47.298     0.958  -170.309
       0.280     0.889    13.423     0.127   -55.165     0.120   -58.623     1.614  -168.435     0.799    11.282     1.805     5.314     1.720     3.902     0.153   -19.879     0.862  -175.673
       0.300     0.947     5.184     0.054   -67.989     0.051   -43.745     1.647  -179.069     0.832     2.793     1.816    -0.435     1.705    -1.976     0.149     3.766     0.854   176.710
       0.320     1.036    -3.329     0.030   111.682     0.040   125.441     1.845   171.436     0.891    -5.996     1.948    -5.356     1.804    -6.836     0.141    27.484     0.928   170.731
       0.340     1.168    -7.631     0.092   107.837     0.147   152.401     2.227   168.305     0.989   -11.398     2.226    -6.601     2.044    -8.332     0.123    61.721     1.097   170.135
       0.360     1.246    -4.846     0.078   108.702     0.218   171.860     2.481   174.391     1.042    -8.090     2.440    -2.253     2.232    -3.526     0.073    94.752     1.223   176.955
       0.380     1.188     2.176     0.013   119.497     0.190  -162.653     2.360  -175.155     1.009    -0.506     2.352     5.080     2.170     4.076     0.004  -135.372     1.172  -172.560
       0.400     1.055     3.588     0.018   -40.791     0.086  -140.838     1.996  -172.288     0.933     1.570     2.060     6.754     1.936     5.985     0.056   -14.320     0.997  -169.132
       0.420     0.969    -1.534     0.023    52.886     0.019    23.992     1.747  -178.538     0.898    -2.938     1.851     2.806     1.778     2.273     0.093    17.243     0.872  -173.533
       0.440     0.935    -9.234     0.077    75.969     0.095    52.005     1.681   171.723     0.896    -9.996     1.783    -2.780     1.744    -3.026     0.127    39.159     0.840   179.210
       0.460     0.927   -16.769     0.138    73.382     0.153    61.762     1.782   162.657     0.932   -17.073     1.828    -8.098     1.832    -8.274     0.157    63.846     0.891   172.110
       0.480     0.969   -19.560     0.159    72.694     0.177    77.075     2.048   159.688     1.014   -19.768     2.001   -10.602     2.044   -10.898     0.191    90.336     1.025   169.006
       0.500     1.052   -13.875     0.114    84.976     0.143   102.863     2.403   166.918     1.151   -14.113     2.240    -6.751     2.338    -7.166     0.209   127.014     1.200   174.047
       0.550     0.916     6.327     0.047  -108.090     0.119   -28.100     1.932  -169.945     1.073     5.708     1.850     7.165     2.007     6.768     0.081  -130.580     0.956  -169.464
       0.600     0.856    -3.213     0.052    70.610     0.128    -0.303     1.734   173.812     0.996    -5.206     1.735    -3.191     1.874    -4.251     0.043   102.118     0.866   173.550
       0.650     1.103     6.652     0.076  -101.035     0.097  -146.969     2.523  -179.061     1.220     4.408     2.307    -1.301     2.428    -2.040     0.203  -174.662     1.230   175.087
       0.700     1.098    20.460     0.199   -99.309     0.188   -89.022     2.138  -158.628     1.103    20.649     1.997    11.266     2.001    11.389     0.193   -89.911     0.983  -168.124
       0.750     1.001    -0.426     0.014  -168.106     0.017    38.448     1.738  -179.862     0.922     3.658     1.819    -1.721     1.737     0.384     0.109   -30.872     0.832   176.946
       0.800     1.124   -11.609     0.043    87.998     0.209   119.205     2.232   168.295     0.991    -3.646     2.231   -10.061     2.097    -6.206     0.022    63.152     1.114   169.294
       0.850     1.081     1.420     0.024   -93.683     0.079  -177.594     2.177  -171.085     0.969     8.190     2.200     5.196     2.094     8.531     0.122   -69.842     1.130  -170.011
       0.900     0.784    -4.560     0.110    17.188     0.117    14.701     1.478  -179.436     0.747    -1.454     1.732     1.109     1.699     2.594     0.149    -5.272     0.847  -175.722
       0.950     0.788    -5.847     0.101     6.426     0.135    30.751     1.630   166.966     0.801    -9.753     1.813    -7.347     1.827    -9.049     0.166    48.619     0.928   169.891
       1.000     1.135     2.581     0.078   175.786     0.080  -134.633     2.499   177.723     1.187    -6.182     2.317     0.707     2.368    -3.641     0.160   130.083     1.261   178.716
       1.050     0.980    10.381     0.019   154.748     0.192   -73.838     1.958  -168.049     1.033     0.964     1.922    11.647     1.965     6.689     0.030  -121.239     0.958  -167.745
       1.100     0.903     2.086     0.057    19.242     0.068   -49.419     1.672   178.324     0.911    -5.242     1.765     1.115     1.771    -2.646     0.075    58.922     0.809   178.776
       1.150     1.206    -8.637     0.097   158.714     0.178   124.800     2.372   165.439     1.208    -9.218     2.141   -10.841     2.144   -11.165     0.188   122.747     1.034   165.613
       1.200     1.476     0.928     0.230  -169.523     0.251   175.901     3.055  -175.136     1.498     6.447     2.557     2.035     2.579     5.231     0.291  -154.298     1.310  -175.240
       1.250     1.001     3.397     0.043  -121.049     0.032   -44.697     1.940  -166.858     1.034    12.191     1.892     6.762     1.928    11.421     0.182   -86.272     0.923  -167.469
       1.300     0.810    -4.737     0.054    -4.774     0.157    27.121     1.535   178.524     0.863     4.198     1.678    -3.509     1.728     0.906     0.104   -34.228     0.814   177.795
       1.350     0.889    -9.620     0.047    52.610     0.146    49.649     1.875   167.440     0.937    -4.195     1.926   -10.145     1.970    -7.558     0.048    39.963     1.016   167.033
       1.400     1.015     3.989     0.035     4.416     0.088  -123.081     2.346  -175.727     1.006     3.308     2.338     2.862     2.329     2.563     0.072  -122.532     1.288  -178.068
       1.450     0.841    17.074     0.148   -26.027     0.193   -70.921     1.741  -161.545     0.776    10.751     1.932    12.139     1.872     9.347     0.132   -37.256     0.978  -166.752
       1.500     0.857    10.398     0.117   -39.196     0.105   -50.489     1.501  -173.812     0.756     3.278     1.741     3.904     1.650     0.249     0.157    11.174     0.805  -177.319
       1.550     1.042    -5.811     0.039   132.018     0.077    97.561     1.827   165.960     0.928   -11.808     1.881    -7.740     1.769   -11.010     0.199    53.864     0.872   168.303
       1.600     1.402   -16.324     0.240   127.812     0.285   134.160     2.772   160.276     1.309   -20.189     2.429   -11.485     2.327   -13.450     0.274   107.208     1.215   166.701
       1.650     1.400    -2.537     0.190   153.490     0.230  -174.264     2.919  -176.034     1.407    -2.304     2.519     5.889     2.527     5.996     0.237  -173.119     1.299  -169.553
       1.700     0.966     0.785     0.019   131.064     0.055   -30.585     1.902  -169.769     1.045     4.836     1.847     7.769     1.934     9.664     0.107  -105.717     0.905  -165.803
       1.750     0.809    -6.236     0.053    43.013     0.166    18.176     1.554   177.358     0.927    -1.185     1.627    -1.849     1.749     0.530     0.038   -26.538     0.783   179.938
       1.800     0.822   -11.404     0.082    54.153     0.175    33.239     1.750   165.452     0.973    -7.670     1.757   -10.151     1.908    -8.347     0.064   100.827     0.902   166.284
       1.850     1.011    -2.485     0.019     5.488     0.051   124.168     2.450   173.103     1.152    -0.564     2.298    -7.072     2.435    -5.902     0.171   176.794     1.275   169.109
       1.900     1.007    22.223     0.187   -61.222     0.218   -95.784     2.351  -158.144     1.025    22.416     2.286    12.229     2.304    12.393     0.230   -99.443     1.241  -167.558
       1.950     0.890    24.350     0.206   -58.086     0.208   -67.407     1.720  -154.459     0.820    23.297     1.846    13.057     1.780    12.138     0.203   -47.326     0.906  -165.633
       2.000     0.911    11.192     0.110   -70.256     0.101   -46.623     1.507  -170.380     0.792    10.281     1.710     3.706     1.595     2.701     0.187   -11.697     0.777  -177.260
       2.050     0.989    -5.837     0.026   101.401     0.078    73.818     1.637   169.084     0.833    -6.364     1.793    -6.972     1.637    -7.348     0.190    20.482     0.814   169.885
       2.100     1.145   -19.936     0.157    94.860     0.242   105.002     2.138   155.446     0.967   -20.604     2.112   -15.043     1.934   -14.928     0.213    59.599     1.026   162.159
       2.150     1.379   -18.393     0.205   109.926     0.340   134.526     2.911   163.160     1.233   -18.637     2.657    -9.740     2.511    -9.357     0.224   116.005     1.395   171.475
       2.200     1.224    -1.612     0.101   140.958     0.148  -168.636     2.651  -173.135     1.233    -1.299     2.424     8.179     2.434     8.298     0.159  -167.025     1.293  -165.872
       2.250     0.894     1.600     0.029    68.371     0.109   -28.729     1.801  -168.733     0.986     2.194     1.808    10.003     1.901     9.904     0.065   -86.696     0.914  -163.357
       2.300     0.755    -3.866     0.086    44.310     0.185    -2.847     1.458  -179.561     0.881    -4.513     1.581     2.918     1.705     2.088     0.061     8.706     0.767  -174.667
       2.350     0.727    -7.490     0.123    39.678     0.186     5.034     1.468   168.442     0.871   -11.203     1.589    -4.509     1.729    -6.621     0.104    60.571     0.776   171.958
       2.400     0.853    -7.606     0.092    42.038     0.100    30.726     1.869   161.944     0.995   -13.032     1.842   -11.110     1.987   -13.576     0.167   103.088     0.944   161.227
       2.450     1.216    -0.815     0.059  -155.733     0.168   165.652     2.799   168.977     1.316    -4.902     2.473    -9.844     2.584   -11.563     0.291   152.002     1.330   163.344
       2.500     1.534    19.682     0.292  -114.154     0.410  -142.441     3.416  -163.878     1.517    19.683     2.887     8.721     2.870     8.655     0.393  -141.656     1.540  -172.995
       2.600     1.021    17.044     0.158   -83.957     0.142   -87.181     1.797  -155.729     0.898    22.514     1.851    12.314     1.719    14.806     0.242   -50.358     0.854  -162.762
       2.700     0.835   -10.936     0.076    27.898     0.167    47.496     1.394   169.189     0.738    -4.508     1.646    -7.102     1.553    -3.806     0.198     6.486     0.750   173.824
       2.800     0.958   -24.673     0.145    66.020     0.276    75.136     2.118   150.709     0.949   -23.383     2.083   -18.459     2.077   -17.846     0.254    74.005     1.118   159.446
       2.900     1.185     9.362     0.116  -163.398     0.170  -109.867     2.896  -167.635     1.383     3.971     2.505    12.085     2.694     9.129     0.275  -166.871     1.439  -165.307
       3.000     0.840    14.914     0.041   -87.756     0.256   -43.135     1.638  -160.553     0.975     8.731     1.630    14.109     1.764    10.755     0.112   -72.019     0.799  -163.842
       3.100     0.851    -1.022     0.054    54.537     0.121   -13.546     1.502   173.540     0.899    -4.682     1.599    -3.427     1.648    -5.353     0.079    22.176     0.725   170.150
       3.200     1.227   -15.278     0.109   117.081     0.263   120.584     2.476   156.688     1.154   -12.599     2.267   -18.727     2.191   -17.435     0.173   116.356     1.131   153.663
       3.300     1.700     9.661     0.225  -137.660     0.527  -165.311     3.665  -164.219     1.462    19.074     3.187     9.369     2.938    14.011     0.391  -123.434     1.680  -166.742
       3.400     0.903     6.948     0.087   -23.382     0.078   -72.709     1.639  -158.854     0.770    14.919     1.828    12.422     1.702    16.455     0.240   -42.929     0.869  -158.490
       3.500     0.665   -10.233     0.176    15.046     0.191    22.336     1.160   173.523     0.627    -5.615     1.530    -2.603     1.499    -0.489     0.207     4.360     0.705  -179.762
       3.600     0.666   -16.615     0.184    16.374     0.231    36.897     1.482   151.148     0.722   -21.157     1.687   -15.627     1.740   -17.540     0.257    54.361     0.868   158.670
       3.700     1.210    -4.621     0.060   158.209     0.168   153.371     3.302   164.725     1.448   -15.121     2.830   -10.014     3.078   -14.534     0.493   133.896     1.690   165.710
       3.800     1.036    36.123     0.260   -86.095     0.381   -67.502     2.371  -142.930     1.197    26.708     2.029    26.060     2.212    21.720     0.292  -107.313     1.109  -150.863
       3.900     0.839    22.078     0.156   -74.446     0.245   -42.524     1.475  -156.385     0.895    17.270     1.532    12.257     1.598     9.927     0.155   -48.272     0.696  -166.726
       4.000     0.915    -0.442     0.040   -83.831     0.093    30.318     1.469   172.841     0.878     0.880     1.593    -7.091     1.553    -6.511     0.121    12.621     0.678   167.245
       4.100     1.196   -19.893     0.090   135.447     0.349   100.017     2.235   150.475     1.057   -12.589     2.103   -24.478     1.948   -20.885     0.171    79.015     1.003   148.283
       4.200     2.175    -6.415     0.367  -174.700     0.843   160.824     4.706   176.037     1.786     3.795     3.938    -6.465     3.535    -1.333     0.425  -168.562     2.123   175.502
       4.300     1.182    16.376     0.139  -111.691     0.220  -112.062     2.274  -149.165     0.993    22.834     2.181    20.954     2.000    24.593     0.290   -62.048     1.115  -148.895
       4.400     0.780    -1.816     0.053    34.718     0.176    -1.835     1.273  -170.697     0.743     1.104     1.525     7.213     1.494     8.874     0.217   -11.863     0.714  -164.911
       4.500     0.678   -16.634     0.144    47.514     0.268    19.183     1.170   161.014     0.726   -16.720     1.422    -6.941     1.468    -7.297     0.232    26.320     0.670   172.830
       4.600     0.733   -25.761     0.187    55.299     0.286    35.217     1.657   141.324     0.880   -31.317     1.646   -20.552     1.784   -23.697     0.335    65.017     0.878   151.926
       4.700     1.454   -16.598     0.271   131.305     0.301   135.368     4.155   155.093     1.887   -24.856     3.202   -17.381     3.630   -21.574     0.795   132.142     1.987   157.978
       4.800     1.114    40.065     0.263   -93.327     0.483   -70.274     2.781  -135.690     1.365    32.362     2.201    33.417     2.464    29.833     0.489  -106.409     1.254  -142.858
       4.900     0.804    25.906     0.127   -67.733     0.327   -45.642     1.478  -146.706     0.881    21.665     1.497    18.934     1.580    16.918     0.247   -57.325     0.693  -158.685
       5.000     0.807     7.036     0.042   -17.544     0.181   -28.372     1.237  -173.828     0.783     5.696     1.452     2.183     1.430     1.371     0.192   -19.779     0.611   177.110
       5.200     1.469   -31.924     0.241    98.925     0.579   111.253     3.022   139.249     1.151   -27.222     2.687   -32.547     2.366   -30.346     0.289    87.305     1.391   139.342
       5.400     1.125    18.843     0.074   -66.564     0.310  -107.634     2.135  -144.046     0.878    19.627     2.130    26.755     1.887    28.150     0.269   -57.605     1.045  -140.601
       5.600     0.676   -20.349     0.199    39.063     0.238    27.424     1.074   160.972     0.657   -17.682     1.397    -6.185     1.386    -4.758     0.231    18.656     0.602   176.095
       5.800     1.467   -55.653     0.494    78.375     0.731    84.290     3.262   118.400     1.382   -54.713     2.470   -44.802     2.391   -43.885     0.653    81.019     1.307   129.176
       6.000     1.063    20.120     0.125   -81.221     0.242   -94.093     2.169  -137.217     1.055    31.055     1.927    28.827     1.941    34.798     0.427   -79.616     0.961  -134.305
       6.200     0.614   -11.910     0.169     2.434     0.260    27.430     1.006   173.442     0.662     3.194     1.347    -6.473     1.399     0.484     0.176   -14.538     0.570   176.753
       6.400     0.785   -38.263     0.166    40.061     0.458    55.911     2.176   133.033     0.946   -23.448     2.022   -36.898     2.170   -30.584     0.270    88.889     1.208   136.309
       6.600     0.671    28.682     0.209   -27.653     0.319   -44.794     1.847  -132.625     0.739    31.371     1.891    31.028     1.959    31.960     0.342   -57.301     1.131  -138.494
       6.800     0.492    12.754     0.233   -13.895     0.299   -10.184     0.819  -170.373     0.518     4.431     1.294     4.293     1.327     1.218     0.258     3.519     0.586  -175.689
       7.000     0.753   -10.792     0.126     6.514     0.185    43.194     1.581   136.832     0.733   -29.591     1.678   -25.401     1.698   -33.643     0.421    55.742     0.880   137.645
