!251R15S100JV4S  Sept, 2006
#	mhz	s	ma	r	50			
50	0.97356	-17.47	0.30375	71.392	0.30375	71.392	0.97356	-17.47
100	0.85257	-30.891	0.52971	58.876	0.52971	58.876	0.85257	-30.891
150	0.72976	-42.678	0.67726	47.546	0.67726	47.546	0.72976	-42.678
200	0.62189	-51.339	0.77365	38.803	0.77365	38.803	0.62189	-51.339
250	0.54069	-58.491	0.8382	32.003	0.8382	32.003	0.54069	-58.491
300	0.47792	-62.723	0.8844	27.805	0.8844	27.805	0.47792	-62.723
350	0.42518	-66.206	0.90894	23.844	0.90894	23.844	0.42518	-66.206
400	0.37691	-68.732	0.92751	20.714	0.92751	20.714	0.37691	-68.732
450	0.33456	-71.106	0.94524	17.962	0.94524	17.962	0.33456	-71.106
500	0.31651	-66.181	0.93945	16.992	0.93945	16.992	0.31651	-66.181
550	0.27921	-73.281	0.96457	15.112	0.96457	15.112	0.27921	-73.281
600	0.27643	-77.4	0.97036	14.267	0.97036	14.267	0.27643	-77.4
650	0.26959	-75.576	0.96184	13.49	0.96184	13.49	0.26959	-75.576
700	0.23995	-74.976	0.96677	11.493	0.96677	11.493	0.23995	-74.976
750	0.21711	-78.587	0.97597	10.252	0.97597	10.252	0.21711	-78.587
800	0.21253	-81.753	0.98296	9.565	0.98296	9.565	0.21253	-81.753
850	0.20825	-80.364	0.97845	8.78	0.97845	8.78	0.20825	-80.364
900	0.19339	-78.732	0.97678	7.652	0.97678	7.652	0.19339	-78.732
950	0.17648	-79.818	0.98336	6.769	0.98336	6.769	0.17648	-79.818
1000	0.16719	-81.92	0.98581	6.234	0.98581	6.234	0.16719	-81.92
1050	0.15977	-81.579	0.98624	5.579	0.98624	5.579	0.15977	-81.579
1100	0.14847	-82.435	0.98757	4.74	0.98757	4.74	0.14847	-82.435
1150	0.14106	-84.905	0.99172	4.037	0.99172	4.037	0.14106	-84.905
1200	0.13944	-85.802	0.99429	3.837	0.99429	3.837	0.13944	-85.802
1250	0.13577	-83.579	0.99412	3.337	0.99412	3.337	0.13577	-83.579
1300	0.12558	-82.647	0.99091	2.634	0.99091	2.634	0.12558	-82.647
1350	0.11688	-84.768	0.99151	2.286	0.99151	2.286	0.11688	-84.768
1400	0.11382	-86.537	0.989	1.528	0.989	1.528	0.11382	-86.537
1450	0.11146	-86.134	0.99434	1.463	0.99434	1.463	0.11146	-86.134
1500	0.10586	-85.117	0.99236	1.082	0.99236	1.082	0.10586	-85.117
1550	0.09944	-86.164	0.99669	0.547	0.99669	0.547	0.09944	-86.164
1600	0.09476	-86.758	0.99635	0.228	0.99635	0.228	0.09476	-86.758
1650	0.09085	-86.326	0.99503	-0.183	0.99503	-0.183	0.09085	-86.326
1700	0.08599	-86.131	0.99623	-0.525	0.99623	-0.525	0.08599	-86.131
1750	0.07909	-88.109	0.99444	-0.972	0.99444	-0.972	0.07909	-88.109
1800	0.07531	-89.768	0.9946	-1.201	0.9946	-1.201	0.07531	-89.768
1850	0.07405	-89.41	0.99666	-1.593	0.99666	-1.593	0.07405	-89.41
1900	0.07059	-89.17	0.99621	-2.096	0.99621	-2.096	0.07059	-89.17
1950	0.0655	-90.047	0.99945	-2.566	0.99945	-2.566	0.0655	-90.047
2000	0.06309	-89.834	1.00001	-2.736	1.00001	-2.736	0.06309	-89.834
2050	0.06124	-89.058	0.99723	-2.95	0.99723	-2.95	0.06124	-89.058
2100	0.05774	-88.791	0.99739	-3.313	0.99739	-3.313	0.05774	-88.791
2150	0.05384	-89.517	0.99821	-3.541	0.99821	-3.541	0.05384	-89.517
2200	0.05083	-89.286	0.9932	-3.843	0.9932	-3.843	0.05083	-89.286
2250	0.04785	-88.326	0.99703	-4.153	0.99703	-4.153	0.04785	-88.326
2300	0.04449	-89.619	0.99994	-4.565	0.99994	-4.565	0.04449	-89.619
2350	0.04098	-89.901	0.99467	-4.734	0.99467	-4.734	0.04098	-89.901
2400	0.03818	-88.735	0.99217	-5.156	0.99217	-5.156	0.03818	-88.735
2450	0.03635	-88.473	0.99415	-5.505	0.99415	-5.505	0.03635	-88.473
2500	0.03315	-88.028	0.99494	-5.5	0.99494	-5.5	0.03315	-88.028
2550	0.02936	-88.693	0.99242	-4.98	0.99242	-4.98	0.02936	-88.693
2600	0.02597	-88.767	0.9948	-6.067	0.9948	-6.067	0.02597	-88.767
2650	0.02369	-88.678	0.99764	-6.174	0.99764	-6.174	0.02369	-88.678
2700	0.0201	-92.121	0.9982	-6.753	0.9982	-6.753	0.0201	-92.121
2750	0.01833	-94.996	0.9953	-6.866	0.9953	-6.866	0.01833	-94.996
2800	0.01851	-92.25	0.99222	-7.067	0.99222	-7.067	0.01851	-92.25
2850	0.01665	-81.964	0.99863	-7.339	0.99863	-7.339	0.01665	-81.964
2900	0.01151	-85.18	0.99584	-7.602	0.99584	-7.602	0.01151	-85.18
2950	0.01045	-98.403	0.99407	-8.095	0.99407	-8.095	0.01045	-98.403
3000	0.01199	-88.947	0.99727	-7.968	0.99727	-7.968	0.01199	-88.947
3050	0.00983	-78.432	0.99109	-8.455	0.99109	-8.455	0.00983	-78.432
3100	0.00656	-83.792	0.99777	-8.811	0.99777	-8.811	0.00656	-83.792
3150	0.00782	-90.965	0.99171	-8.81	0.99171	-8.81	0.00782	-90.965
3200	0.00962	-62.217	0.99043	-9.089	0.99043	-9.089	0.00962	-62.217
3250	0.00671	-34.463	0.99034	-9.428	0.99034	-9.428	0.00671	-34.463
3300	0.00261	-18.821	0.99179	-9.472	0.99179	-9.472	0.00261	-18.821
3350	0.00302	-39.04	0.99335	-9.864	0.99335	-9.864	0.00302	-39.04
3400	0.00597	-5.988	0.9909	-9.974	0.9909	-9.974	0.00597	-5.988
3450	0.00647	34.238	0.98585	-10.296	0.98585	-10.296	0.00647	34.238
3500	0.00456	55.542	0.99312	-10.302	0.99312	-10.302	0.00456	55.542
3550	0.00644	29.352	0.98547	-10.636	0.98547	-10.636	0.00644	29.352
3600	0.01159	39.739	0.99473	-10.893	0.99473	-10.893	0.01159	39.739
3650	0.01314	61.373	0.99387	-10.98	0.99387	-10.98	0.01314	61.373
3700	0.01131	76.417	0.99588	-11.205	0.99588	-11.205	0.01131	76.417
3750	0.0116	67.377	0.9918	-11.321	0.9918	-11.321	0.0116	67.377
3800	0.01382	67.52	0.99298	-11.275	0.99298	-11.275	0.01382	67.52
3850	0.01496	74.573	0.98925	-11.995	0.98925	-11.995	0.01496	74.573
3900	0.01535	80.286	0.98983	-12.21	0.98983	-12.21	0.01535	80.286
3950	0.01633	77.788	0.99218	-12.361	0.99218	-12.361	0.01633	77.788
4000	0.01787	79.321	0.99074	-12.734	0.99074	-12.734	0.01787	79.321
4050	0.01948	83.101	0.99113	-12.977	0.99113	-12.977	0.01948	83.101
4100	0.02009	88.618	0.98809	-13.016	0.98809	-13.016	0.02009	88.618
4150	0.01948	90.118	0.98746	-13.355	0.98746	-13.355	0.01948	90.118
4200	0.01904	87.824	0.9917	-13.652	0.9917	-13.652	0.01904	87.824
4250	0.02009	85.885	0.99013	-13.682	0.99013	-13.682	0.02009	85.885
4300	0.0222	90.404	0.98908	-14.126	0.98908	-14.126	0.0222	90.404
4350	0.02127	94.268	0.98387	-14.203	0.98387	-14.203	0.02127	94.268
4400	0.01947	92.804	0.98723	-14.466	0.98723	-14.466	0.01947	92.804
4450	0.01945	88.68	0.98721	-14.589	0.98721	-14.589	0.01945	88.68
4500	0.02023	87.39	0.9859	-15.008	0.9859	-15.008	0.02023	87.39
4550	0.0199	89.594	0.98699	-15.201	0.98699	-15.201	0.0199	89.594
4600	0.01927	84.259	0.99237	-15.43	0.99237	-15.43	0.01927	84.259
4650	0.02052	84.208	0.98733	-15.719	0.98733	-15.719	0.02052	84.208
4700	0.02157	88.067	0.99004	-16.165	0.99004	-16.165	0.02157	88.067
4750	0.02056	91.547	0.98907	-16.156	0.98907	-16.156	0.02056	91.547
4800	0.01894	84.676	0.98941	-16.411	0.98941	-16.411	0.01894	84.676
4850	0.02195	78.993	0.98524	-16.753	0.98524	-16.753	0.02195	78.993
4900	0.02574	82.514	0.9883	-17.172	0.9883	-17.172	0.02574	82.514
4950	0.02641	87.274	0.98691	-17.401	0.98691	-17.401	0.02641	87.274
5000	0.02582	84.076	0.98578	-17.816	0.98578	-17.816	0.02582	84.076
5050	0.02982	79.617	0.98572	-18.087	0.98572	-18.087	0.02982	79.617
5100	0.03387	80.915	0.98503	-18.34	0.98503	-18.34	0.03387	80.915
5150	0.03596	79.708	0.98035	-18.967	0.98035	-18.967	0.03596	79.708
5200	0.03837	74.028	0.98521	-19.285	0.98521	-19.285	0.03837	74.028
5250	0.04805	67.405	0.97674	-19.915	0.97674	-19.915	0.04805	67.405
5300	0.06001	60.851	0.96243	-20.685	0.96243	-20.685	0.06001	60.851
5350	0.07599	42.188	0.93648	-21.354	0.93648	-21.354	0.07599	42.188
5400	0.09398	2.077	0.88811	-19.987	0.88811	-19.987	0.09398	2.077
5450	0.07266	-40.914	0.91901	-16.338	0.91901	-16.338	0.07266	-40.914
5500	0.04405	-60.918	0.9562	-16.542	0.9562	-16.542	0.04405	-60.918
5550	0.02832	-66.823	0.96719	-17.392	0.96719	-17.392	0.02832	-66.823
5600	0.0175	-71.071	0.97335	-18.282	0.97335	-18.282	0.0175	-71.071
5650	0.01052	-74.16	0.97793	-18.857	0.97793	-18.857	0.01052	-74.16
5700	0.00838	-76.881	0.9775	-19.134	0.9775	-19.134	0.00838	-76.881
5750	0.00846	-63.819	0.97721	-19.335	0.97721	-19.335	0.00846	-63.819
5800	0.0087	-32.054	0.98075	-19.995	0.98075	-19.995	0.0087	-32.054
5850	0.01138	0.708	0.97719	-20.267	0.97719	-20.267	0.01138	0.708
5900	0.01421	24.606	0.98048	-20.621	0.98048	-20.621	0.01421	24.606
5950	0.01547	43.491	0.98151	-21.004	0.98151	-21.004	0.01547	43.491
6000	0.0111	89.267	0.97749	-21.029	0.97749	-21.029	0.0111	89.267
6050	0.01234	85.669	0.97604	-21.604	0.97604	-21.604	0.01234	85.669
6100	0.01405	82.431	0.97832	-21.877	0.97832	-21.877	0.01405	82.431
6150	0.01556	76.298	0.9751	-22.164	0.9751	-22.164	0.01556	76.298
6200	0.01858	72.928	0.97688	-22.475	0.97688	-22.475	0.01858	72.928
6250	0.02162	76.131	0.97399	-22.929	0.97399	-22.929	0.02162	76.131
6300	0.0234	76.702	0.97752	-23.255	0.97752	-23.255	0.0234	76.702
6350	0.02189	77.412	0.97508	-23.239	0.97508	-23.239	0.02189	77.412
6400	0.02248	68.825	0.96721	-24.188	0.96721	-24.188	0.02248	68.825
6450	0.02563	61.564	0.97422	-23.935	0.97422	-23.935	0.02563	61.564
6500	0.02876	57.778	0.96532	-24.437	0.96532	-24.437	0.02876	57.778
6550	0.03247	56.579	0.96724	-24.561	0.96724	-24.561	0.03247	56.579
6600	0.03606	56.04	0.96909	-24.618	0.96909	-24.618	0.03606	56.04
6650	0.03785	53.046	0.9666	-25.306	0.9666	-25.306	0.03785	53.046
6700	0.0418	46.723	0.96268	-25.479	0.96268	-25.479	0.0418	46.723
6750	0.0485	46.077	0.96313	-25.982	0.96313	-25.982	0.0485	46.077
6800	0.05254	45.885	0.96289	-26.213	0.96289	-26.213	0.05254	45.885
6850	0.05811	42.116	0.96145	-26.528	0.96145	-26.528	0.05811	42.116
6900	0.06732	41.207	0.96227	-26.491	0.96227	-26.491	0.06732	41.207
6950	0.07477	43.725	0.95501	-27.523	0.95501	-27.523	0.07477	43.725
7000	0.07765	45.269	0.95203	-27.174	0.95203	-27.174	0.07765	45.269
7050	0.08201	41.753	0.95235	-27.803	0.95235	-27.803	0.08201	41.753
7100	0.09289	40.82	0.95127	-28.549	0.95127	-28.549	0.09289	40.82
7150	0.10014	42.292	0.94597	-28.705	0.94597	-28.705	0.10014	42.292
7200	0.10656	42.949	0.94412	-29.24	0.94412	-29.24	0.10656	42.949
7250	0.11478	42.155	0.94597	-29.402	0.94597	-29.402	0.11478	42.155
7300	0.12331	42.726	0.93942	-30.203	0.93942	-30.203	0.12331	42.726
7350	0.12891	43.125	0.93606	-30.583	0.93606	-30.583	0.12891	43.125
7400	0.136	42.395	0.93061	-30.988	0.93061	-30.988	0.136	42.395
7450	0.14434	41.544	0.9288	-31.334	0.9288	-31.334	0.14434	41.544
7500	0.15302	40.369	0.92316	-31.841	0.92316	-31.841	0.15302	40.369
7550	0.16334	39.946	0.91831	-32.243	0.91831	-32.243	0.16334	39.946
7600	0.17337	38.446	0.91227	-33.121	0.91227	-33.121	0.17337	38.446
7650	0.18374	38.554	0.9013	-33.475	0.9013	-33.475	0.18374	38.554
7700	0.19662	36.486	0.89831	-34.168	0.89831	-34.168	0.19662	36.486
7750	0.21138	35.365	0.89196	-34.983	0.89196	-34.983	0.21138	35.365
7800	0.22584	34.904	0.88143	-35.431	0.88143	-35.431	0.22584	34.904
7850	0.24114	32.062	0.8663	-36.625	0.8663	-36.625	0.24114	32.062
7900	0.26016	30.066	0.84965	-37.208	0.84965	-37.208	0.26016	30.066
7950	0.28848	28.542	0.8358	-38.596	0.8358	-38.596	0.28848	28.542
8000	0.31234	24.8	0.80814	-39.989	0.80814	-39.989	0.31234	24.8
8050	0.34829	20.335	0.77992	-40.569	0.77992	-40.569	0.34829	20.335
8100	0.38509	15.607	0.72356	-41.894	0.72356	-41.894	0.38509	15.607
8150	0.42507	7.591	0.66175	-42.075	0.66175	-42.075	0.42507	7.591
8200	0.45449	-1.72	0.59108	-38.158	0.59108	-38.158	0.45449	-1.72
8250	0.46384	-13.653	0.53933	-29.608	0.53933	-29.608	0.46384	-13.653
8300	0.43644	-25.785	0.56052	-19.765	0.56052	-19.765	0.43644	-25.785
8350	0.37979	-35.88	0.62706	-13.957	0.62706	-13.957	0.37979	-35.88
8400	0.32303	-42.878	0.70284	-12.983	0.70284	-12.983	0.32303	-42.878
8450	0.2693	-46.657	0.75542	-13.672	0.75542	-13.672	0.2693	-46.657
8500	0.22795	-48	0.79264	-15.12	0.79264	-15.12	0.22795	-48
8550	0.19205	-47.636	0.82086	-16.375	0.82086	-16.375	0.19205	-47.636
8600	0.16954	-45.329	0.84157	-17.577	0.84157	-17.577	0.16954	-45.329
8650	0.14918	-43.038	0.85211	-18.416	0.85211	-18.416	0.14918	-43.038
8700	0.13594	-39.81	0.86156	-19.35	0.86156	-19.35	0.13594	-39.81
8750	0.1243	-35.198	0.87081	-20.046	0.87081	-20.046	0.1243	-35.198
8800	0.11517	-31.158	0.86775	-20.778	0.86775	-20.778	0.11517	-31.158
8850	0.10742	-27.075	0.88506	-21.428	0.88506	-21.428	0.10742	-27.075
8900	0.1019	-23.49	0.88853	-22.017	0.88853	-22.017	0.1019	-23.49
8950	0.10099	-19.603	0.89487	-22.444	0.89487	-22.444	0.10099	-19.603
9000	0.10202	-14.879	0.89515	-23.023	0.89515	-23.023	0.10202	-14.879
9050	0.09884	-8.094	0.89965	-22.976	0.89965	-22.976	0.09884	-8.094
9100	0.09787	-4.693	0.90297	-23.844	0.90297	-23.844	0.09787	-4.693
9150	0.09736	-0.503	0.90702	-23.851	0.90702	-23.851	0.09736	-0.503
9200	0.09923	2.836	0.9088	-24.52	0.9088	-24.52	0.09923	2.836
9250	0.09906	9.288	0.91385	-25.029	0.91385	-25.029	0.09906	9.288
9300	0.09237	12.922	0.91374	-25.087	0.91374	-25.087	0.09237	12.922
9350	0.09352	11.832	0.91596	-25.461	0.91596	-25.461	0.09352	11.832
9400	0.10365	12.907	0.91995	-26.009	0.91995	-26.009	0.10365	12.907
9450	0.11226	19.873	0.91972	-26.325	0.91972	-26.325	0.11226	19.873
9500	0.11115	26.256	0.9207	-26.575	0.9207	-26.575	0.11115	26.256
9550	0.10993	29.192	0.92471	-26.959	0.92471	-26.959	0.10993	29.192
9600	0.11078	31.41	0.92945	-27.332	0.92945	-27.332	0.11078	31.41
9650	0.10928	33.787	0.92997	-27.271	0.92997	-27.271	0.10928	33.787
9700	0.10584	33.82	0.92633	-27.786	0.92633	-27.786	0.10584	33.82
9750	0.1092	31.978	0.93564	-28.232	0.93564	-28.232	0.1092	31.978
9800	0.11302	33.402	0.93284	-28.133	0.93284	-28.133	0.11302	33.402
9850	0.11939	33.466	0.93281	-28.977	0.93281	-28.977	0.11939	33.466
9900	0.12367	35.027	0.93786	-29.126	0.93786	-29.126	0.12367	35.027
9950	0.12279	37.637	0.93546	-29.652	0.93546	-29.652	0.12279	37.637
10000	0.12135	38.188	0.93413	-29.86	0.93413	-29.86	0.12135	38.188
10050	0.12265	36.478	0.94022	-29.964	0.94022	-29.964	0.12265	36.478
10100	0.12919	36.257	0.93767	-30.456	0.93767	-30.456	0.12919	36.257
10150	0.13177	38.096	0.93472	-30.606	0.93472	-30.606	0.13177	38.096
10200	0.12906	37.912	0.92928	-30.953	0.92928	-30.953	0.12906	37.912
10250	0.134	35.695	0.93394	-31.276	0.93394	-31.276	0.134	35.695
10300	0.14236	37.387	0.93357	-31.989	0.93357	-31.989	0.14236	37.387
10350	0.14139	39.684	0.93396	-32.041	0.93396	-32.041	0.14139	39.684
10400	0.13968	37.372	0.92717	-32.491	0.92717	-32.491	0.13968	37.372
10450	0.15135	36.564	0.93178	-33.051	0.93178	-33.051	0.15135	36.564
10500	0.15666	40.069	0.93524	-33.212	0.93524	-33.212	0.15666	40.069
10550	0.15104	39.61	0.93083	-33.345	0.93083	-33.345	0.15104	39.61
10600	0.15482	36.96	0.92039	-33.888	0.92039	-33.888	0.15482	36.96
10650	0.16442	38.958	0.91979	-34.737	0.91979	-34.737	0.16442	38.958
10700	0.15988	41.159	0.91434	-34.604	0.91434	-34.604	0.15988	41.159
10750	0.15393	36.763	0.9106	-34.594	0.9106	-34.594	0.15393	36.763
10800	0.16001	34.981	0.89472	-34.768	0.89472	-34.768	0.16001	34.981
10850	0.15199	34.397	0.8863	-34.481	0.8863	-34.481	0.15199	34.397
10900	0.13712	28.161	0.88899	-33.98	0.88899	-33.98	0.13712	28.161
10950	0.1266	23.452	0.89301	-33.717	0.89301	-33.717	0.1266	23.452
11000	0.1179	24.226	0.89632	-33.354	0.89632	-33.354	0.1179	24.226
11050	0.10458	27.027	0.90297	-33.305	0.90297	-33.305	0.10458	27.027
11100	0.09543	30.232	0.9158	-33.971	0.9158	-33.971	0.09543	30.232
11150	0.08817	29.281	0.91966	-34.07	0.91966	-34.07	0.08817	29.281
11200	0.08838	27.584	0.91849	-34.463	0.91849	-34.463	0.08838	27.584
11250	0.09131	29.089	0.92329	-34.718	0.92329	-34.718	0.09131	29.089
11300	0.09368	32.095	0.92654	-35.161	0.92654	-35.161	0.09368	32.095
11350	0.09392	34.796	0.92358	-35.774	0.92358	-35.774	0.09392	34.796
11400	0.09153	34.877	0.92653	-35.869	0.92653	-35.869	0.09153	34.877
11450	0.09099	34.955	0.91976	-36.263	0.91976	-36.263	0.09099	34.955
11500	0.09276	36.495	0.92493	-36.745	0.92493	-36.745	0.09276	36.495
11550	0.09183	37.167	0.92166	-36.783	0.92166	-36.783	0.09183	37.167
11600	0.09359	36.22	0.92632	-37.267	0.92632	-37.267	0.09359	36.22
11650	0.0987	38.144	0.92761	-37.619	0.92761	-37.619	0.0987	38.144
11700	0.10025	43.1	0.92159	-37.86	0.92159	-37.86	0.10025	43.1
11750	0.09474	46.827	0.92019	-38.31	0.92019	-38.31	0.09474	46.827
11800	0.08934	46.689	0.92805	-39.406	0.92805	-39.406	0.08934	46.689
11850	0.09173	46.186	0.91976	-39.157	0.91976	-39.157	0.09173	46.186
11900	0.09462	46.885	0.92044	-39.473	0.92044	-39.473	0.09462	46.885
11950	0.09567	49.638	0.91417	-39.567	0.91417	-39.567	0.09567	49.638
12000	0.09668	51.501	0.91471	-40.044	0.91471	-40.044	0.09668	51.501
12050	0.0936	52.372	0.91529	-40.439	0.91529	-40.439	0.0936	52.372
12100	0.09573	52.943	0.90735	-40.694	0.90735	-40.694	0.09573	52.943
12150	0.09695	52.797	0.91191	-41.041	0.91191	-41.041	0.09695	52.797
12200	0.10052	53.108	0.90984	-41.584	0.90984	-41.584	0.10052	53.108
12250	0.10218	53.416	0.90578	-41.997	0.90578	-41.997	0.10218	53.416
12300	0.10743	52.537	0.90593	-42.217	0.90593	-42.217	0.10743	52.537
12350	0.11032	51.952	0.90018	-42.271	0.90018	-42.271	0.11032	51.952
12400	0.11537	51.244	0.89613	-42.982	0.89613	-42.982	0.11537	51.244
12450	0.11185	50.006	0.89184	-43.426	0.89184	-43.426	0.11185	50.006
12500	0.11789	44.237	0.88676	-43.926	0.88676	-43.926	0.11789	44.237
12550	0.12875	39.636	0.87302	-44.259	0.87302	-44.259	0.12875	39.636
12600	0.14198	37.999	0.8701	-44.554	0.8701	-44.554	0.14198	37.999
12650	0.14757	36.636	0.8608	-44.733	0.8608	-44.733	0.14757	36.636
12700	0.14436	30.79	0.84919	-44.785	0.84919	-44.785	0.14436	30.79
12750	0.14428	22.941	0.83261	-44.189	0.83261	-44.189	0.14428	22.941
12800	0.14447	16.73	0.8234	-43.396	0.8234	-43.396	0.14447	16.73
12850	0.13356	14.614	0.82339	-42.129	0.82339	-42.129	0.13356	14.614
12900	0.11321	9.747	0.82901	-41.412	0.82901	-41.412	0.11321	9.747
12950	0.10349	10.088	0.84483	-41.047	0.84483	-41.047	0.10349	10.088
13000	0.10299	16.296	0.85911	-40.624	0.85911	-40.624	0.10299	16.296
13050	0.10012	26.112	0.87395	-40.562	0.87395	-40.562	0.10012	26.112
13100	0.09859	33.117	0.87874	-41.304	0.87874	-41.304	0.09859	33.117
13150	0.10351	37.062	0.89227	-41.921	0.89227	-41.921	0.10351	37.062
13200	0.10683	39.485	0.89654	-42.314	0.89654	-42.314	0.10683	39.485
13250	0.11119	36.614	0.90064	-43.045	0.90064	-43.045	0.11119	36.614
13300	0.12446	34.705	0.89906	-42.476	0.89906	-42.476	0.12446	34.705
13350	0.13994	41.53	0.90805	-43.961	0.90805	-43.961	0.13994	41.53
13400	0.14493	43.55	0.90878	-44.51	0.90878	-44.51	0.14493	43.55
13450	0.1506	41.387	0.91162	-44.86	0.91162	-44.86	0.1506	41.387
13500	0.16201	39.445	0.91167	-45.776	0.91167	-45.776	0.16201	39.445
13550	0.17446	38.614	0.90861	-46.169	0.90861	-46.169	0.17446	38.614
13600	0.18627	37.926	0.90824	-46.179	0.90824	-46.179	0.18627	37.926
13650	0.20321	36.813	0.90625	-47.325	0.90625	-47.325	0.20321	36.813
13700	0.21999	38.263	0.91094	-47.949	0.91094	-47.949	0.21999	38.263
13750	0.22214	38.205	0.89798	-48.426	0.89798	-48.426	0.22214	38.205
13800	0.2314	35.553	0.90021	-48.919	0.90021	-48.919	0.2314	35.553
13850	0.24977	33.682	0.90166	-49.786	0.90166	-49.786	0.24977	33.682
13900	0.26448	33.655	0.89445	-49.854	0.89445	-49.854	0.26448	33.655
13950	0.27477	32.71	0.89778	-50.743	0.89778	-50.743	0.27477	32.71
14000	0.2909	31.867	0.88909	-51.165	0.88909	-51.165	0.2909	31.867
14050	0.30172	30.571	0.88117	-51.813	0.88117	-51.813	0.30172	30.571
14100	0.31382	28.353	0.88191	-52.423	0.88191	-52.423	0.31382	28.353
14150	0.32766	27.879	0.87675	-52.732	0.87675	-52.732	0.32766	27.879
14200	0.3392	25.757	0.85942	-53.644	0.85942	-53.644	0.3392	25.757
14250	0.35672	23.998	0.85449	-53.818	0.85449	-53.818	0.35672	23.998
14300	0.37118	23.819	0.84058	-54.64	0.84058	-54.64	0.37118	23.819
14350	0.37847	20.425	0.83081	-55.116	0.83081	-55.116	0.37847	20.425
14400	0.39455	17.445	0.82326	-55.782	0.82326	-55.782	0.39455	17.445
14450	0.41184	15.635	0.79832	-55.343	0.79832	-55.343	0.41184	15.635
14500	0.41664	13.124	0.77457	-55.316	0.77457	-55.316	0.41664	13.124
14550	0.4135	9.211	0.75737	-54.519	0.75737	-54.519	0.4135	9.211
14600	0.41278	5.217	0.74205	-52.239	0.74205	-52.239	0.41278	5.217
14650	0.39991	4.05	0.74203	-50.025	0.74203	-50.025	0.39991	4.05
14700	0.36654	2.319	0.75202	-47.99	0.75202	-47.99	0.36654	2.319
14750	0.34807	5.045	0.78466	-46.738	0.78466	-46.738	0.34807	5.045
14800	0.33832	8.246	0.80552	-46.865	0.80552	-46.865	0.33832	8.246
14850	0.3434	13.001	0.83019	-47.29	0.83019	-47.29	0.3434	13.001
14900	0.35179	17.012	0.84187	-48.284	0.84187	-48.284	0.35179	17.012
14950	0.35714	19.047	0.85499	-49.328	0.85499	-49.328	0.35714	19.047
15000	0.36632	19.415	0.85709	-50.403	0.85709	-50.403	0.36632	19.415
