! P/N: 500R07S1R1BV4								
! Measured by Marlon								
! Oct. 28, 2003								
#	mhz	s	ma	r	50
0	0.99999	0.00000	0.00000	90.00000	0.00000	90.00000	0.99999	0.00000			
50	0.9999	-1.4241	0.03762	85.69998	0.03762	85.69998	0.9999	-1.4241
70	0.9999	-3.75004	0.04804	85.36592	0.04804	85.36592	0.9999	-3.75004
90	0.9999	-3.83017	0.06175	85.99887	0.06175	85.99887	0.9999	-3.83017
110	0.9999	-4.35292	0.07573	85.33381	0.07573	85.33381	0.9999	-4.35292
130	0.9999	-5.67753	0.0890	83.68362	0.0890	83.68362	0.9999	-5.67753
150	0.99735	-5.8341	0.10253	83.939	0.10253	83.939	0.99735	-5.8341
170	0.9999	-6.89757	0.1170	82.83642	0.1170	82.83642	0.9999	-6.89757
190	0.9999	-7.77094	0.12983	81.7005	0.12983	81.7005	0.9999	-7.77094
210	0.99707	-8.36122	0.14341	81.10031	0.14341	81.10031	0.99707	-8.36122
230	0.9999	-9.03647	0.15806	80.65053	0.15806	80.65053	0.9999	-9.03647
250	0.99698	-10.6258	0.17207	79.01142	0.17207	79.01142	0.99698	-10.6258
270	0.98757	-10.86876	0.18306	78.6879	0.18306	78.6879	0.98757	-10.86876
290	0.99131	-11.4056	0.1973	77.98771	0.1973	77.98771	0.99131	-11.4056
310	0.99407	-12.27931	0.2111	76.91885	0.2111	76.91885	0.99407	-12.27931
330	0.98997	-13.18366	0.2231	75.90752	0.2231	75.90752	0.98997	-13.18366
350	0.98138	-13.46323	0.23422	75.79809	0.23422	75.79809	0.98138	-13.46323
370	0.98018	-14.21836	0.24816	74.81487	0.24816	74.81487	0.98018	-14.21836
390	0.97008	-15.05984	0.25971	73.8312	0.25971	73.8312	0.97008	-15.05984
410	0.96376	-15.83319	0.2717	73.05019	0.2717	73.05019	0.96376	-15.83319
430	0.96337	-16.62492	0.28476	72.29521	0.28476	72.29521	0.96337	-16.62492
450	0.96052	-17.76256	0.29734	71.00995	0.29734	71.00995	0.96052	-17.76256
470	0.94886	-18.63296	0.30854	70.49208	0.30854	70.49208	0.94886	-18.63296
490	0.94108	-16.47097	0.30501	71.01569	0.30501	71.01569	0.94108	-16.47097
510	0.9349	-15.98621	0.30706	70.97106	0.30706	70.97106	0.9349	-15.98621
530	0.92955	-18.02608	0.31863	69.98906	0.31863	69.98906	0.92955	-18.02608
550	0.92576	-19.57581	0.32728	68.9412	0.32728	68.9412	0.92576	-19.57581
570	0.93891	-20.50023	0.33874	67.98592	0.33874	67.98592	0.93891	-20.50023
590	0.95428	-20.84154	0.35245	67.20113	0.35245	67.20113	0.95428	-20.84154
610	0.96095	-20.99041	0.3661	66.44056	0.3661	66.44056	0.96095	-20.99041
630	0.95624	-21.02993	0.37783	65.63082	0.37783	65.63082	0.95624	-21.02993
650	0.94572	-20.73565	0.3862	64.77141	0.3862	64.77141	0.94572	-20.73565
670	0.93739	-20.93226	0.39781	64.64994	0.39781	64.64994	0.93739	-20.93226
690	0.9275	-21.55663	0.40985	64.12086	0.40985	64.12086	0.9275	-21.55663
710	0.91182	-22.41297	0.41864	63.49754	0.41864	63.49754	0.91182	-22.41297
730	0.89709	-23.36875	0.42499	62.95263	0.42499	62.95263	0.89709	-23.36875
750	0.90098	-24.35481	0.43415	62.51814	0.43415	62.51814	0.90098	-24.35481
770	0.90311	-25.34693	0.44157	61.72201	0.44157	61.72201	0.90311	-25.34693
790	0.90223	-25.77773	0.4484	61.14282	0.4484	61.14282	0.90223	-25.77773
810	0.90151	-26.05235	0.45807	60.31897	0.45807	60.31897	0.90151	-26.05235
830	0.8986	-26.2305	0.46909	59.27807	0.46909	59.27807	0.8986	-26.2305
850	0.88558	-26.02642	0.47506	58.53693	0.47506	58.53693	0.88558	-26.02642
870	0.87787	-26.49232	0.48884	58.39886	0.48884	58.39886	0.87787	-26.49232
890	0.86711	-27.32678	0.50091	57.44756	0.50091	57.44756	0.86711	-27.32678
910	0.85639	-28.19503	0.50849	56.79845	0.50849	56.79845	0.85639	-28.19503
930	0.84933	-28.97418	0.51327	56.7447	0.51327	56.7447	0.84933	-28.97418
950	0.85004	-29.7533	0.52146	56.75726	0.52146	56.75726	0.85004	-29.7533
970	0.85158	-30.69604	0.52643	55.85017	0.52643	55.85017	0.85158	-30.69604
990	0.84791	-31.09421	0.5310	55.08732	0.5310	55.08732	0.84791	-31.09421
1010	0.84305	-31.31755	0.53683	54.29946	0.53683	54.29946	0.84305	-31.31755
1030	0.83836	-31.50166	0.54439	53.45858	0.54439	53.45858	0.83836	-31.50166
1050	0.83245	-31.54806	0.55287	52.67784	0.55287	52.67784	0.83245	-31.54806
1070	0.81992	-32.50973	0.56258	52.02995	0.56258	52.02995	0.81992	-32.50973
1090	0.81076	-33.35702	0.57014	51.37934	0.57014	51.37934	0.81076	-33.35702
1110	0.8036	-34.15939	0.57776	50.84392	0.57776	50.84392	0.8036	-34.15939
1130	0.79934	-34.97486	0.58626	50.43008	0.58626	50.43008	0.79934	-34.97486
1150	0.80105	-35.85004	0.59505	50.03265	0.59505	50.03265	0.80105	-35.85004
1170	0.80192	-36.36424	0.60104	49.75187	0.60104	49.75187	0.80192	-36.36424
1190	0.80395	-36.80714	0.60745	49.12023	0.60745	49.12023	0.80395	-36.80714
1210	0.80031	-36.93293	0.61185	48.51775	0.61185	48.51775	0.80031	-36.93293
1230	0.79128	-36.8429	0.61514	48.11479	0.61514	48.11479	0.79128	-36.8429
1250	0.78423	-36.98539	0.62146	47.87204	0.62146	47.87204	0.78423	-36.98539
1270	0.77868	-37.80834	0.63274	47.00332	0.63274	47.00332	0.77868	-37.80834
1290	0.76733	-38.52494	0.63647	46.35493	0.63647	46.35493	0.76733	-38.52494
1310	0.76037	-38.99841	0.64116	45.93617	0.64116	45.93617	0.76037	-38.99841
1330	0.76029	-39.43447	0.64869	45.6375	0.64869	45.6375	0.76029	-39.43447
1350	0.76187	-40.38124	0.65433	45.23053	0.65433	45.23053	0.76187	-40.38124
1370	0.75728	-40.58277	0.65686	44.92726	0.65686	44.92726	0.75728	-40.58277
1390	0.75482	-40.64135	0.66361	44.45169	0.66361	44.45169	0.75482	-40.64135
1410	0.75103	-40.82034	0.66843	43.84847	0.66843	43.84847	0.75103	-40.82034
1430	0.74445	-41.0888	0.67081	43.29263	0.67081	43.29263	0.74445	-41.0888
1450	0.73568	-41.12153	0.6758	43.08963	0.6758	43.08963	0.73568	-41.12153
1470	0.7236	-41.56257	0.6824	42.44816	0.6824	42.44816	0.7236	-41.56257
1490	0.7141	-42.22116	0.68696	41.92509	0.68696	41.92509	0.7141	-42.22116
1510	0.7075	-42.89728	0.69159	41.54156	0.69159	41.54156	0.7075	-42.89728
1530	0.70313	-43.55401	0.69703	41.24283	0.69703	41.24283	0.70313	-43.55401
1550	0.69934	-44.31756	0.70263	40.89821	0.70263	40.89821	0.69934	-44.31756
1570	0.69527	-44.98034	0.7032	40.41778	0.7032	40.41778	0.69527	-44.98034
1590	0.69306	-45.18701	0.70847	39.95713	0.70847	39.95713	0.69306	-45.18701
1610	0.68968	-45.29734	0.71316	39.51858	0.71316	39.51858	0.68968	-45.29734
1630	0.68382	-45.57916	0.71631	39.07742	0.71631	39.07742	0.68382	-45.57916
1650	0.67589	-46.20833	0.72121	38.58181	0.72121	38.58181	0.67589	-46.20833
1670	0.66882	-46.65058	0.72475	38.27571	0.72475	38.27571	0.66882	-46.65058
1690	0.66366	-47.20452	0.72975	37.71901	0.72975	37.71901	0.66366	-47.20452
1710	0.6602	-47.85671	0.73569	37.22432	0.73569	37.22432	0.6602	-47.85671
1730	0.65731	-48.42945	0.74138	36.92648	0.74138	36.92648	0.65731	-48.42945
1750	0.65301	-48.58082	0.74492	36.78258	0.74492	36.78258	0.65301	-48.58082
1770	0.65184	-48.99504	0.74614	36.31647	0.74614	36.31647	0.65184	-48.99504
1790	0.64788	-49.31322	0.7494	35.88082	0.7494	35.88082	0.64788	-49.31322
1810	0.64131	-49.56155	0.75288	35.54895	0.75288	35.54895	0.64131	-49.56155
1830	0.63425	-49.79917	0.75753	35.29625	0.75753	35.29625	0.63425	-49.79917
1850	0.63086	-50.11813	0.76701	35.00024	0.76701	35.00024	0.63086	-50.11813
1870	0.62427	-50.90438	0.76623	34.58317	0.76623	34.58317	0.62427	-50.90438
1890	0.6195	-51.61509	0.76946	34.28159	0.76946	34.28159	0.6195	-51.61509
1910	0.61696	-52.26242	0.7745	33.98051	0.7745	33.98051	0.61696	-52.26242
1930	0.61593	-52.80911	0.77878	33.64629	0.77878	33.64629	0.61593	-52.80911
1950	0.61456	-53.16851	0.77942	33.3267	0.77942	33.3267	0.61456	-53.16851
1970	0.61155	-53.01526	0.78061	33.04704	0.78061	33.04704	0.61155	-53.01526
1990	0.60944	-53.05643	0.7853	32.84302	0.7853	32.84302	0.60944	-53.05643
2010	0.60607	-53.21418	0.79002	32.42627	0.79002	32.42627	0.60607	-53.21418
2030	0.60007	-53.49365	0.79387	31.87314	0.79387	31.87314	0.60007	-53.49365
2050	0.59089	-53.98296	0.79851	31.62472	0.79851	31.62472	0.59089	-53.98296
2070	0.58399	-54.27876	0.79692	31.43147	0.79692	31.43147	0.58399	-54.27876
2090	0.58033	-54.64605	0.80239	31.23238	0.80239	31.23238	0.58033	-54.64605
2110	0.57622	-55.14558	0.8054	30.84293	0.8054	30.84293	0.57622	-55.14558
2130	0.57087	-55.67455	0.8049	30.37051	0.8049	30.37051	0.57087	-55.67455
2150	0.56643	-55.96661	0.80837	30.2144	0.80837	30.2144	0.56643	-55.96661
2170	0.56571	-56.57742	0.81175	29.92462	0.81175	29.92462	0.56571	-56.57742
2190	0.56119	-56.41781	0.81415	29.8044	0.81415	29.8044	0.56119	-56.41781
2210	0.55606	-56.33274	0.81566	29.60953	0.81566	29.60953	0.55606	-56.33274
2230	0.55072	-56.64016	0.81729	29.21238	0.81729	29.21238	0.55072	-56.64016
2250	0.5428	-57.13103	0.82095	28.60196	0.82095	28.60196	0.5428	-57.13103
2270	0.53549	-57.70798	0.82119	28.56934	0.82119	28.56934	0.53549	-57.70798
2290	0.53091	-58.03771	0.82693	28.32264	0.82693	28.32264	0.53091	-58.03771
2310	0.52712	-58.5501	0.83094	27.83575	0.83094	27.83575	0.52712	-58.5501
2330	0.52287	-59.22685	0.83098	27.31596	0.83098	27.31596	0.52287	-59.22685
2350	0.51758	-59.60143	0.82976	27.20401	0.82976	27.20401	0.51758	-59.60143
2370	0.51843	-59.67058	0.83309	26.9434	0.83309	26.9434	0.51843	-59.67058
2390	0.51483	-59.96459	0.83588	26.61411	0.83588	26.61411	0.51483	-59.96459
2410	0.50952	-60.2423	0.83758	26.35225	0.83758	26.35225	0.50952	-60.2423
2430	0.50426	-60.45155	0.8394	26.17852	0.8394	26.17852	0.50426	-60.45155
2450	0.49986	-60.72914	0.84435	25.99826	0.84435	25.99826	0.49986	-60.72914
2470	0.49361	-61.26483	0.84412	25.75202	0.84412	25.75202	0.49361	-61.26483
2490	0.48939	-61.80062	0.84738	25.41329	0.84738	25.41329	0.48939	-61.80062
2510	0.48732	-62.42139	0.85074	25.14148	0.85074	25.14148	0.48732	-62.42139
2530	0.48665	-62.94695	0.8529	24.97293	0.8529	24.97293	0.48665	-62.94695
2550	0.48581	-62.93194	0.85464	24.82087	0.85464	24.82087	0.48581	-62.93194
2570	0.48346	-63.17111	0.86225	24.40305	0.86225	24.40305	0.48346	-63.17111
2590	0.47943	-63.00473	0.8590	24.27946	0.8590	24.27946	0.47943	-63.00473
2610	0.47401	-63.01371	0.85774	23.90516	0.85774	23.90516	0.47401	-63.01371
2630	0.46756	-63.27387	0.86057	23.47211	0.86057	23.47211	0.46756	-63.27387
2650	0.46054	-63.356	0.85886	23.90916	0.85886	23.90916	0.46054	-63.356
2670	0.45584	-63.98604	0.86325	23.12098	0.86325	23.12098	0.45584	-63.98604
2690	0.45214	-64.43609	0.86669	22.91103	0.86669	22.91103	0.45214	-64.43609
2710	0.44876	-64.98312	0.86875	22.78556	0.86875	22.78556	0.44876	-64.98312
2730	0.44576	-65.53586	0.8696	22.56062	0.8696	22.56062	0.44576	-65.53586
2750	0.44391	-65.63477	0.86999	22.36199	0.86999	22.36199	0.44391	-65.63477
2770	0.44186	-66.23244	0.87415	22.1569	0.87415	22.1569	0.44186	-66.23244
2790	0.43875	-65.98074	0.87514	21.92577	0.87514	21.92577	0.43875	-65.98074
2810	0.43423	-65.88032	0.87794	21.73076	0.87794	21.73076	0.43423	-65.88032
2830	0.42857	-66.15621	0.88152	21.62758	0.88152	21.62758	0.42857	-66.15621
2850	0.42276	-66.25777	0.87886	21.66545	0.87886	21.66545	0.42276	-66.25777
2870	0.41618	-67.35424	0.88241	21.19312	0.88241	21.19312	0.41618	-67.35424
2890	0.41331	-68.10746	0.88262	20.89866	0.88262	20.89866	0.41331	-68.10746
2910	0.4129	-68.50485	0.88274	20.64678	0.88274	20.64678	0.4129	-68.50485
2930	0.41017	-68.45996	0.88412	20.41944	0.88412	20.41944	0.41017	-68.45996
2950	0.39686	-67.81242	0.88618	20.31587	0.88618	20.31587	0.39686	-67.81242
2970	0.40142	-68.56208	0.88885	20.20873	0.88885	20.20873	0.40142	-68.56208
2990	0.39883	-68.92746	0.88704	19.80976	0.88704	19.80976	0.39883	-68.92746
3010	0.39414	-68.88887	0.88742	19.64701	0.88742	19.64701	0.39414	-68.88887
3030	0.38965	-68.86268	0.89103	19.69969	0.89103	19.69969	0.38965	-68.86268
3050	0.38486	-69.70132	0.8933	19.39812	0.8933	19.39812	0.38486	-69.70132
3070	0.37702	-70.67394	0.89287	18.89713	0.89287	18.89713	0.37702	-70.67394
3090	0.37449	-71.06333	0.89246	18.78835	0.89246	18.78835	0.37449	-71.06333
3110	0.37416	-71.38427	0.89504	18.74409	0.89504	18.74409	0.37416	-71.38427
3130	0.37322	-71.7756	0.89897	18.58815	0.89897	18.58815	0.37322	-71.7756
3150	0.36916	-72.00017	0.89806	18.2958	0.89806	18.2958	0.36916	-72.00017
3170	0.3674	-71.79854	0.89888	18.31462	0.89888	18.31462	0.3674	-71.79854
3190	0.36413	-71.94785	0.90108	18.0865	0.90108	18.0865	0.36413	-71.94785
3210	0.35963	-72.06425	0.90241	17.81902	0.90241	17.81902	0.35963	-72.06425
3230	0.35379	-72.11899	0.9024	17.60772	0.9024	17.60772	0.35379	-72.11899
3250	0.34601	-72.43842	0.90236	17.4361	0.90236	17.4361	0.34601	-72.43842
3270	0.34401	-73.00445	0.90466	17.35163	0.90466	17.35163	0.34401	-73.00445
3290	0.34071	-73.46956	0.90303	17.09888	0.90303	17.09888	0.34071	-73.46956
3310	0.33865	-74.04967	0.90385	16.82481	0.90385	16.82481	0.33865	-74.04967
3330	0.33756	-74.70231	0.90759	16.61455	0.90759	16.61455	0.33756	-74.70231
3350	0.33438	-75.12669	0.90885	16.49138	0.90885	16.49138	0.33438	-75.12669
3370	0.3307	-75.15179	0.91059	16.43972	0.91059	16.43972	0.3307	-75.15179
3390	0.32667	-75.22836	0.91089	16.29966	0.91089	16.29966	0.32667	-75.22836
3410	0.32328	-75.37667	0.91293	16.07941	0.91293	16.07941	0.32328	-75.37667
3430	0.3199	-75.77453	0.91504	15.78201	0.91504	15.78201	0.3199	-75.77453
3450	0.31427	-76.75725	0.91078	15.40531	0.91078	15.40531	0.31427	-76.75725
3470	0.3116	-76.87753	0.91458	15.66948	0.91458	15.66948	0.3116	-76.87753
3490	0.30939	-77.37252	0.91691	15.54052	0.91691	15.54052	0.30939	-77.37252
3510	0.30762	-78.16404	0.9171	15.14933	0.9171	15.14933	0.30762	-78.16404
3530	0.30564	-78.89412	0.91559	14.83995	0.91559	14.83995	0.30564	-78.89412
3550	0.30217	-78.92498	0.91386	15.16954	0.91386	15.16954	0.30217	-78.92498
3570	0.30084	-79.10084	0.91967	14.81392	0.91967	14.81392	0.30084	-79.10084
3590	0.29898	-79.22102	0.92062	14.52354	0.92062	14.52354	0.29898	-79.22102
3610	0.29524	-79.42946	0.92015	14.40403	0.92015	14.40403	0.29524	-79.42946
3630	0.29062	-79.79909	0.92154	14.35336	0.92154	14.35336	0.29062	-79.79909
3650	0.28848	-80.33191	0.92795	14.06184	0.92795	14.06184	0.28848	-80.33191
3670	0.28472	-80.96695	0.92334	13.88979	0.92334	13.88979	0.28472	-80.96695
3690	0.28207	-81.51888	0.92544	13.7646	0.92544	13.7646	0.28207	-81.51888
3710	0.27985	-82.13581	0.92636	13.72406	0.92636	13.72406	0.27985	-82.13581
3730	0.2780	-82.72734	0.92498	13.7388	0.92498	13.7388	0.2780	-82.72734
3750	0.27706	-82.96461	0.92693	13.71232	0.92693	13.71232	0.27706	-82.96461
3770	0.27365	-83.01566	0.92828	13.36058	0.92828	13.36058	0.27365	-83.01566
3790	0.27114	-83.0949	0.92804	13.09057	0.92804	13.09057	0.27114	-83.0949
3810	0.26766	-83.31339	0.92878	12.99637	0.92878	12.99637	0.26766	-83.31339
3830	0.26327	-83.72964	0.93032	12.9669	0.93032	12.9669	0.26327	-83.72964
3850	0.2599	-84.34966	0.92968	12.68589	0.92968	12.68589	0.2599	-84.34966
3870	0.2558	-84.91197	0.93063	12.79591	0.93063	12.79591	0.2558	-84.91197
3890	0.25295	-85.67491	0.93129	12.60976	0.93129	12.60976	0.25295	-85.67491
3910	0.25122	-86.45391	0.93183	12.32867	0.93183	12.32867	0.25122	-86.45391
3930	0.24967	-87.06119	0.93211	12.13522	0.93211	12.13522	0.24967	-87.06119
3950	0.24654	-87.30574	0.93166	12.19333	0.93166	12.19333	0.24654	-87.30574
3970	0.24663	-87.29817	0.93869	11.93059	0.93869	11.93059	0.24663	-87.29817
3990	0.24243	-87.72627	0.9366	11.68039	0.9366	11.68039	0.24243	-87.72627
4010	0.23868	-88.37664	0.93514	11.56792	0.93514	11.56792	0.23868	-88.37664
4030	0.23664	-89.06344	0.93667	11.50539	0.93667	11.50539	0.23664	-89.06344
4050	0.23408	-89.62838	0.93614	11.19198	0.93614	11.19198	0.23408	-89.62838
4070	0.23048	-90.37656	0.93613	11.40239	0.93613	11.40239	0.23048	-90.37656
4090	0.22783	-91.25548	0.93743	11.24735	0.93743	11.24735	0.22783	-91.25548
4110	0.22509	-92.04536	0.93727	11.05271	0.93727	11.05271	0.22509	-92.04536
4130	0.22261	-92.62309	0.93665	10.91824	0.93665	10.91824	0.22261	-92.62309
4150	0.22205	-92.96219	0.94029	10.71767	0.94029	10.71767	0.22205	-92.96219
4170	0.21922	-93.61623	0.93927	10.54756	0.93927	10.54756	0.21922	-93.61623
4190	0.21636	-94.28019	0.93816	10.51703	0.93816	10.51703	0.21636	-94.28019
4210	0.21458	-95.07407	0.93868	10.36604	0.93868	10.36604	0.21458	-95.07407
4230	0.21381	-95.9006	0.94148	10.17193	0.94148	10.17193	0.21381	-95.9006
4250	0.2128	-96.44522	0.94618	10.34947	0.94618	10.34947	0.2128	-96.44522
4270	0.21115	-97.25005	0.94199	10.07283	0.94199	10.07283	0.21115	-97.25005
4290	0.21089	-97.76557	0.94283	9.93609	0.94283	9.93609	0.21089	-97.76557
4310	0.20949	-98.16658	0.94251	9.76138	0.94251	9.76138	0.20949	-98.16658
4330	0.20692	-98.48017	0.94044	9.56454	0.94044	9.56454	0.20692	-98.48017
4350	0.2057	-98.58572	0.94165	9.55512	0.94165	9.55512	0.2057	-98.58572
4370	0.20385	-99.10468	0.94512	9.37587	0.94512	9.37587	0.20385	-99.10468
4390	0.20188	-99.78804	0.9441	9.18079	0.9441	9.18079	0.20188	-99.78804
4410	0.19979	-100.42165	0.94394	9.01611	0.94394	9.01611	0.19979	-100.42165
4430	0.19799	-100.8356	0.94562	8.92644	0.94562	8.92644	0.19799	-100.8356
4450	0.19734	-100.90418	0.94579	8.95475	0.94579	8.95475	0.19734	-100.90418
4470	0.19603	-101.24981	0.94677	8.75711	0.94677	8.75711	0.19603	-101.24981
4490	0.19308	-101.66133	0.94775	8.70756	0.94775	8.70756	0.19308	-101.66133
4510	0.18953	-102.07593	0.9476	8.61487	0.9476	8.61487	0.18953	-102.07593
4530	0.18621	-102.55702	0.94677	8.49324	0.94677	8.49324	0.18621	-102.55702
4550	0.18374	-103.29419	0.94739	8.56234	0.94739	8.56234	0.18374	-103.29419
4570	0.18108	-104.31941	0.94654	8.10701	0.94654	8.10701	0.18108	-104.31941
4590	0.17938	-105.35297	0.94853	7.93883	0.94853	7.93883	0.17938	-105.35297
4610	0.17879	-106.2356	0.95124	7.99008	0.95124	7.99008	0.17879	-106.2356
4630	0.17872	-106.87809	0.95211	8.04418	0.95211	8.04418	0.17872	-106.87809
4650	0.17785	-107.26121	0.94814	7.73576	0.94814	7.73576	0.17785	-107.26121
4670	0.17675	-107.37613	0.95236	7.74871	0.95236	7.74871	0.17675	-107.37613
4690	0.17436	-107.43832	0.94956	7.64512	0.94956	7.64512	0.17436	-107.43832
4710	0.17149	-107.62858	0.94667	7.49593	0.94667	7.49593	0.17149	-107.62858
4730	0.16843	-108.12984	0.9468	7.3727	0.9468	7.3727	0.16843	-108.12984
4750	0.16497	-109.1271	0.94926	7.34755	0.94926	7.34755	0.16497	-109.1271
4770	0.16391	-110.39982	0.94845	7.19624	0.94845	7.19624	0.16391	-110.39982
4790	0.16356	-111.36566	0.94923	7.05974	0.94923	7.05974	0.16356	-111.36566
4810	0.16351	-112.19937	0.94958	6.88186	0.94958	6.88186	0.16351	-112.19937
4830	0.16344	-112.73632	0.94959	6.78084	0.94959	6.78084	0.16344	-112.73632
4850	0.16317	-112.47252	0.95141	7.04934	0.95141	7.04934	0.16317	-112.47252
4870	0.16191	-112.75586	0.94923	6.51621	0.94923	6.51621	0.16191	-112.75586
4890	0.16031	-112.8967	0.95106	6.38915	0.95106	6.38915	0.16031	-112.8967
4910	0.15829	-113.3348	0.95221	6.37546	0.95221	6.37546	0.15829	-113.3348
4930	0.15578	-113.94605	0.95235	6.36787	0.95235	6.36787	0.15578	-113.94605
4950	0.15264	-114.04245	0.95544	6.44447	0.95544	6.44447	0.15264	-114.04245
4970	0.15095	-114.90088	0.95248	6.30489	0.95248	6.30489	0.15095	-114.90088
4990	0.15014	-116.09713	0.95552	6.07775	0.95552	6.07775	0.15014	-116.09713
5010	0.1497	-116.87583	0.95462	5.8408	0.95462	5.8408	0.1497	-116.87583
5030	0.14938	-117.03722	0.95045	5.7440	0.95045	5.7440	0.14938	-117.03722
5050	0.14922	-116.93713	0.95434	6.00958	0.95434	6.00958	0.14922	-116.93713
5070	0.14839	-116.38829	0.95462	5.61906	0.95462	5.61906	0.14839	-116.38829
5090	0.14691	-116.34871	0.95469	5.36025	0.95469	5.36025	0.14691	-116.34871
5110	0.14363	-116.38828	0.9532	5.25662	0.9532	5.25662	0.14363	-116.38828
5130	0.13937	-116.52781	0.95117	5.20593	0.95117	5.20593	0.13937	-116.52781
5150	0.1369	-117.23907	0.95196	4.98024	0.95196	4.98024	0.1369	-117.23907
5170	0.13557	-118.28108	0.95248	5.03354	0.95248	5.03354	0.13557	-118.28108
5190	0.13445	-119.20624	0.95486	4.92922	0.95486	4.92922	0.13445	-119.20624
5210	0.13366	-119.94488	0.95423	4.93258	0.95423	4.93258	0.13366	-119.94488
5230	0.13358	-120.21572	0.95237	4.99173	0.95237	4.99173	0.13358	-120.21572
5250	0.13489	-119.52581	0.95774	4.73756	0.95774	4.73756	0.13489	-119.52581
5270	0.1331	-118.8011	0.95341	4.58229	0.95341	4.58229	0.1331	-118.8011
5290	0.1304	-118.36986	0.95402	4.75365	0.95402	4.75365	0.1304	-118.36986
5310	0.12693	-118.25633	0.9570	4.61527	0.9570	4.61527	0.12693	-118.25633
5330	0.12329	-118.72283	0.95889	4.17575	0.95889	4.17575	0.12329	-118.72283
5350	0.12055	-120.26975	0.95531	4.08875	0.95531	4.08875	0.12055	-120.26975
5370	0.11795	-121.41808	0.95624	4.20795	0.95624	4.20795	0.11795	-121.41808
5390	0.11866	-122.48967	0.9543	4.17016	0.9543	4.17016	0.11866	-122.48967
