! 500R07S1R2BV4
! Data taken April 11, 2003
! Data taken on a HP 8720C VNA using a series-through test fixture and TRL* de-embedding
#	mhz	s	ma	r	50
0	0.99999	0.00000	0.00000	90.00000	0.00000	90.00000	0.99999	0.00000
50	0.99999	-0.76873	0.0372	89.22745	0.0372	89.22745	0.99999	-0.76873
70	0.99999	-3.2264	0.0507	85.72347	0.0507	85.72347	0.99999	-3.2264
90	0.99999	-3.43427	0.06625	85.7493	0.06625	85.7493	0.99999	-3.43427
110	0.99999	-4.3887	0.08192	85.39704	0.08192	85.39704	0.99999	-4.3887
130	0.99999	-6.32614	0.09673	83.8943	0.09673	83.8943	0.99999	-6.32614
150	0.99838	-6.72314	0.11068	83.6042	0.11068	83.6042	0.99838	-6.72314
170	0.99999	-7.31653	0.12662	82.60071	0.12662	82.60071	0.99999	-7.31653
190	0.99999	-8.34626	0.14066	81.60901	0.14066	81.60901	0.99999	-8.34626
210	0.99692	-9.06116	0.15507	80.91054	0.15507	80.91054	0.99692	-9.06116
230	0.99907	-9.59695	0.17024	80.22215	0.17024	80.22215	0.99907	-9.59695
250	0.99999	-10.97617	0.18461	78.6961	0.18461	78.6961	0.99999	-10.97617
270	0.98353	-11.74031	0.19601	78.1053	0.19601	78.1053	0.98353	-11.74031
290	0.98294	-12.24202	0.21141	77.58162	0.21141	77.58162	0.98294	-12.24202
310	0.98159	-13.17596	0.22616	76.64772	0.22616	76.64772	0.98159	-13.17596
330	0.97335	-14.45224	0.23875	75.54527	0.23875	75.54527	0.97335	-14.45224
350	0.96432	-15.19644	0.2508	75.23497	0.2508	75.23497	0.96432	-15.19644
370	0.96972	-16.2418	0.26603	73.92395	0.26603	73.92395	0.96972	-16.2418
390	0.96518	-17.05339	0.27811	73.02264	0.27811	73.02264	0.96518	-17.05339
410	0.96224	-17.6549	0.29095	72.37025	0.29095	72.37025	0.96224	-17.6549
430	0.96251	-18.33306	0.30544	71.69253	0.30544	71.69253	0.96251	-18.33306
450	0.95774	-19.63761	0.31948	70.60186	0.31948	70.60186	0.95774	-19.63761
470	0.94958	-20.04165	0.32812	70.02823	0.32812	70.02823	0.94958	-20.04165
490	0.9519	-19.17849	0.32511	69.65657	0.32511	69.65657	0.9519	-19.17849
510	0.95294	-18.62925	0.32755	68.81239	0.32755	68.81239	0.95294	-18.62925
530	0.9481	-18.81307	0.33922	67.67043	0.33922	67.67043	0.9481	-18.81307
550	0.93939	-18.98708	0.35053	67.25466	0.35053	67.25466	0.93939	-18.98708
570	0.92978	-19.72604	0.36179	66.30315	0.36179	66.30315	0.92978	-19.72604
590	0.92804	-20.3634	0.37317	65.64515	0.37317	65.64515	0.92804	-20.3634
610	0.92605	-21.02053	0.38449	65.10335	0.38449	65.10335	0.92605	-21.02053
630	0.91995	-21.77477	0.39545	64.53271	0.39545	64.53271	0.91995	-21.77477
650	0.91009	-22.65947	0.40562	63.82051	0.40562	63.82051	0.91009	-22.65947
670	0.90796	-22.81609	0.41482	63.53306	0.41482	63.53306	0.90796	-22.81609
690	0.9073	-23.41885	0.42505	62.68984	0.42505	62.68984	0.9073	-23.41885
710	0.90298	-24.02974	0.43479	61.85941	0.43479	61.85941	0.90298	-24.02974
730	0.89491	-24.49703	0.44412	61.23084	0.44412	61.23084	0.89491	-24.49703
750	0.88809	-24.95528	0.45475	60.61376	0.45475	60.61376	0.88809	-24.95528
770	0.88234	-25.5109	0.46457	59.62913	0.46457	59.62913	0.88234	-25.5109
790	0.87554	-26.35392	0.47304	58.96561	0.47304	58.96561	0.87554	-26.35392
810	0.87032	-27.15001	0.48269	58.42174	0.48269	58.42174	0.87032	-27.15001
830	0.86617	-27.7461	0.49325	57.86895	0.49325	57.86895	0.86617	-27.7461
850	0.85936	-28.17039	0.50164	57.25158	0.50164	57.25158	0.85936	-28.17039
870	0.85535	-28.37792	0.51156	56.92695	0.51156	56.92695	0.85535	-28.37792
890	0.85067	-29.19921	0.52044	56.09561	0.52044	56.09561	0.85067	-29.19921
910	0.84187	-29.85626	0.52877	55.32813	0.52877	55.32813	0.84187	-29.85626
930	0.83153	-30.2089	0.53715	54.8075	0.53715	54.8075	0.83153	-30.2089
950	0.82828	-30.75486	0.54632	54.32912	0.54632	54.32912	0.82828	-30.75486
970	0.82355	-31.93811	0.55764	53.4927	0.55764	53.4927	0.82355	-31.93811
990	0.817	-32.63041	0.56388	52.99656	0.56388	52.99656	0.817	-32.63041
1010	0.81332	-33.17446	0.57064	52.57052	0.57064	52.57052	0.81332	-33.17446
1030	0.81213	-33.64806	0.57929	52.09551	0.57929	52.09551	0.81213	-33.64806
1050	0.80803	-33.86412	0.58696	51.60351	0.58696	51.60351	0.80803	-33.86412
1070	0.80477	-34.28564	0.59335	51.14427	0.59335	51.14427	0.80477	-34.28564
1090	0.79542	-34.72213	0.60075	50.32071	0.60075	50.32071	0.79542	-34.72213
1110	0.78628	-35.00331	0.60761	49.62503	0.60761	49.62503	0.78628	-35.00331
1130	0.77812	-35.27902	0.61402	49.18254	0.61402	49.18254	0.77812	-35.27902
1150	0.76624	-36.01915	0.62167	48.75163	0.62167	48.75163	0.76624	-36.01915
1170	0.7585	-36.78591	0.62955	48.06309	0.62955	48.06309	0.7585	-36.78591
1190	0.75344	-37.75839	0.63754	47.56864	0.63754	47.56864	0.75344	-37.75839
1210	0.74875	-38.58408	0.64421	47.0937	0.64421	47.0937	0.74875	-38.58408
1230	0.74477	-39.12221	0.6497	46.59066	0.6497	46.59066	0.74477	-39.12221
1250	0.7444	-39.44377	0.65571	46.13898	0.65571	46.13898	0.7444	-39.44377
1270	0.74522	-40.38628	0.66399	45.7535	0.66399	45.7535	0.74522	-40.38628
1290	0.73773	-40.8124	0.66715	45.22509	0.66715	45.22509	0.73773	-40.8124
1310	0.72975	-40.9173	0.67062	44.75481	0.67062	44.75481	0.72975	-40.9173
1330	0.72475	-40.9991	0.67672	44.34891	0.67672	44.34891	0.72475	-40.9991
1350	0.72182	-41.45893	0.68464	43.81885	0.68464	43.81885	0.72182	-41.45893
1370	0.71195	-42.05609	0.68857	43.33054	0.68857	43.33054	0.71195	-42.05609
1390	0.70452	-42.61341	0.6962	42.90868	0.6962	42.90868	0.70452	-42.61341
1410	0.69854	-43.19145	0.702	42.40807	0.702	42.40807	0.69854	-43.19145
1430	0.69427	-43.7513	0.70553	41.90205	0.70553	41.90205	0.69427	-43.7513
1450	0.69324	-44.15459	0.71149	41.68252	0.71149	41.68252	0.69324	-44.15459
1470	0.68977	-44.71605	0.71743	41.06193	0.71743	41.06193	0.68977	-44.71605
1490	0.68288	-44.88848	0.72064	40.69196	0.72064	40.69196	0.68288	-44.88848
1510	0.67576	-44.85858	0.72381	40.39316	0.72381	40.39316	0.67576	-44.85858
1530	0.66922	-44.88532	0.72834	39.96749	0.72834	39.96749	0.66922	-44.88532
1550	0.66177	-45.29987	0.73435	39.19827	0.73435	39.19827	0.66177	-45.29987
1570	0.65275	-45.91533	0.73823	38.84138	0.73823	38.84138	0.65275	-45.91533
1590	0.64397	-46.4566	0.7425	38.33063	0.7425	38.33063	0.64397	-46.4566
1610	0.63806	-47.05184	0.74761	37.89917	0.74761	37.89917	0.63806	-47.05184
1630	0.63446	-47.71833	0.75326	37.56462	0.75326	37.56462	0.63446	-47.71833
1650	0.62933	-48.36242	0.75827	37.12909	0.75827	37.12909	0.62933	-48.36242
1670	0.62447	-48.9334	0.76161	36.38233	0.76161	36.38233	0.62447	-48.9334
1690	0.62001	-49.21793	0.76756	36.21754	0.76756	36.21754	0.62001	-49.21793
1710	0.61534	-49.47218	0.77216	35.92725	0.77216	35.92725	0.61534	-49.47218
1730	0.60985	-49.83685	0.77468	35.41133	0.77468	35.41133	0.60985	-49.83685
1750	0.60295	-50.3372	0.77763	35.17696	0.77763	35.17696	0.60295	-50.3372
1770	0.59653	-50.4718	0.7824	34.98865	0.7824	34.98865	0.59653	-50.4718
1790	0.59014	-51.02193	0.78798	34.45629	0.78798	34.45629	0.59014	-51.02193
1810	0.5846	-51.55922	0.79207	34.05882	0.79207	34.05882	0.5846	-51.55922
1830	0.58026	-52.09327	0.79509	33.82068	0.79509	33.82068	0.58026	-52.09327
1850	0.57701	-53.07162	0.80018	33.31188	0.80018	33.31188	0.57701	-53.07162
1870	0.57338	-53.38866	0.80174	32.91405	0.80174	32.91405	0.57338	-53.38866
1890	0.5702	-53.4855	0.80412	32.82254	0.80412	32.82254	0.5702	-53.4855
1910	0.5671	-53.65406	0.80804	32.58158	0.80804	32.58158	0.5671	-53.65406
1930	0.56277	-54.01384	0.81248	32.08457	0.81248	32.08457	0.56277	-54.01384
1950	0.55491	-54.51196	0.8147	31.57404	0.8147	31.57404	0.55491	-54.51196
1970	0.54877	-54.79213	0.81946	31.36586	0.81946	31.36586	0.54877	-54.79213
1990	0.54333	-55.20239	0.82212	31.10291	0.82212	31.10291	0.54333	-55.20239
2010	0.53842	-55.70915	0.82419	30.79846	0.82419	30.79846	0.53842	-55.70915
2030	0.534	-56.24529	0.82693	30.41703	0.82693	30.41703	0.534	-56.24529
2050	0.53018	-56.71012	0.83129	29.87429	0.83129	29.87429	0.53018	-56.71012
2070	0.52656	-56.9236	0.8341	29.58994	0.8341	29.58994	0.52656	-56.9236
2090	0.52336	-57.02759	0.83819	29.36834	0.83819	29.36834	0.52336	-57.02759
2110	0.51907	-57.20551	0.84081	29.10012	0.84081	29.10012	0.51907	-57.20551
2130	0.51353	-57.45332	0.84146	28.78814	0.84146	28.78814	0.51353	-57.45332
2150	0.50789	-57.5795	0.84192	28.54748	0.84192	28.54748	0.50789	-57.5795
2170	0.50257	-57.88408	0.84787	28.11653	0.84787	28.11653	0.50257	-57.88408
2190	0.49688	-58.2884	0.84929	27.75692	0.84929	27.75692	0.49688	-58.2884
2210	0.49137	-58.81242	0.85219	27.43138	0.85219	27.43138	0.49137	-58.81242
2230	0.48698	-59.42867	0.85683	27.1171	0.85683	27.1171	0.48698	-59.42867
2250	0.48495	-60.06214	0.8578	26.80571	0.8578	26.80571	0.48495	-60.06214
2270	0.47702	-60.10275	0.85909	26.72965	0.85909	26.72965	0.47702	-60.10275
2290	0.47435	-60.36683	0.86314	26.53765	0.86314	26.53765	0.47435	-60.36683
2310	0.47141	-60.78284	0.86637	26.11451	0.86637	26.11451	0.47141	-60.78284
2330	0.46624	-61.13455	0.86742	25.64045	0.86742	25.64045	0.46624	-61.13455
2350	0.46047	-61.06102	0.86717	25.59113	0.86717	25.59113	0.46047	-61.06102
2370	0.4559	-61.30358	0.87214	25.17683	0.87214	25.17683	0.4559	-61.30358
2390	0.44984	-61.83383	0.87428	24.72068	0.87428	24.72068	0.44984	-61.83383
2410	0.44399	-62.41978	0.8752	24.39202	0.8752	24.39202	0.44399	-62.41978
2430	0.43954	-62.97604	0.87597	24.25628	0.87597	24.25628	0.43954	-62.97604
2450	0.43713	-63.56375	0.87711	24.27501	0.87711	24.27501	0.43713	-63.56375
2470	0.4355	-63.79787	0.8864	23.97769	0.8864	23.97769	0.4355	-63.79787
2490	0.43274	-64.18573	0.88794	23.7475	0.88794	23.7475	0.43274	-64.18573
2510	0.4296	-64.41177	0.88723	23.43598	0.88723	23.43598	0.4296	-64.41177
2530	0.42606	-64.43766	0.88765	23.07243	0.88765	23.07243	0.42606	-64.43766
2550	0.42128	-64.5023	0.89053	22.86394	0.89053	22.86394	0.42128	-64.5023
2570	0.41499	-64.63583	0.88925	22.44523	0.88925	22.44523	0.41499	-64.63583
2590	0.41042	-64.9765	0.892	22.32562	0.892	22.32562	0.41042	-64.9765
2610	0.40546	-65.4073	0.89554	22.13195	0.89554	22.13195	0.40546	-65.4073
2630	0.40021	-65.84423	0.89718	21.81563	0.89718	21.81563	0.40021	-65.84423
2650	0.39695	-66.23631	0.89474	21.65262	0.89474	21.65262	0.39695	-66.23631
2670	0.39515	-66.46968	0.90081	21.36978	0.90081	21.36978	0.39515	-66.46968
2690	0.39179	-66.66626	0.90315	21.05979	0.90315	21.05979	0.39179	-66.66626
2710	0.38798	-67.05816	0.903	20.77456	0.903	20.77456	0.38798	-67.05816
2730	0.38375	-67.41144	0.90307	20.56287	0.90307	20.56287	0.38375	-67.41144
2750	0.37804	-67.02612	0.90753	20.47035	0.90753	20.47035	0.37804	-67.02612
2770	0.37726	-67.57073	0.90782	20.20061	0.90782	20.20061	0.37726	-67.57073
2790	0.3725	-68.0056	0.90898	19.91662	0.90898	19.91662	0.3725	-68.0056
2810	0.36755	-68.35328	0.91004	19.86946	0.91004	19.86946	0.36755	-68.35328
2830	0.36419	-68.53645	0.91072	19.93239	0.91072	19.93239	0.36419	-68.53645
2850	0.36217	-68.3779	0.91152	19.60092	0.91152	19.60092	0.36217	-68.3779
2870	0.35868	-69.01019	0.915	19.10283	0.915	19.10283	0.35868	-69.01019
2890	0.35333	-69.56973	0.91524	18.87569	0.91524	18.87569	0.35333	-69.56973
2910	0.3499	-70.00466	0.91588	18.69451	0.91588	18.69451	0.3499	-70.00466
2930	0.3485	-70.30127	0.91852	18.46125	0.91852	18.46125	0.3485	-70.30127
2950	0.34554	-70.48404	0.92271	18.20484	0.92271	18.20484	0.34554	-70.48404
2970	0.3428	-70.3131	0.92246	17.94197	0.92246	17.94197	0.3428	-70.3131
2990	0.33815	-70.75843	0.91879	17.85522	0.91879	17.85522	0.33815	-70.75843
3010	0.33388	-70.98002	0.91687	17.74028	0.91687	17.74028	0.33388	-70.98002
3030	0.33043	-70.92962	0.91925	17.53975	0.91925	17.53975	0.33043	-70.92962
3050	0.32634	-71.35072	0.92588	17.34321	0.92588	17.34321	0.32634	-71.35072
3070	0.32205	-71.8047	0.92435	16.9104	0.92435	16.9104	0.32205	-71.8047
3090	0.31845	-72.04931	0.92097	16.81566	0.92097	16.81566	0.31845	-72.04931
3110	0.31597	-72.47166	0.9235	16.68403	0.9235	16.68403	0.31597	-72.47166
3130	0.31405	-73.04176	0.93021	16.41706	0.93021	16.41706	0.31405	-73.04176
3150	0.31123	-73.31259	0.92996	16.19282	0.92996	16.19282	0.31123	-73.31259
3170	0.30824	-73.58221	0.92571	16.14325	0.92571	16.14325	0.30824	-73.58221
3190	0.30654	-73.69522	0.93278	16.06873	0.93278	16.06873	0.30654	-73.69522
3210	0.30341	-73.82596	0.93612	15.84586	0.93612	15.84586	0.30341	-73.82596
3230	0.29864	-74.04574	0.93211	15.56235	0.93211	15.56235	0.29864	-74.04574
3250	0.29454	-74.32288	0.92856	15.51706	0.92856	15.51706	0.29454	-74.32288
3270	0.29143	-74.82954	0.93045	15.21367	0.93045	15.21367	0.29143	-74.82954
3290	0.28809	-75.33194	0.93243	14.97083	0.93243	14.97083	0.28809	-75.33194
3310	0.28578	-75.74151	0.93486	14.85028	0.93486	14.85028	0.28578	-75.74151
3330	0.28481	-76.14575	0.93814	14.75379	0.93814	14.75379	0.28481	-76.14575
3350	0.2845	-76.80822	0.94267	14.42313	0.94267	14.42313	0.2845	-76.80822
3370	0.28196	-76.87856	0.94166	14.36228	0.94166	14.36228	0.28196	-76.87856
3390	0.27901	-76.99244	0.9405	14.20227	0.9405	14.20227	0.27901	-76.99244
3410	0.27616	-77.09215	0.9406	13.96192	0.9406	13.96192	0.27616	-77.09215
3430	0.27303	-77.30431	0.94216	13.76451	0.94216	13.76451	0.27303	-77.30431
3450	0.26831	-77.93983	0.94421	13.83772	0.94421	13.83772	0.26831	-77.93983
3470	0.26435	-78.45304	0.9427	13.59762	0.9427	13.59762	0.26435	-78.45304
3490	0.26263	-78.76352	0.94289	13.52009	0.94289	13.52009	0.26263	-78.76352
3510	0.26124	-79.32218	0.94404	13.40296	0.94404	13.40296	0.26124	-79.32218
3530	0.25926	-80.04324	0.94539	13.22592	0.94539	13.22592	0.25926	-80.04324
3550	0.25677	-80.30426	0.9462	13.15058	0.9462	13.15058	0.25677	-80.30426
3570	0.25656	-80.51206	0.94744	12.88465	0.94744	12.88465	0.25656	-80.51206
3590	0.25381	-80.83121	0.94764	12.61549	0.94764	12.61549	0.25381	-80.83121
3610	0.25079	-81.11776	0.94621	12.41056	0.94621	12.41056	0.25079	-81.11776
3630	0.24842	-81.42185	0.9456	12.29469	0.9456	12.29469	0.24842	-81.42185
3650	0.24625	-81.98764	0.95129	12.25009	0.95129	12.25009	0.24625	-81.98764
3670	0.24261	-82.47642	0.94852	12.06295	0.94852	12.06295	0.24261	-82.47642
3690	0.24057	-82.83701	0.94993	11.89911	0.94993	11.89911	0.24057	-82.83701
3710	0.23919	-83.41693	0.9513	11.81993	0.9513	11.81993	0.23919	-83.41693
3730	0.23776	-84.12422	0.95069	11.71845	0.95069	11.71845	0.23776	-84.12422
3750	0.23578	-84.4274	0.94844	11.31933	0.94844	11.31933	0.23578	-84.4274
3770	0.2341	-84.53009	0.95035	11.33836	0.95035	11.33836	0.2341	-84.53009
3790	0.23366	-85.12884	0.95247	10.94215	0.95247	10.94215	0.23366	-85.12884
3810	0.23121	-85.61371	0.9536	10.77757	0.9536	10.77757	0.23121	-85.61371
3830	0.22696	-85.84379	0.95363	10.92431	0.95363	10.92431	0.22696	-85.84379
3850	0.22459	-86.14721	0.95359	10.89495	0.95359	10.89495	0.22459	-86.14721
3870	0.22286	-86.85904	0.94848	10.70792	0.94848	10.70792	0.22286	-86.85904
3890	0.22208	-87.33303	0.95208	10.7334	0.95208	10.7334	0.22208	-87.33303
3910	0.22088	-87.79291	0.95394	10.55394	0.95394	10.55394	0.22088	-87.79291
3930	0.21874	-88.29722	0.95249	10.17877	0.95249	10.17877	0.21874	-88.29722
3950	0.21604	-88.73933	0.95507	10.04383	0.95507	10.04383	0.21604	-88.73933
3970	0.215	-88.98079	0.95836	10.23125	0.95836	10.23125	0.215	-88.98079
3990	0.21349	-89.6029	0.95794	10.02218	0.95794	10.02218	0.21349	-89.6029
4010	0.21076	-90.03857	0.95681	9.7567	0.95681	9.7567	0.21076	-90.03857
4030	0.20767	-90.25023	0.95715	9.49946	0.95715	9.49946	0.20767	-90.25023
4050	0.20667	-90.72972	0.96029	9.03965	0.96029	9.03965	0.20667	-90.72972
4070	0.20496	-91.66284	0.95229	9.22678	0.95229	9.22678	0.20496	-91.66284
4090	0.20288	-92.24066	0.95455	9.03444	0.95455	9.03444	0.20288	-92.24066
4110	0.20067	-92.72875	0.95771	8.92226	0.95771	8.92226	0.20067	-92.72875
4130	0.19899	-93.20284	0.95836	8.9251	0.95836	8.9251	0.19899	-93.20284
4150	0.19894	-93.54878	0.95904	8.65301	0.95904	8.65301	0.19894	-93.54878
4170	0.19714	-94.43858	0.9655	8.39587	0.9655	8.39587	0.19714	-94.43858
4190	0.19502	-94.85873	0.96276	8.36527	0.96276	8.36527	0.19502	-94.85873
4210	0.19306	-95.36175	0.95999	8.39243	0.95999	8.39243	0.19306	-95.36175
4230	0.19141	-96.05876	0.96057	8.36966	0.96057	8.36966	0.19141	-96.05876
4250	0.18995	-96.61949	0.96211	8.25039	0.96211	8.25039	0.18995	-96.61949
4270	0.18904	-97.07514	0.96178	8.13565	0.96178	8.13565	0.18904	-97.07514
4290	0.18798	-97.78713	0.96151	7.91682	0.96151	7.91682	0.18798	-97.78713
4310	0.18671	-98.4369	0.96222	7.68072	0.96222	7.68072	0.18671	-98.4369
4330	0.18565	-98.91547	0.96378	7.51145	0.96378	7.51145	0.18565	-98.91547
4350	0.18573	-99.32342	0.96496	7.49047	0.96496	7.49047	0.18573	-99.32342
4370	0.183	-100.12297	0.96377	7.09294	0.96377	7.09294	0.183	-100.12297
4390	0.18296	-100.11455	0.96145	7.01497	0.96145	7.01497	0.18296	-100.11455
4410	0.18303	-100.28464	0.96304	6.80104	0.96304	6.80104	0.18303	-100.28464
4430	0.18201	-100.84266	0.96718	6.54944	0.96718	6.54944	0.18201	-100.84266
4450	0.18004	-101.22089	0.96613	6.91221	0.96613	6.91221	0.18004	-101.22089
4470	0.17783	-101.75521	0.96454	6.68115	0.96454	6.68115	0.17783	-101.75521
4490	0.17632	-102.39182	0.9625	6.46118	0.9625	6.46118	0.17632	-102.39182
4510	0.17535	-102.74578	0.96171	6.40955	0.96171	6.40955	0.17535	-102.74578
4530	0.17473	-102.88747	0.96252	6.42768	0.96252	6.42768	0.17473	-102.88747
4550	0.17426	-103.34265	0.96394	6.16111	0.96394	6.16111	0.17426	-103.34265
4570	0.17383	-103.95465	0.9622	5.92371	0.9622	5.92371	0.17383	-103.95465
4590	0.17228	-104.17843	0.96198	5.7797	0.96198	5.7797	0.17228	-104.17843
4610	0.17067	-104.34679	0.96414	5.77676	0.96414	5.77676	0.17067	-104.34679
4630	0.16928	-104.75603	0.96636	5.81076	0.96636	5.81076	0.16928	-104.75603
4650	0.1676	-105.66596	0.9632	5.6257	0.9632	5.6257	0.1676	-105.66596
4670	0.16563	-106.17515	0.95986	5.50465	0.95986	5.50465	0.16563	-106.17515
4690	0.16541	-106.72334	0.96465	5.33584	0.96465	5.33584	0.16541	-106.72334
4710	0.16549	-106.98133	0.96585	5.2049	0.96585	5.2049	0.16549	-106.98133
4730	0.16503	-107.05485	0.96253	5.13768	0.96253	5.13768	0.16503	-107.05485
4750	0.16379	-107.48458	0.96463	5.10023	0.96463	5.10023	0.16379	-107.48458
4770	0.16303	-107.68799	0.96556	5.09822	0.96556	5.09822	0.16303	-107.68799
4790	0.16239	-107.93647	0.9654	4.84672	0.9654	4.84672	0.16239	-107.93647
4810	0.16115	-108.2298	0.96638	4.69941	0.96638	4.69941	0.16115	-108.2298
4830	0.15975	-108.53651	0.96817	4.68131	0.96817	4.68131	0.15975	-108.53651
4850	0.1598	-108.79393	0.96781	4.48877	0.96781	4.48877	0.1598	-108.79393
4870	0.15816	-109.27651	0.96507	4.48992	0.96507	4.48992	0.15816	-109.27651
4890	0.15572	-109.86558	0.9615	4.10911	0.9615	4.10911	0.15572	-109.86558
4910	0.1551	-110.1866	0.96144	3.96825	0.96144	3.96825	0.1551	-110.1866
4930	0.15636	-110.27652	0.96433	4.09989	0.96433	4.09989	0.15636	-110.27652
4950	0.15694	-110.58376	0.96469	3.94718	0.96469	3.94718	0.15694	-110.58376
4970	0.15535	-110.54864	0.96392	3.99981	0.96392	3.99981	0.15535	-110.54864
4990	0.15415	-110.42507	0.96463	3.83492	0.96463	3.83492	0.15415	-110.42507
5010	0.15292	-110.51817	0.96605	3.72757	0.96605	3.72757	0.15292	-110.51817
5030	0.15171	-110.84244	0.96693	3.79384	0.96693	3.79384	0.15171	-110.84244
5050	0.15096	-111.12171	0.96554	3.99091	0.96554	3.99091	0.15096	-111.12171
5070	0.15048	-111.74753	0.96918	3.25934	0.96918	3.25934	0.15048	-111.74753
5090	0.1506	-111.6499	0.96726	3.15729	0.96726	3.15729	0.1506	-111.6499
5110	0.15017	-111.61974	0.9667	3.1533	0.9667	3.1533	0.15017	-111.61974
5130	0.14931	-111.87761	0.96812	3.10377	0.96812	3.10377	0.14931	-111.87761
5150	0.14936	-112.07369	0.96591	3.25293	0.96591	3.25293	0.14936	-112.07369
5170	0.14927	-111.74927	0.96709	2.8696	0.96709	2.8696	0.14927	-111.74927
5190	0.14768	-111.99057	0.9636	2.76502	0.9636	2.76502	0.14768	-111.99057
5210	0.1459	-111.84965	0.96303	2.78985	0.96303	2.78985	0.1459	-111.84965
5230	0.1448	-111.24962	0.96663	2.69521	0.96663	2.69521	0.1448	-111.24962
5250	0.14491	-110.98467	0.9693	2.13271	0.9693	2.13271	0.14491	-110.98467
5270	0.14327	-111.17668	0.96517	2.24349	0.96517	2.24349	0.14327	-111.17668
5290	0.14193	-111.37289	0.96492	2.23237	0.96492	2.23237	0.14193	-111.37289
5310	0.1417	-111.33199	0.96725	2.21103	0.96725	2.21103	0.1417	-111.33199
5330	0.14188	-111.14683	0.96877	2.14944	0.96877	2.14944	0.14188	-111.14683
5350	0.14034	-111.24438	0.96399	1.87586	0.96399	1.87586	0.14034	-111.24438
5370	0.13856	-111.11451	0.96445	1.96202	0.96445	1.96202	0.13856	-111.11451
5390	0.13763	-110.67858	0.96645	1.73564	0.96645	1.73564	0.13763	-110.67858
