! 500R07S1R5BV4
! Data taken April 11, 2003
! Data taken on a HP 8720C VNA using a series-through test fixture and TRL* de-embedding
#	mhz	s	ma	r	50
0	0.99999	0.00000	0.00000	90.00000	0.00000	90.00000	0.99999	0.00000
50	0.99999	-2.20935	0.0548	91.43394	0.0548	91.43394	0.99999	-2.20935
70	0.99999	-4.63868	0.07612	86.2778	0.07612	86.2778	0.99999	-4.63868
90	0.99751	-5.25763	0.09648	84.49025	0.09648	84.49025	0.99751	-5.25763
110	0.99999	-6.60195	0.1183	83.1607	0.1183	83.1607	0.99999	-6.60195
130	0.99999	-8.72467	0.14058	81.45835	0.14058	81.45835	0.99999	-8.72467
150	0.98476	-9.19611	0.1589	80.6322	0.1589	80.6322	0.98476	-9.19611
170	0.9995	-10.60605	0.18144	79.14668	0.18144	79.14668	0.9995	-10.60605
190	0.99256	-12.0119	0.20152	77.92116	0.20152	77.92116	0.99256	-12.0119
210	0.98632	-12.97915	0.22146	76.93151	0.22146	76.93151	0.98632	-12.97915
230	0.98636	-13.86247	0.24207	75.91174	0.24207	75.91174	0.98636	-13.86247
250	0.98138	-15.80565	0.26269	74.35404	0.26269	74.35404	0.98138	-15.80565
270	0.96176	-16.51506	0.27871	73.15952	0.27871	73.15952	0.96176	-16.51506
290	0.95884	-17.41556	0.2993	72.23838	0.2993	72.23838	0.95884	-17.41556
310	0.9551	-18.78488	0.31871	71.01112	0.31871	71.01112	0.9551	-18.78488
330	0.94499	-20.337	0.3353	69.61483	0.3353	69.61483	0.94499	-20.337
350	0.93597	-21.22207	0.3516	68.90322	0.3516	68.90322	0.93597	-21.22207
370	0.93367	-22.6903	0.37171	67.53623	0.37171	67.53623	0.93367	-22.6903
390	0.92353	-23.81263	0.38733	66.18698	0.38733	66.18698	0.92353	-23.81263
410	0.9175	-24.73936	0.40385	65.18751	0.40385	65.18751	0.9175	-24.73936
430	0.91575	-25.71774	0.42225	64.35387	0.42225	64.35387	0.91575	-25.71774
450	0.90664	-27.09204	0.43908	62.98615	0.43908	62.98615	0.90664	-27.09204
470	0.89567	-27.73614	0.45116	62.20736	0.45116	62.20736	0.89567	-27.73614
490	0.89825	-26.73943	0.44607	61.94281	0.44607	61.94281	0.89825	-26.73943
510	0.89783	-26.15432	0.44772	61.10426	0.44772	61.10426	0.89783	-26.15432
530	0.88918	-26.54599	0.46164	59.7836	0.46164	59.7836	0.88918	-26.54599
550	0.87847	-26.99232	0.47497	59.2528	0.47497	59.2528	0.87847	-26.99232
570	0.86723	-27.83171	0.4886	58.3662	0.4886	58.3662	0.86723	-27.83171
590	0.86152	-28.47903	0.50192	57.30641	0.50192	57.30641	0.86152	-28.47903
610	0.85523	-29.3415	0.51556	56.30599	0.51556	56.30599	0.85523	-29.3415
630	0.84558	-30.43925	0.52838	55.46995	0.52838	55.46995	0.84558	-30.43925
650	0.83314	-31.40539	0.53747	54.77584	0.53747	54.77584	0.83314	-31.40539
670	0.82875	-31.67094	0.54937	54.32896	0.54937	54.32896	0.82875	-31.67094
690	0.82489	-32.49851	0.56047	53.38809	0.56047	53.38809	0.82489	-32.49851
710	0.81751	-33.28033	0.56976	52.50847	0.56976	52.50847	0.81751	-33.28033
730	0.80657	-33.8287	0.57913	51.80572	0.57913	51.80572	0.80657	-33.8287
750	0.79604	-34.37605	0.59333	50.95589	0.59333	50.95589	0.79604	-34.37605
770	0.78582	-35.1648	0.60224	49.95412	0.60224	49.95412	0.78582	-35.1648
790	0.7777	-35.96093	0.61235	49.17135	0.61235	49.17135	0.7777	-35.96093
810	0.77059	-36.83784	0.62395	48.4341	0.62395	48.4341	0.77059	-36.83784
830	0.76302	-37.68507	0.63511	47.69663	0.63511	47.69663	0.76302	-37.68507
850	0.75307	-38.20835	0.64168	47.04094	0.64168	47.04094	0.75307	-38.20835
870	0.7494	-38.48487	0.65055	46.45078	0.65055	46.45078	0.7494	-38.48487
890	0.74155	-39.34413	0.66204	45.60567	0.66204	45.60567	0.74155	-39.34413
910	0.73166	-40.03926	0.67054	44.90313	0.67054	44.90313	0.73166	-40.03926
930	0.72141	-40.47716	0.67598	44.3974	0.67598	44.3974	0.72141	-40.47716
950	0.71198	-41.2185	0.68387	43.79943	0.68387	43.79943	0.71198	-41.2185
970	0.70411	-42.41189	0.69391	43.04093	0.69391	43.04093	0.70411	-42.41189
990	0.69757	-43.1077	0.70134	42.42161	0.70134	42.42161	0.69757	-43.1077
1010	0.69184	-43.7252	0.7082	41.86629	0.7082	41.86629	0.69184	-43.7252
1030	0.68651	-44.27434	0.71549	41.34018	0.71549	41.34018	0.68651	-44.27434
1050	0.68132	-44.35576	0.7232	40.84885	0.7232	40.84885	0.68132	-44.35576
1070	0.67785	-44.79518	0.72858	40.38474	0.72858	40.38474	0.67785	-44.79518
1090	0.66693	-45.11258	0.73436	39.55359	0.73436	39.55359	0.66693	-45.11258
1110	0.65566	-45.43756	0.73993	38.86626	0.73993	38.86626	0.65566	-45.43756
1130	0.64608	-45.8738	0.74549	38.35733	0.74549	38.35733	0.64608	-45.8738
1150	0.63514	-46.49909	0.75211	37.58503	0.75211	37.58503	0.63514	-46.49909
1170	0.6259	-47.36332	0.75896	37.10634	0.75896	37.10634	0.6259	-47.36332
1190	0.61926	-48.3226	0.76609	36.60911	0.76609	36.60911	0.61926	-48.3226
1210	0.61299	-49.16077	0.77092	36.11705	0.77092	36.11705	0.61299	-49.16077
1230	0.60785	-49.75702	0.77453	35.7113	0.77453	35.7113	0.60785	-49.75702
1250	0.60758	-50.08591	0.78172	35.5304	0.78172	35.5304	0.60758	-50.08591
1270	0.60231	-50.77218	0.78568	34.88177	0.78568	34.88177	0.60231	-50.77218
1290	0.59594	-51.11235	0.7892	34.3712	0.7892	34.3712	0.59594	-51.11235
1310	0.58925	-51.23821	0.7933	33.91167	0.7933	33.91167	0.58925	-51.23821
1330	0.58276	-51.40894	0.79862	33.39257	0.79862	33.39257	0.58276	-51.40894
1350	0.57678	-52.01108	0.80541	32.67966	0.80541	32.67966	0.57678	-52.01108
1370	0.56211	-51.94812	0.80479	32.20142	0.80479	32.20142	0.56211	-51.94812
1390	0.55772	-52.80784	0.81065	31.8536	0.81065	31.8536	0.55772	-52.80784
1410	0.55421	-53.62974	0.8161	31.36942	0.8161	31.36942	0.55421	-53.62974
1430	0.54919	-54.077	0.8194	30.85668	0.8194	30.85668	0.54919	-54.077
1450	0.54733	-54.43651	0.82396	30.7978	0.82396	30.7978	0.54733	-54.43651
1470	0.54227	-54.97926	0.82806	30.21873	0.82806	30.21873	0.54227	-54.97926
1490	0.53598	-55.07634	0.83101	29.86932	0.83101	29.86932	0.53598	-55.07634
1510	0.52855	-55.05472	0.8336	29.51052	0.8336	29.51052	0.52855	-55.05472
1530	0.52006	-55.18815	0.83673	29.04389	0.83673	29.04389	0.52006	-55.18815
1550	0.51048	-55.69717	0.84136	28.51161	0.84136	28.51161	0.51048	-55.69717
1570	0.50649	-56.08262	0.84237	27.99977	0.84237	27.99977	0.50649	-56.08262
1590	0.49845	-56.51066	0.8465	27.76967	0.8465	27.76967	0.49845	-56.51066
1610	0.49114	-57.11335	0.85103	27.41033	0.85103	27.41033	0.49114	-57.11335
1630	0.48607	-57.84883	0.85442	26.89397	0.85442	26.89397	0.48607	-57.84883
1650	0.48155	-58.50133	0.85635	26.57601	0.85635	26.57601	0.48155	-58.50133
1670	0.47653	-58.89216	0.85844	26.25553	0.85844	26.25553	0.47653	-58.89216
1690	0.47246	-59.06969	0.86368	25.95777	0.86368	25.95777	0.47246	-59.06969
1710	0.46791	-59.21261	0.86722	25.5412	0.86722	25.5412	0.46791	-59.21261
1730	0.46238	-59.43541	0.86814	25.05643	0.86814	25.05643	0.46238	-59.43541
1750	0.45631	-59.78838	0.86945	24.74621	0.86945	24.74621	0.45631	-59.78838
1770	0.44973	-60.0187	0.8763	24.63494	0.8763	24.63494	0.44973	-60.0187
1790	0.44349	-60.66519	0.87946	24.20074	0.87946	24.20074	0.44349	-60.66519
1810	0.4376	-61.30121	0.88051	23.79209	0.88051	23.79209	0.4376	-61.30121
1830	0.43264	-61.82991	0.88256	23.50646	0.88256	23.50646	0.43264	-61.82991
1850	0.4298	-62.48428	0.89029	23.19034	0.89029	23.19034	0.4298	-62.48428
1870	0.42602	-62.99684	0.89068	22.65834	0.89068	22.65834	0.42602	-62.99684
1890	0.42236	-62.93164	0.89009	22.54867	0.89009	22.54867	0.42236	-62.93164
1910	0.41891	-62.91479	0.89154	22.43394	0.89154	22.43394	0.41891	-62.91479
1930	0.41485	-63.20957	0.8943	22.11824	0.8943	22.11824	0.41485	-63.20957
1950	0.40847	-63.71636	0.89386	21.63722	0.89386	21.63722	0.40847	-63.71636
1970	0.40153	-63.83391	0.89577	21.33383	0.89577	21.33383	0.40153	-63.83391
1990	0.39697	-64.27313	0.89867	21.1257	0.89867	21.1257	0.39697	-64.27313
2010	0.39306	-64.78156	0.90076	20.9094	0.90076	20.9094	0.39306	-64.78156
2030	0.3892	-65.22598	0.9023	20.62207	0.9023	20.62207	0.3892	-65.22598
2050	0.38591	-65.59242	0.90553	20.24145	0.90553	20.24145	0.38591	-65.59242
2070	0.38242	-65.49899	0.90681	19.98524	0.90681	19.98524	0.38242	-65.49899
2090	0.37929	-65.71901	0.90976	19.70719	0.90976	19.70719	0.37929	-65.71901
2110	0.37499	-65.94021	0.91175	19.50554	0.91175	19.50554	0.37499	-65.94021
2130	0.36972	-66.09379	0.91282	19.33417	0.91282	19.33417	0.36972	-66.09379
2150	0.36538	-66.35432	0.91568	19.00257	0.91568	19.00257	0.36538	-66.35432
2170	0.35853	-66.75369	0.91495	18.58232	0.91495	18.58232	0.35853	-66.75369
2190	0.35355	-66.83519	0.91799	18.42952	0.91799	18.42952	0.35355	-66.83519
2210	0.34912	-67.20098	0.92036	18.22522	0.92036	18.22522	0.34912	-67.20098
2230	0.34497	-67.87558	0.92081	17.8494	0.92081	17.8494	0.34497	-67.87558
2250	0.34187	-68.30591	0.92128	17.38097	0.92128	17.38097	0.34187	-68.30591
2270	0.33834	-68.47792	0.92219	17.28704	0.92219	17.28704	0.33834	-68.47792
2290	0.33537	-68.72914	0.92413	17.16889	0.92413	17.16889	0.33537	-68.72914
2310	0.3318	-68.98984	0.92556	16.91076	0.92556	16.91076	0.3318	-68.98984
2330	0.32733	-69.19285	0.92605	16.54734	0.92605	16.54734	0.32733	-69.19285
2350	0.32259	-69.27362	0.92623	16.26383	0.92623	16.26383	0.32259	-69.27362
2370	0.31735	-69.34695	0.92865	16.09799	0.92865	16.09799	0.31735	-69.34695
2390	0.31189	-69.79322	0.9315	15.75755	0.9315	15.75755	0.31189	-69.79322
2410	0.30733	-70.47563	0.93339	15.44893	0.93339	15.44893	0.30733	-70.47563
2430	0.30414	-71.1686	0.93346	15.27349	0.93346	15.27349	0.30414	-71.1686
2450	0.30223	-71.55773	0.93138	15.22746	0.93138	15.22746	0.30223	-71.55773
2470	0.30026	-71.71705	0.93669	15.07746	0.93669	15.07746	0.30026	-71.71705
2490	0.29709	-71.84962	0.93633	14.66628	0.93633	14.66628	0.29709	-71.84962
2510	0.29415	-71.97674	0.93664	14.39019	0.93664	14.39019	0.29415	-71.97674
2530	0.29144	-72.07851	0.93921	14.30544	0.93921	14.30544	0.29144	-72.07851
2550	0.28755	-72.09386	0.94094	14.12819	0.94094	14.12819	0.28755	-72.09386
2570	0.28246	-72.25288	0.9417	13.84716	0.9417	13.84716	0.28246	-72.25288
2590	0.27822	-72.57193	0.94201	13.74993	0.94201	13.74993	0.27822	-72.57193
2610	0.27407	-73.03726	0.9432	13.52978	0.9432	13.52978	0.27407	-73.03726
2630	0.27015	-73.52864	0.9446	13.2166	0.9446	13.2166	0.27015	-73.52864
2650	0.26743	-73.8193	0.94354	13.17685	0.94354	13.17685	0.26743	-73.8193
2670	0.26578	-74.14367	0.94762	12.98597	0.94762	12.98597	0.26578	-74.14367
2690	0.26346	-74.21116	0.94771	12.64693	0.94771	12.64693	0.26346	-74.21116
2710	0.26001	-74.34209	0.94758	12.36011	0.94758	12.36011	0.26001	-74.34209
2730	0.25557	-74.50667	0.94897	12.19233	0.94897	12.19233	0.25557	-74.50667
2750	0.25092	-74.32501	0.9516	12.07679	0.9516	12.07679	0.25092	-74.32501
2770	0.24886	-74.67968	0.95005	11.86195	0.95005	11.86195	0.24886	-74.67968
2790	0.24538	-75.03817	0.9512	11.67866	0.9512	11.67866	0.24538	-75.03817
2810	0.24179	-75.41995	0.94986	11.66545	0.94986	11.66545	0.24179	-75.41995
2830	0.23866	-75.69378	0.94687	11.67638	0.94687	11.67638	0.23866	-75.69378
2850	0.2359	-75.57769	0.94912	11.28103	0.94912	11.28103	0.2359	-75.57769
2870	0.23347	-76.23256	0.95269	10.96928	0.95269	10.96928	0.23347	-76.23256
2890	0.22966	-76.79103	0.95269	10.8365	0.95269	10.8365	0.22966	-76.79103
2910	0.22679	-77.17503	0.95386	10.62073	0.95386	10.62073	0.22679	-77.17503
2930	0.22528	-77.39741	0.95659	10.34788	0.95659	10.34788	0.22528	-77.39741
2950	0.22366	-77.56193	0.95698	10.33165	0.95698	10.33165	0.22366	-77.56193
2970	0.22041	-77.38622	0.95921	10.08234	0.95921	10.08234	0.22041	-77.38622
2990	0.21698	-77.76858	0.95384	9.88586	0.95384	9.88586	0.21698	-77.76858
3010	0.2139	-78.08856	0.95131	9.80846	0.95131	9.80846	0.2139	-78.08856
3030	0.21089	-78.1996	0.95461	9.76124	0.95461	9.76124	0.21089	-78.1996
3050	0.20684	-78.42895	0.95926	9.50008	0.95926	9.50008	0.20684	-78.42895
3070	0.20371	-78.78959	0.95878	9.21512	0.95878	9.21512	0.20371	-78.78959
3090	0.20113	-79.16165	0.95803	9.17429	0.95803	9.17429	0.20113	-79.16165
3110	0.19874	-79.6907	0.95937	9.07169	0.95937	9.07169	0.19874	-79.6907
3130	0.19654	-80.35269	0.96182	8.80067	0.96182	8.80067	0.19654	-80.35269
3150	0.19488	-80.95402	0.96113	8.45376	0.96113	8.45376	0.19488	-80.95402
3170	0.19243	-80.90627	0.96189	8.52054	0.96189	8.52054	0.19243	-80.90627
3190	0.19106	-80.78624	0.96444	8.54914	0.96444	8.54914	0.19106	-80.78624
3210	0.18843	-80.94382	0.96442	8.39061	0.96442	8.39061	0.18843	-80.94382
3230	0.18468	-81.30975	0.96173	8.12947	0.96173	8.12947	0.18468	-81.30975
3250	0.18236	-81.39563	0.96053	8.08376	0.96053	8.08376	0.18236	-81.39563
3270	0.17826	-82.12413	0.96258	7.90516	0.96258	7.90516	0.17826	-82.12413
3290	0.17588	-83.01692	0.96222	7.58809	0.96222	7.58809	0.17588	-83.01692
3310	0.17459	-83.72579	0.96313	7.41395	0.96313	7.41395	0.17459	-83.72579
3330	0.17372	-84.21308	0.96645	7.42411	0.96645	7.42411	0.17372	-84.21308
3350	0.17257	-84.75168	0.97078	7.41992	0.97078	7.41992	0.17257	-84.75168
3370	0.17153	-84.78962	0.96923	7.20477	0.96923	7.20477	0.17153	-84.78962
3390	0.16995	-84.68023	0.96811	7.01222	0.96811	7.01222	0.16995	-84.68023
3410	0.16752	-85.20257	0.96502	6.72165	0.96502	6.72165	0.16752	-85.20257
3430	0.1642	-86.04748	0.96292	6.47569	0.96292	6.47569	0.1642	-86.04748
3450	0.16016	-85.81754	0.97015	6.68014	0.97015	6.68014	0.16016	-85.81754
3470	0.15707	-86.53525	0.96506	6.54314	0.96506	6.54314	0.15707	-86.53525
3490	0.15516	-87.31979	0.96569	6.34105	0.96569	6.34105	0.15516	-87.31979
3510	0.15396	-88.26546	0.96608	6.24651	0.96608	6.24651	0.15396	-88.26546
3530	0.15284	-89.10042	0.96482	6.18034	0.96482	6.18034	0.15284	-89.10042
3550	0.15103	-89.18667	0.96504	5.81155	0.96504	5.81155	0.15103	-89.18667
3570	0.15066	-89.48663	0.96854	5.70063	0.96854	5.70063	0.15066	-89.48663
3590	0.14899	-89.95229	0.96862	5.57518	0.96862	5.57518	0.14899	-89.95229
3610	0.14679	-90.46639	0.96651	5.50161	0.96651	5.50161	0.14679	-90.46639
3630	0.14459	-91.01074	0.96531	5.43961	0.96531	5.43961	0.14459	-91.01074
3650	0.14274	-91.66623	0.97	5.24208	0.97	5.24208	0.14274	-91.66623
3670	0.14057	-92.43423	0.96869	5.12445	0.96869	5.12445	0.14057	-92.43423
3690	0.13899	-93.12472	0.96875	4.93001	0.96875	4.93001	0.13899	-93.12472
3710	0.13789	-93.84123	0.96888	4.80177	0.96888	4.80177	0.13789	-93.84123
3730	0.13714	-94.50402	0.96906	4.75815	0.96906	4.75815	0.13714	-94.50402
3750	0.13653	-94.85006	0.97054	4.69302	0.97054	4.69302	0.13653	-94.85006
3770	0.13536	-95.54467	0.96695	4.61171	0.96695	4.61171	0.13536	-95.54467
3790	0.13346	-95.78603	0.97268	4.34698	0.97268	4.34698	0.13346	-95.78603
3810	0.13105	-96.07758	0.97584	4.22111	0.97584	4.22111	0.13105	-96.07758
3830	0.12869	-96.62184	0.97346	4.26737	0.97346	4.26737	0.12869	-96.62184
3850	0.12736	-97.32042	0.97146	4.23001	0.97146	4.23001	0.12736	-97.32042
3870	0.12592	-98.07413	0.97031	4.17142	0.97031	4.17142	0.12592	-98.07413
3890	0.12473	-98.84353	0.97255	3.93654	0.97255	3.93654	0.12473	-98.84353
3910	0.1238	-99.64699	0.97365	3.68104	0.97365	3.68104	0.1238	-99.64699
3930	0.12283	-100.35251	0.97296	3.52387	0.97296	3.52387	0.12283	-100.35251
3950	0.12122	-100.67769	0.97367	3.54721	0.97367	3.54721	0.12122	-100.67769
3970	0.11981	-101.34251	0.97229	3.72241	0.97229	3.72241	0.11981	-101.34251
3990	0.11837	-102.10215	0.97417	3.43657	0.97417	3.43657	0.11837	-102.10215
4010	0.1166	-102.79313	0.97436	3.18654	0.97436	3.18654	0.1166	-102.79313
4030	0.11471	-103.43468	0.97268	3.07409	0.97268	3.07409	0.11471	-103.43468
4050	0.11345	-104.22875	0.97376	2.80591	0.97376	2.80591	0.11345	-104.22875
4070	0.11237	-105.47694	0.97016	2.8857	0.97016	2.8857	0.11237	-105.47694
4090	0.11139	-106.4484	0.97304	2.7738	0.97304	2.7738	0.11139	-106.4484
4110	0.11034	-107.26687	0.97428	2.70816	0.97428	2.70816	0.11034	-107.26687
4130	0.10941	-107.98174	0.97229	2.64163	0.97229	2.64163	0.10941	-107.98174
4150	0.10911	-108.56797	0.972	2.24201	0.972	2.24201	0.10911	-108.56797
4170	0.10787	-109.6523	0.98017	2.03522	0.98017	2.03522	0.10787	-109.6523
4190	0.10665	-110.2969	0.97788	2.02035	0.97788	2.02035	0.10665	-110.2969
4210	0.10576	-111.01513	0.97412	2.0683	0.97412	2.0683	0.10576	-111.01513
4230	0.10508	-111.99226	0.97238	2.01495	0.97238	2.01495	0.10508	-111.99226
4250	0.10406	-113.08551	0.97062	1.66117	0.97062	1.66117	0.10406	-113.08551
4270	0.10303	-113.92219	0.97535	1.82796	0.97535	1.82796	0.10303	-113.92219
4290	0.10255	-114.7634	0.9748	1.70913	0.9748	1.70913	0.10255	-114.7634
4310	0.10223	-115.68473	0.97429	1.56375	0.97429	1.56375	0.10223	-115.68473
4330	0.10184	-116.52747	0.97554	1.4542	0.97554	1.4542	0.10184	-116.52747
4350	0.10137	-116.89869	0.97667	1.24614	0.97667	1.24614	0.10137	-116.89869
4370	0.10072	-117.42346	0.97442	1.07376	0.97442	1.07376	0.10072	-117.42346
4390	0.10021	-117.73172	0.97447	1.02247	0.97447	1.02247	0.10021	-117.73172
4410	0.09982	-118.19132	0.97929	0.8429	0.97929	0.8429	0.09982	-118.19132
4430	0.09931	-118.89105	0.98374	0.6587	0.98374	0.6587	0.09931	-118.89105
4450	0.09825	-119.64058	0.97511	0.96655	0.97511	0.96655	0.09825	-119.64058
4470	0.09624	-120.18665	0.97641	0.67738	0.97641	0.67738	0.09624	-120.18665
4490	0.09575	-121.1702	0.97455	0.51265	0.97455	0.51265	0.09575	-121.1702
4510	0.09595	-121.72869	0.97307	0.5301	0.97307	0.5301	0.09595	-121.72869
4530	0.09591	-121.96382	0.97346	0.56523	0.97346	0.56523	0.09591	-121.96382
4550	0.09459	-122.94153	0.97511	0.23132	0.97511	0.23132	0.09459	-122.94153
4570	0.09378	-123.02933	0.97469	0.17831	0.97469	0.17831	0.09378	-123.02933
4590	0.09299	-123.46598	0.97592	0.0048	0.97592	0.0048	0.09299	-123.46598
4610	0.09217	-124.14914	0.97683	-0.00394	0.97683	-0.00394	0.09217	-124.14914
4630	0.09132	-125.06851	0.9761	0.03477	0.9761	0.03477	0.09132	-125.06851
4650	0.09051	-126.30577	0.97302	-0.39894	0.97302	-0.39894	0.09051	-126.30577
4670	0.08911	-126.97574	0.97348	-0.43898	0.97348	-0.43898	0.08911	-126.97574
4690	0.08908	-127.29584	0.97185	-0.46169	0.97185	-0.46169	0.08908	-127.29584
4710	0.08992	-127.91269	0.97232	-0.55331	0.97232	-0.55331	0.08992	-127.91269
4730	0.09043	-128.79467	0.97471	-0.68421	0.97471	-0.68421	0.09043	-128.79467
4750	0.08878	-129.2319	0.97435	-0.70887	0.97435	-0.70887	0.08878	-129.2319
4770	0.08849	-129.09144	0.97245	-0.72465	0.97245	-0.72465	0.08849	-129.09144
4790	0.08808	-129.3895	0.97491	-0.95626	0.97491	-0.95626	0.08808	-129.3895
4810	0.08746	-129.83497	0.97681	-1.06943	0.97681	-1.06943	0.08746	-129.83497
4830	0.08665	-130.32165	0.97632	-1.03813	0.97632	-1.03813	0.08665	-130.32165
4850	0.08585	-130.92823	0.97474	-1.14454	0.97474	-1.14454	0.08585	-130.92823
4870	0.08535	-130.90258	0.96934	-1.04542	0.96934	-1.04542	0.08535	-130.90258
4890	0.0851	-132.08742	0.97049	-1.25441	0.97049	-1.25441	0.0851	-132.08742
4910	0.08492	-132.74219	0.97189	-1.49778	0.97189	-1.49778	0.08492	-132.74219
4930	0.08473	-132.57455	0.97198	-1.60347	0.97198	-1.60347	0.08473	-132.57455
4950	0.08449	-132.74039	0.97394	-1.50106	0.97394	-1.50106	0.08449	-132.74039
4970	0.08422	-132.77279	0.97309	-1.63181	0.97309	-1.63181	0.08422	-132.77279
4990	0.08341	-133.10894	0.97408	-1.81749	0.97408	-1.81749	0.08341	-133.10894
5010	0.08225	-133.38337	0.97426	-1.90418	0.97426	-1.90418	0.08225	-133.38337
5030	0.08104	-133.54063	0.97257	-1.87618	0.97257	-1.87618	0.08104	-133.54063
5050	0.08016	-133.83535	0.96953	-1.8561	0.96953	-1.8561	0.08016	-133.83535
5070	0.07985	-134.68182	0.97341	-2.27107	0.97341	-2.27107	0.07985	-134.68182
5090	0.08017	-134.60576	0.97344	-2.29399	0.97344	-2.29399	0.08017	-134.60576
5110	0.08032	-134.56816	0.97416	-2.43854	0.97416	-2.43854	0.08032	-134.56816
5130	0.08004	-134.77475	0.97542	-2.7225	0.97542	-2.7225	0.08004	-134.77475
5150	0.07967	-134.67606	0.97237	-2.66772	0.97237	-2.66772	0.07967	-134.67606
5170	0.07941	-134.21686	0.97264	-2.82246	0.97264	-2.82246	0.07941	-134.21686
5190	0.07859	-134.37835	0.97042	-2.79204	0.97042	-2.79204	0.07859	-134.37835
5210	0.0772	-134.19331	0.97084	-2.8584	0.97084	-2.8584	0.0772	-134.19331
5230	0.0757	-133.57293	0.97415	-3.04921	0.97415	-3.04921	0.0757	-133.57293
5250	0.07495	-133.30677	0.97564	-3.13788	0.97564	-3.13788	0.07495	-133.30677
5270	0.07348	-134.18109	0.97227	-3.02766	0.97227	-3.02766	0.07348	-134.18109
5290	0.07263	-133.99041	0.97467	-3.17943	0.97467	-3.17943	0.07263	-133.99041
5310	0.07263	-133.78994	0.97732	-3.34966	0.97732	-3.34966	0.07263	-133.78994
5330	0.07277	-133.81202	0.97691	-3.45668	0.97691	-3.45668	0.07277	-133.81202
5350	0.07144	-133.4661	0.97239	-3.58071	0.97239	-3.58071	0.07144	-133.4661
5370	0.07049	-133.7745	0.97163	-3.55754	0.97163	-3.55754	0.07049	-133.7745
