! P/N: 500R07S1R6BV4								
! Measured by Marlon								
! Oct. 28, 2003								
#	mhz	s	ma	r	50
0	0.99999	0.00000	0.00000	90.00000	0.00000	90.00000	0.99999	0.00000			
50	0.9999	-2.92972	0.05708	87.61565	0.05708	87.61565	0.9999	-2.92972
70	0.9999	-5.11354	0.07486	85.40591	0.07486	85.40591	0.9999	-5.11354
90	0.99841	-5.68284	0.09452	84.21753	0.09452	84.21753	0.99841	-5.68284
110	0.9999	-6.71902	0.1158	83.02056	0.1158	83.02056	0.9999	-6.71902
130	0.9999	-8.42831	0.13725	81.71214	0.13725	81.71214	0.9999	-8.42831
150	0.99076	-9.14172	0.15617	81.11658	0.15617	81.11658	0.99076	-9.14172
170	0.99441	-10.46065	0.17733	79.43338	0.17733	79.43338	0.99441	-10.46065
190	0.98652	-11.75801	0.1962	77.83355	0.1962	77.83355	0.98652	-11.75801
210	0.98331	-12.74261	0.21631	76.65735	0.21631	76.65735	0.98331	-12.74261
230	0.98517	-13.78675	0.23765	75.6379	0.23765	75.6379	0.98517	-13.78675
250	0.9767	-15.92622	0.25665	73.90113	0.25665	73.90113	0.9767	-15.92622
270	0.96723	-16.48104	0.27317	73.09953	0.27317	73.09953	0.96723	-16.48104
290	0.96773	-17.22232	0.29371	72.1956	0.29371	72.1956	0.96773	-17.22232
310	0.9653	-18.3835	0.31322	70.8832	0.31322	70.8832	0.9653	-18.3835
330	0.95661	-19.65867	0.33016	69.46879	0.33016	69.46879	0.95661	-19.65867
350	0.94794	-20.20263	0.34644	68.87154	0.34644	68.87154	0.94794	-20.20263
370	0.94136	-21.41089	0.36457	67.71281	0.36457	67.71281	0.94136	-21.41089
390	0.92782	-22.43212	0.37915	66.41922	0.37915	66.41922	0.92782	-22.43212
410	0.91637	-23.37808	0.39508	65.33037	0.39508	65.33037	0.91637	-23.37808
430	0.90978	-24.4833	0.41308	64.3197	0.41308	64.3197	0.90978	-24.4833
450	0.90453	-26.10513	0.42974	62.79443	0.42974	62.79443	0.90453	-26.10513
470	0.89111	-27.1531	0.44279	61.94483	0.44279	61.94483	0.89111	-27.1531
490	0.88801	-24.9204	0.43851	62.63056	0.43851	62.63056	0.88801	-24.9204
510	0.88268	-24.52494	0.44171	62.47643	0.44171	62.47643	0.88268	-24.52494
530	0.87245	-26.83158	0.45696	61.06579	0.45696	61.06579	0.87245	-26.83158
550	0.86456	-28.45212	0.46864	59.94042	0.46864	59.94042	0.86456	-28.45212
570	0.87453	-29.8175	0.4837	58.94591	0.4837	58.94591	0.87453	-29.8175
590	0.88293	-30.38191	0.49871	57.88398	0.49871	57.88398	0.88293	-30.38191
610	0.88371	-30.69623	0.51361	56.77561	0.51361	56.77561	0.88371	-30.69623
630	0.8755	-30.8834	0.52713	55.71847	0.52713	55.71847	0.8755	-30.8834
650	0.86172	-30.63838	0.53677	54.88682	0.53677	54.88682	0.86172	-30.63838
670	0.85192	-30.92918	0.55134	54.45493	0.55134	54.45493	0.85192	-30.92918
690	0.83729	-31.78759	0.56527	53.72356	0.56527	53.72356	0.83729	-31.78759
710	0.81908	-32.84429	0.57526	53.01757	0.57526	53.01757	0.81908	-32.84429
730	0.8048	-33.94467	0.58253	52.43217	0.58253	52.43217	0.8048	-33.94467
750	0.80823	-35.14887	0.59291	51.833	0.59291	51.833	0.80823	-35.14887
770	0.80383	-36.10816	0.59932	50.96505	0.59932	50.96505	0.80383	-36.10816
790	0.80029	-36.58994	0.60738	50.0722	0.60738	50.0722	0.80029	-36.58994
810	0.79596	-36.94108	0.61736	49.08541	0.61736	49.08541	0.79596	-36.94108
830	0.78809	-37.15428	0.62726	48.10641	0.62726	48.10641	0.78809	-37.15428
850	0.77284	-36.86809	0.63283	47.40774	0.63283	47.40774	0.77284	-36.86809
870	0.76597	-37.75949	0.64785	46.59433	0.64785	46.59433	0.76597	-37.75949
890	0.75013	-38.79628	0.66176	45.7184	0.66176	45.7184	0.75013	-38.79628
910	0.73503	-39.64181	0.66798	45.17609	0.66798	45.17609	0.73503	-39.64181
930	0.72666	-40.36754	0.66948	44.98991	0.66948	44.98991	0.72666	-40.36754
950	0.72725	-41.45304	0.67873	44.80873	0.67873	44.80873	0.72725	-41.45304
970	0.72455	-42.37707	0.68478	43.92539	0.68478	43.92539	0.72455	-42.37707
990	0.71905	-42.84706	0.68952	43.16121	0.68952	43.16121	0.71905	-42.84706
1010	0.71231	-43.13573	0.6941	42.38159	0.6941	42.38159	0.71231	-43.13573
1030	0.70469	-43.3935	0.69857	41.59837	0.69857	41.59837	0.70469	-43.3935
1050	0.6953	-43.64843	0.70189	40.96986	0.70189	40.96986	0.6953	-43.64843
1070	0.68229	-44.37717	0.71432	40.04392	0.71432	40.04392	0.68229	-44.37717
1090	0.67195	-45.42305	0.72265	39.41058	0.72265	39.41058	0.67195	-45.42305
1110	0.66361	-46.25686	0.72969	38.86661	0.72969	38.86661	0.66361	-46.25686
1130	0.65809	-46.89102	0.73727	38.38345	0.73727	38.38345	0.65809	-46.89102
1150	0.65764	-47.87959	0.74621	38.10722	0.74621	38.10722	0.65764	-47.87959
1170	0.65637	-48.26413	0.74776	37.62593	0.74776	37.62593	0.65637	-48.26413
1190	0.65558	-48.6202	0.75307	37.0576	0.75307	37.0576	0.65558	-48.6202
1210	0.65124	-48.79336	0.75665	36.45042	0.75665	36.45042	0.65124	-48.79336
1230	0.64341	-48.81871	0.75932	35.98709	0.75932	35.98709	0.64341	-48.81871
1250	0.63622	-48.92085	0.76817	35.98487	0.76817	35.98487	0.63622	-48.92085
1270	0.62807	-49.57566	0.7746	35.08075	0.7746	35.08075	0.62807	-49.57566
1290	0.61763	-50.30311	0.77741	34.35858	0.77741	34.35858	0.61763	-50.30311
1310	0.61019	-50.82583	0.78266	33.84259	0.78266	33.84259	0.61019	-50.82583
1330	0.60691	-51.29378	0.78996	33.47328	0.78996	33.47328	0.60691	-51.29378
1350	0.60479	-52.28413	0.79248	33.10749	0.79248	33.10749	0.60479	-52.28413
1370	0.60111	-52.36891	0.79438	32.87164	0.79438	32.87164	0.60111	-52.36891
1390	0.59744	-52.47036	0.79833	32.40136	0.79833	32.40136	0.59744	-52.47036
1410	0.59201	-52.54841	0.80188	31.84894	0.80188	31.84894	0.59201	-52.54841
1430	0.58414	-52.58914	0.80438	31.35886	0.80438	31.35886	0.58414	-52.58914
1450	0.57414	-52.60475	0.80698	31.0678	0.80698	31.0678	0.57414	-52.60475
1470	0.5630	-53.22679	0.81155	30.62562	0.81155	30.62562	0.5630	-53.22679
1490	0.55462	-53.81546	0.81473	30.08931	0.81473	30.08931	0.55462	-53.81546
1510	0.54869	-54.46505	0.81835	29.79348	0.81835	29.79348	0.54869	-54.46505
1530	0.54469	-55.20194	0.82285	29.62319	0.82285	29.62319	0.54469	-55.20194
1550	0.5419	-55.98463	0.82727	29.01396	0.82727	29.01396	0.5419	-55.98463
1570	0.53515	-56.4885	0.82738	28.73973	0.82738	28.73973	0.53515	-56.4885
1590	0.53056	-56.67422	0.82948	28.43199	0.82948	28.43199	0.53056	-56.67422
1610	0.52636	-56.93261	0.83341	27.99978	0.83341	27.99978	0.52636	-56.93261
1630	0.52109	-57.31608	0.83756	27.46495	0.83756	27.46495	0.52109	-57.31608
1650	0.51354	-57.5386	0.83893	26.96213	0.83893	26.96213	0.51354	-57.5386
1670	0.50679	-58.02759	0.8409	26.81547	0.8409	26.81547	0.50679	-58.02759
1690	0.50218	-58.61028	0.84412	26.4531	0.84412	26.4531	0.50218	-58.61028
1710	0.49819	-59.33466	0.84836	26.01148	0.84836	26.01148	0.49819	-59.33466
1730	0.49411	-60.02283	0.85246	25.63567	0.85246	25.63567	0.49411	-60.02283
1750	0.48998	-60.27105	0.85426	25.47936	0.85426	25.47936	0.48998	-60.27105
1770	0.48863	-60.35531	0.8567	25.0810	0.8567	25.0810	0.48863	-60.35531
1790	0.48554	-60.65174	0.86049	24.71953	0.86049	24.71953	0.48554	-60.65174
1810	0.47965	-60.83818	0.86175	24.41777	0.86175	24.41777	0.47965	-60.83818
1830	0.47236	-60.9449	0.86188	24.15978	0.86188	24.15978	0.47236	-60.9449
1850	0.46752	-61.35462	0.86761	23.89087	0.86761	23.89087	0.46752	-61.35462
1870	0.4605	-62.06835	0.86867	23.35776	0.86867	23.35776	0.4605	-62.06835
1890	0.45762	-62.40664	0.87023	23.22729	0.87023	23.22729	0.45762	-62.40664
1910	0.45635	-62.96292	0.87435	22.91569	0.87435	22.91569	0.45635	-62.96292
1930	0.45491	-63.71871	0.87915	22.51396	0.87915	22.51396	0.45491	-63.71871
1950	0.45223	-64.04361	0.87884	22.78791	0.87884	22.78791	0.45223	-64.04361
1970	0.45021	-63.97679	0.87887	22.28422	0.87887	22.28422	0.45021	-63.97679
1990	0.44657	-63.8899	0.88141	21.97593	0.88141	21.97593	0.44657	-63.8899
2010	0.44157	-63.84868	0.88404	21.64161	0.88404	21.64161	0.44157	-63.84868
2030	0.4354	-63.9803	0.88606	21.26713	0.88606	21.26713	0.4354	-63.9803
2050	0.42813	-64.47335	0.88856	21.04571	0.88856	21.04571	0.42813	-64.47335
2070	0.42146	-64.69405	0.88791	20.82217	0.88791	20.82217	0.42146	-64.69405
2090	0.41723	-65.13803	0.89269	20.59409	0.89269	20.59409	0.41723	-65.13803
2110	0.41324	-65.70983	0.89444	20.3474	0.89444	20.3474	0.41324	-65.70983
2130	0.40935	-66.22871	0.89261	20.10411	0.89261	20.10411	0.40935	-66.22871
2150	0.40741	-66.42862	0.89454	19.92232	0.89454	19.92232	0.40741	-66.42862
2170	0.40451	-66.69683	0.89786	19.5712	0.89786	19.5712	0.40451	-66.69683
2190	0.40037	-66.61303	0.89942	19.40514	0.89942	19.40514	0.40037	-66.61303
2210	0.3953	-66.58695	0.90098	19.17003	0.90098	19.17003	0.3953	-66.58695
2230	0.38961	-66.82126	0.90207	18.79932	0.90207	18.79932	0.38961	-66.82126
2250	0.38365	-67.31159	0.90003	18.41406	0.90003	18.41406	0.38365	-67.31159
2270	0.37621	-67.63921	0.90173	18.29642	0.90173	18.29642	0.37621	-67.63921
2290	0.3716	-68.27446	0.90539	18.06582	0.90539	18.06582	0.3716	-68.27446
2310	0.36797	-69.00416	0.90793	17.77852	0.90793	17.77852	0.36797	-69.00416
2330	0.3648	-69.63123	0.90771	17.47364	0.90771	17.47364	0.3648	-69.63123
2350	0.36285	-69.97469	0.90459	17.17322	0.90459	17.17322	0.36285	-69.97469
2370	0.36162	-70.03971	0.90824	16.99918	0.90824	16.99918	0.36162	-70.03971
2390	0.35815	-70.19075	0.90938	16.82104	0.90938	16.82104	0.35815	-70.19075
2410	0.35327	-70.24889	0.90977	16.65782	0.90977	16.65782	0.35327	-70.24889
2430	0.34831	-70.34778	0.91094	16.49748	0.91094	16.49748	0.34831	-70.34778
2450	0.34506	-70.93367	0.91417	16.29693	0.91417	16.29693	0.34506	-70.93367
2470	0.33893	-71.51809	0.9099	15.99752	0.9099	15.99752	0.33893	-71.51809
2490	0.33556	-72.10286	0.9149	15.85978	0.9149	15.85978	0.33556	-72.10286
2510	0.33369	-72.77157	0.91933	15.69279	0.91933	15.69279	0.33369	-72.77157
2530	0.33266	-73.29559	0.92015	15.48028	0.92015	15.48028	0.33266	-73.29559
2550	0.33238	-73.13397	0.92118	15.38064	0.92118	15.38064	0.33238	-73.13397
2570	0.33094	-73.35231	0.92312	15.24702	0.92312	15.24702	0.33094	-73.35231
2590	0.32775	-73.09141	0.92097	15.01709	0.92097	15.01709	0.32775	-73.09141
2610	0.32221	-73.06144	0.92076	14.64612	0.92076	14.64612	0.32221	-73.06144
2630	0.31559	-73.32216	0.92209	14.33965	0.92209	14.33965	0.31559	-73.32216
2650	0.31096	-73.28298	0.91813	14.55357	0.91813	14.55357	0.31096	-73.28298
2670	0.30638	-74.15145	0.92632	14.09293	0.92632	14.09293	0.30638	-74.15145
2690	0.3026	-74.78521	0.92765	13.83502	0.92765	13.83502	0.3026	-74.78521
2710	0.29975	-75.30777	0.92819	13.71354	0.92819	13.71354	0.29975	-75.30777
2730	0.29765	-75.72213	0.92948	13.5934	0.92948	13.5934	0.29765	-75.72213
2750	0.29579	-75.91071	0.92848	13.27071	0.92848	13.27071	0.29579	-75.91071
2770	0.29296	-76.20506	0.93041	13.03902	0.93041	13.03902	0.29296	-76.20506
2790	0.29056	-75.84004	0.93033	12.8502	0.93033	12.8502	0.29056	-75.84004
2810	0.2868	-75.66161	0.93281	12.63787	0.93281	12.63787	0.2868	-75.66161
2830	0.2814	-75.86142	0.93577	12.48417	0.93577	12.48417	0.2814	-75.86142
2850	0.27562	-75.97683	0.93056	12.61971	0.93056	12.61971	0.27562	-75.97683
2870	0.27046	-77.16077	0.9342	12.35228	0.9342	12.35228	0.27046	-77.16077
2890	0.26793	-78.21869	0.93354	12.17055	0.93354	12.17055	0.26793	-78.21869
2910	0.26746	-78.81131	0.93123	11.93386	0.93123	11.93386	0.26746	-78.81131
2930	0.26603	-78.75354	0.93035	11.72189	0.93035	11.72189	0.26603	-78.75354
2950	0.25813	-78.01453	0.93448	11.83469	0.93448	11.83469	0.25813	-78.01453
2970	0.25986	-78.87114	0.93696	11.68407	0.93696	11.68407	0.25986	-78.87114
2990	0.25718	-79.05504	0.93599	11.19497	0.93599	11.19497	0.25718	-79.05504
3010	0.25243	-78.85167	0.93518	11.07856	0.93518	11.07856	0.25243	-78.85167
3030	0.24712	-78.85863	0.93627	11.27677	0.93627	11.27677	0.24712	-78.85863
3050	0.24187	-79.98563	0.93913	10.96232	0.93913	10.96232	0.24187	-79.98563
3070	0.2373	-81.20048	0.93659	10.65477	0.93659	10.65477	0.2373	-81.20048
3090	0.23624	-81.88719	0.9377	10.46703	0.9377	10.46703	0.23624	-81.88719
3110	0.23629	-82.34996	0.94012	10.39873	0.94012	10.39873	0.23629	-82.34996
3130	0.23556	-82.7278	0.94174	10.35653	0.94174	10.35653	0.23556	-82.7278
3150	0.2327	-82.99451	0.94064	10.15421	0.94064	10.15421	0.2327	-82.99451
3170	0.23157	-82.49042	0.94049	10.10443	0.94049	10.10443	0.23157	-82.49042
3190	0.22841	-82.52396	0.94316	10.01097	0.94316	10.01097	0.22841	-82.52396
3210	0.22477	-82.52204	0.94421	9.86103	0.94421	9.86103	0.22477	-82.52204
3230	0.22055	-82.51912	0.94291	9.6536	0.94291	9.6536	0.22055	-82.51912
3250	0.2140	-83.15723	0.94215	9.39947	0.94215	9.39947	0.2140	-83.15723
3270	0.21061	-84.00391	0.9448	9.51397	0.9448	9.51397	0.21061	-84.00391
3290	0.20811	-84.96179	0.94581	9.23336	0.94581	9.23336	0.20811	-84.96179
3310	0.20646	-85.77204	0.94569	8.9976	0.94569	8.9976	0.20646	-85.77204
3330	0.2051	-86.31366	0.94514	8.9370	0.94514	8.9370	0.2051	-86.31366
3350	0.20295	-86.60344	0.94502	8.8722	0.94502	8.8722	0.20295	-86.60344
3370	0.20058	-86.58593	0.94602	8.83588	0.94602	8.83588	0.20058	-86.58593
3390	0.19787	-86.73991	0.9461	8.7027	0.9461	8.7027	0.19787	-86.73991
3410	0.19473	-87.25443	0.94607	8.48026	0.94607	8.48026	0.19473	-87.25443
3430	0.19088	-88.0736	0.94594	8.24887	0.94594	8.24887	0.19088	-88.0736
3450	0.18579	-88.89648	0.9450	8.1615	0.9450	8.1615	0.18579	-88.89648
3470	0.18431	-89.50172	0.94964	7.97576	0.94964	7.97576	0.18431	-89.50172
3490	0.18264	-90.30997	0.95012	7.92387	0.95012	7.92387	0.18264	-90.30997
3510	0.18131	-91.29308	0.94839	7.74312	0.94839	7.74312	0.18131	-91.29308
3530	0.18019	-92.08651	0.94629	7.55871	0.94629	7.55871	0.18019	-92.08651
3550	0.17846	-91.98937	0.94558	7.88376	0.94558	7.88376	0.17846	-91.98937
3570	0.17696	-92.69205	0.95097	7.44766	0.95097	7.44766	0.17696	-92.69205
3590	0.17496	-92.85391	0.94998	7.20744	0.94998	7.20744	0.17496	-92.85391
3610	0.17226	-92.96745	0.94918	7.05938	0.94918	7.05938	0.17226	-92.96745
3630	0.16911	-93.35889	0.9516	6.95543	0.9516	6.95543	0.16911	-93.35889
3650	0.1661	-94.18818	0.9567	6.90331	0.9567	6.90331	0.1661	-94.18818
3670	0.16312	-95.48476	0.95278	6.78391	0.95278	6.78391	0.16312	-95.48476
3690	0.16144	-96.41692	0.95203	6.70577	0.95203	6.70577	0.16144	-96.41692
3710	0.16027	-97.24056	0.95369	6.60712	0.95369	6.60712	0.16027	-97.24056
3730	0.15926	-97.83328	0.95543	6.51531	0.95543	6.51531	0.15926	-97.83328
3750	0.15847	-97.69435	0.95342	6.54677	0.95342	6.54677	0.15847	-97.69435
3770	0.15657	-97.8630	0.95759	6.43597	0.95759	6.43597	0.15657	-97.8630
3790	0.1539	-98.11751	0.95596	6.22051	0.95596	6.22051	0.1539	-98.11751
3810	0.15068	-98.62757	0.95463	6.11162	0.95463	6.11162	0.15068	-98.62757
3830	0.14739	-99.41931	0.95545	6.06813	0.95545	6.06813	0.14739	-99.41931
3850	0.14475	-100.37534	0.95606	5.79649	0.95606	5.79649	0.14475	-100.37534
3870	0.1421	-101.7602	0.95915	5.93599	0.95915	5.93599	0.1421	-101.7602
3890	0.14011	-103.07973	0.9576	5.66337	0.9576	5.66337	0.14011	-103.07973
3910	0.13906	-104.31668	0.95704	5.39851	0.95704	5.39851	0.13906	-104.31668
3930	0.13844	-105.2526	0.95783	5.31695	0.95783	5.31695	0.13844	-105.2526
3950	0.13694	-105.46789	0.95509	5.3499	0.95509	5.3499	0.13694	-105.46789
3970	0.13579	-105.71732	0.96041	5.45755	0.96041	5.45755	0.13579	-105.71732
3990	0.13305	-106.36602	0.95857	5.26694	0.95857	5.26694	0.13305	-106.36602
4010	0.1303	-107.28499	0.95716	5.05366	0.95716	5.05366	0.1303	-107.28499
4030	0.12809	-108.43025	0.95766	4.89324	0.95766	4.89324	0.12809	-108.43025
4050	0.12589	-109.84279	0.95537	4.6612	0.95537	4.6612	0.12589	-109.84279
4070	0.12415	-111.12571	0.95818	4.84661	0.95818	4.84661	0.12415	-111.12571
4090	0.12295	-112.54217	0.95829	4.68058	0.95829	4.68058	0.12295	-112.54217
4110	0.12191	-113.72158	0.95794	4.51098	0.95794	4.51098	0.12191	-113.72158
4130	0.12091	-114.60701	0.95917	4.40673	0.95917	4.40673	0.12091	-114.60701
4150	0.12014	-115.45521	0.9639	4.15773	0.9639	4.15773	0.12014	-115.45521
4170	0.11873	-116.55049	0.95945	4.31469	0.95945	4.31469	0.11873	-116.55049
4190	0.11757	-117.70229	0.95884	4.23315	0.95884	4.23315	0.11757	-117.70229
4210	0.1168	-118.94426	0.9589	4.03682	0.9589	4.03682	0.1168	-118.94426
4230	0.11643	-120.16863	0.95945	3.98147	0.95945	3.98147	0.11643	-120.16863
4250	0.11632	-121.12617	0.96336	4.45494	0.96336	4.45494	0.11632	-121.12617
4270	0.11585	-122.15306	0.96011	3.73332	0.96011	3.73332	0.11585	-122.15306
4290	0.11602	-122.7717	0.96017	3.70729	0.96017	3.70729	0.11602	-122.7717
4310	0.11538	-123.21073	0.95922	3.71665	0.95922	3.71665	0.11538	-123.21073
4330	0.11382	-123.6296	0.95761	3.54976	0.95761	3.54976	0.11382	-123.6296
4350	0.1126	-124.11862	0.96029	3.44345	0.96029	3.44345	0.1126	-124.11862
4370	0.11085	-125.05137	0.95999	3.28978	0.95999	3.28978	0.11085	-125.05137
4390	0.10987	-126.08439	0.96027	3.19548	0.96027	3.19548	0.10987	-126.08439
4410	0.1091	-127.05666	0.95939	3.03318	0.95939	3.03318	0.1091	-127.05666
4430	0.10831	-127.73943	0.95883	2.92161	0.95883	2.92161	0.10831	-127.73943
4450	0.10759	-127.83614	0.96326	3.22554	0.96326	3.22554	0.10759	-127.83614
4470	0.10642	-128.4889	0.96336	2.84715	0.96336	2.84715	0.10642	-128.4889
4490	0.10438	-129.40762	0.96412	2.75047	0.96412	2.75047	0.10438	-129.40762
4510	0.10165	-130.64861	0.96345	2.64027	0.96345	2.64027	0.10165	-130.64861
4530	0.09903	-132.01796	0.96165	2.49983	0.96165	2.49983	0.09903	-132.01796
4550	0.09795	-133.07161	0.96137	2.59083	0.96137	2.59083	0.09795	-133.07161
4570	0.09726	-135.22055	0.96151	2.44776	0.96151	2.44776	0.09726	-135.22055
4590	0.09742	-136.92571	0.9607	2.29383	0.9607	2.29383	0.09742	-136.92571
4610	0.09807	-138.06907	0.96187	2.19073	0.96187	2.19073	0.09807	-138.06907
4630	0.09859	-138.74495	0.96368	2.15532	0.96368	2.15532	0.09859	-138.74495
4650	0.09812	-139.26002	0.96046	2.15964	0.96046	2.15964	0.09812	-139.26002
4670	0.09759	-139.31881	0.96342	2.28077	0.96342	2.28077	0.09759	-139.31881
4690	0.0960	-139.9483	0.96165	2.21868	0.96165	2.21868	0.0960	-139.9483
4710	0.09364	-141.14029	0.9598	1.93286	0.9598	1.93286	0.09364	-141.14029
4730	0.09138	-142.69745	0.95991	1.60244	0.95991	1.60244	0.09138	-142.69745
4750	0.09075	-144.23329	0.96139	1.62619	0.96139	1.62619	0.09075	-144.23329
4770	0.09082	-146.02487	0.96639	1.93886	0.96639	1.93886	0.09082	-146.02487
4790	0.09172	-147.56448	0.96789	1.64137	0.96789	1.64137	0.09172	-147.56448
4810	0.0926	-148.39972	0.96523	1.36081	0.96523	1.36081	0.0926	-148.39972
4830	0.09299	-148.50755	0.96103	1.35269	0.96103	1.35269	0.09299	-148.50755
4850	0.09276	-148.29433	0.96124	1.50088	0.96124	1.50088	0.09276	-148.29433
4870	0.09138	-148.0175	0.95669	1.30009	0.95669	1.30009	0.09138	-148.0175
4890	0.08965	-148.63706	0.96047	1.07257	0.96047	1.07257	0.08965	-148.63706
4910	0.08757	-149.72468	0.96251	0.95123	0.96251	0.95123	0.08757	-149.72468
4930	0.08576	-150.96044	0.96174	0.99034	0.96174	0.99034	0.08576	-150.96044
4950	0.0855	-152.13276	0.96614	1.16559	0.96614	1.16559	0.0855	-152.13276
4970	0.08488	-153.86307	0.96318	0.75346	0.96318	0.75346	0.08488	-153.86307
4990	0.08494	-155.19538	0.96374	0.5560	0.96374	0.5560	0.08494	-155.19538
5010	0.08527	-155.94391	0.96214	0.46514	0.96214	0.46514	0.08527	-155.94391
5030	0.08551	-155.95481	0.95977	0.48028	0.95977	0.48028	0.08551	-155.95481
5050	0.0854	-155.10617	0.96513	0.70839	0.96513	0.70839	0.0854	-155.10617
5070	0.0836	-155.03986	0.96587	0.44286	0.96587	0.44286	0.0836	-155.03986
5090	0.08073	-155.66986	0.96524	0.29958	0.96524	0.29958	0.08073	-155.66986
5110	0.07807	-156.76747	0.96134	0.26966	0.96134	0.26966	0.07807	-156.76747
5130	0.0762	-158.21524	0.9573	0.26318	0.9573	0.26318	0.0762	-158.21524
5150	0.07493	-160.00693	0.96124	0.10914	0.96124	0.10914	0.07493	-160.00693
5170	0.07506	-162.10622	0.96078	-0.12233	0.96078	-0.12233	0.07506	-162.10622
5190	0.0759	-163.72693	0.96248	-0.04595	0.96248	-0.04595	0.0759	-163.72693
5210	0.07639	-164.24238	0.96174	-0.09642	0.96174	-0.09642	0.07639	-164.24238
5230	0.07623	-163.67441	0.96047	-0.31308	0.96047	-0.31308	0.07623	-163.67441
5250	0.0759	-162.69339	0.96709	-0.33991	0.96709	-0.33991	0.0759	-162.69339
5270	0.07346	-162.38271	0.96073	-0.4428	0.96073	-0.4428	0.07346	-162.38271
5290	0.07094	-162.65471	0.96268	-0.38418	0.96268	-0.38418	0.07094	-162.65471
5310	0.06788	-163.95236	0.96586	-0.62855	0.96586	-0.62855	0.06788	-163.95236
5330	0.06524	-166.4679	0.96609	-0.98861	0.96609	-0.98861	0.06524	-166.4679
5350	0.06533	-170.14279	0.96206	-0.62522	0.96206	-0.62522	0.06533	-170.14279
5370	0.06518	-171.58407	0.96574	-0.6981	0.96574	-0.6981	0.06518	-171.58407
5390	0.06712	-171.60757	0.96395	-0.91573	0.96395	-0.91573	0.06712	-171.60757
