! 500R07S1R8BV4
! Data taken April 11, 2003
! Data taken on a HP 8720C VNA using a series-through test fixture and TRL* de-embedding
#	mhz	s	ma	r	50
0	0.99999	0.00000	0.00000	90.00000	0.00000	90.00000	0.99999	0.00000
50	0.99999	-2.24119	0.06076	86.69965	0.06076	86.69965	0.99999	-2.24119
70	0.99999	-4.9459	0.07794	84.98323	0.07794	84.98323	0.99999	-4.9459
90	0.99613	-5.60147	0.09973	84.31774	0.09973	84.31774	0.99613	-5.60147
110	0.99999	-6.90679	0.1223	83.10854	0.1223	83.10854	0.99999	-6.90679
130	0.99999	-9.06317	0.14383	81.25917	0.14383	81.25917	0.99999	-9.06317
150	0.99318	-9.77433	0.16443	80.17143	0.16443	80.17143	0.99318	-9.77433
170	0.9989	-10.90381	0.18733	78.81724	0.18733	78.81724	0.9989	-10.90381
190	0.99066	-12.26693	0.20776	77.46856	0.20776	77.46856	0.99066	-12.26693
210	0.98442	-13.26139	0.22834	76.33632	0.22834	76.33632	0.98442	-13.26139
230	0.98468	-14.1733	0.2498	75.2654	0.2498	75.2654	0.98468	-14.1733
250	0.98451	-16.17716	0.27098	73.73463	0.27098	73.73463	0.98451	-16.17716
270	0.95882	-16.95314	0.28843	72.61689	0.28843	72.61689	0.95882	-16.95314
290	0.95635	-17.90356	0.30937	71.82846	0.30937	71.82846	0.95635	-17.90356
310	0.95284	-19.26782	0.32887	70.52449	0.32887	70.52449	0.95284	-19.26782
330	0.94098	-20.77328	0.34582	68.90649	0.34582	68.90649	0.94098	-20.77328
350	0.93035	-21.63528	0.36296	68.2223	0.36296	68.2223	0.93035	-21.63528
370	0.92912	-23.19106	0.38178	66.51195	0.38178	66.51195	0.92912	-23.19106
390	0.9186	-24.44624	0.39884	65.4549	0.39884	65.4549	0.9186	-24.44624
410	0.9109	-25.26163	0.41586	64.67657	0.41586	64.67657	0.9109	-25.26163
430	0.90782	-26.03924	0.4328	63.74992	0.4328	63.74992	0.90782	-26.03924
450	0.90079	-27.72229	0.44796	62.19547	0.44796	62.19547	0.90079	-27.72229
470	0.88834	-28.36069	0.46313	61.24109	0.46313	61.24109	0.88834	-28.36069
490	0.88916	-27.27033	0.45836	61.12559	0.45836	61.12559	0.88916	-27.27033
510	0.88817	-26.67462	0.45954	60.42614	0.45954	60.42614	0.88817	-26.67462
530	0.88034	-27.14761	0.47315	59.06902	0.47315	59.06902	0.88034	-27.14761
550	0.87073	-27.61404	0.48633	58.32961	0.48633	58.32961	0.87073	-27.61404
570	0.86063	-28.29877	0.49982	57.52501	0.49982	57.52501	0.86063	-28.29877
590	0.85439	-28.93521	0.51403	56.51789	0.51403	56.51789	0.85439	-28.93521
610	0.84653	-29.89611	0.52872	55.58485	0.52872	55.58485	0.84653	-29.89611
630	0.8353	-31.13709	0.54267	54.73892	0.54267	54.73892	0.8353	-31.13709
650	0.82264	-32.19667	0.55366	53.72952	0.55366	53.72952	0.82264	-32.19667
670	0.81773	-32.3816	0.56334	53.32466	0.56334	53.32466	0.81773	-32.3816
690	0.81291	-33.15358	0.57401	52.53342	0.57401	52.53342	0.81291	-33.15358
710	0.80585	-33.93725	0.58403	51.59709	0.58403	51.59709	0.80585	-33.93725
730	0.79617	-34.54907	0.59393	50.69483	0.59393	50.69483	0.79617	-34.54907
750	0.78545	-35.19737	0.60647	49.94378	0.60647	49.94378	0.78545	-35.19737
770	0.77507	-35.7317	0.61584	48.97658	0.61584	48.97658	0.77507	-35.7317
790	0.76635	-36.58173	0.62446	48.2506	0.62446	48.2506	0.76635	-36.58173
810	0.75906	-37.43799	0.63438	47.49598	0.63438	47.49598	0.75906	-37.43799
830	0.7515	-38.13228	0.64506	46.70606	0.64506	46.70606	0.7515	-38.13228
850	0.74056	-38.63768	0.65335	46.1374	0.65335	46.1374	0.74056	-38.63768
870	0.73594	-39.05378	0.6634	45.59882	0.6634	45.59882	0.73594	-39.05378
890	0.72808	-39.8808	0.67282	44.82757	0.67282	44.82757	0.72808	-39.8808
910	0.7171	-40.52479	0.68001	44.0199	0.68001	44.0199	0.7171	-40.52479
930	0.70542	-40.9494	0.68626	43.33299	0.68626	43.33299	0.70542	-40.9494
950	0.69777	-41.67578	0.6958	42.88495	0.6958	42.88495	0.69777	-41.67578
970	0.69116	-42.94633	0.70612	41.99922	0.70612	41.99922	0.69116	-42.94633
990	0.68313	-43.69253	0.71291	41.36475	0.71291	41.36475	0.68313	-43.69253
1010	0.67736	-44.24262	0.71921	40.85499	0.71921	40.85499	0.67736	-44.24262
1030	0.67377	-44.71468	0.72596	40.35269	0.72596	40.35269	0.67377	-44.71468
1050	0.66854	-45.01664	0.73202	39.74991	0.73202	39.74991	0.66854	-45.01664
1070	0.66316	-45.34409	0.73826	39.35916	0.73826	39.35916	0.66316	-45.34409
1090	0.65342	-45.74011	0.74488	38.66618	0.74488	38.66618	0.65342	-45.74011
1110	0.64232	-46.05958	0.75045	37.95972	0.75045	37.95972	0.64232	-46.05958
1130	0.63119	-46.36668	0.75519	37.33844	0.75519	37.33844	0.63119	-46.36668
1150	0.61964	-46.93484	0.76098	36.71089	0.76098	36.71089	0.61964	-46.93484
1170	0.61075	-47.823	0.76901	36.17768	0.76901	36.17768	0.61075	-47.823
1190	0.60504	-48.85271	0.77615	35.67778	0.77615	35.67778	0.60504	-48.85271
1210	0.59918	-49.66889	0.78076	35.24527	0.78076	35.24527	0.59918	-49.66889
1230	0.59334	-50.18131	0.7844	34.86845	0.7844	34.86845	0.59334	-50.18131
1250	0.59117	-50.56461	0.79191	34.48987	0.79191	34.48987	0.59117	-50.56461
1270	0.58795	-51.27288	0.79644	33.92397	0.79644	33.92397	0.58795	-51.27288
1290	0.58084	-51.59521	0.79873	33.45626	0.79873	33.45626	0.58084	-51.59521
1310	0.57346	-51.6508	0.80237	33.01287	0.80237	33.01287	0.57346	-51.6508
1330	0.56742	-51.72873	0.80774	32.49017	0.80774	32.49017	0.56742	-51.72873
1350	0.56229	-52.28798	0.81205	31.75477	0.81205	31.75477	0.56229	-52.28798
1370	0.5553	-52.65995	0.81512	31.42422	0.81512	31.42422	0.5553	-52.65995
1390	0.54637	-53.26884	0.82193	31.09006	0.82193	31.09006	0.54637	-53.26884
1410	0.53873	-53.8461	0.82635	30.60559	0.82635	30.60559	0.53873	-53.8461
1430	0.53362	-54.31644	0.82815	30.07747	0.82815	30.07747	0.53362	-54.31644
1450	0.53037	-54.79785	0.83297	29.86569	0.83297	29.86569	0.53037	-54.79785
1470	0.52566	-55.31697	0.83494	29.31505	0.83494	29.31505	0.52566	-55.31697
1490	0.51965	-55.37613	0.83767	28.95217	0.83767	28.95217	0.51965	-55.37613
1510	0.51356	-55.31285	0.84067	28.71931	0.84067	28.71931	0.51356	-55.31285
1530	0.50734	-55.28445	0.84371	28.41858	0.84371	28.41858	0.50734	-55.28445
1550	0.49967	-55.268	0.84683	27.712	0.84683	27.712	0.49967	-55.268
1570	0.4902	-55.91028	0.85171	27.39588	0.85171	27.39588	0.4902	-55.91028
1590	0.48181	-56.59036	0.85442	26.89649	0.85442	26.89649	0.48181	-56.59036
1610	0.4753	-57.22718	0.85742	26.45181	0.85742	26.45181	0.4753	-57.22718
1630	0.47052	-57.85718	0.86086	26.13173	0.86086	26.13173	0.47052	-57.85718
1650	0.46633	-58.63433	0.86267	25.83806	0.86267	25.83806	0.46633	-58.63433
1670	0.46151	-58.9371	0.86508	25.27054	0.86508	25.27054	0.46151	-58.9371
1690	0.45732	-59.22661	0.87107	25.14073	0.87107	25.14073	0.45732	-59.22661
1710	0.45223	-59.4264	0.87488	24.83232	0.87488	24.83232	0.45223	-59.4264
1730	0.44638	-59.54724	0.87599	24.256	0.87599	24.256	0.44638	-59.54724
1750	0.4416	-59.68713	0.87915	23.8494	0.87915	23.8494	0.4416	-59.68713
1770	0.43435	-59.99591	0.88039	23.70249	0.88039	23.70249	0.43435	-59.99591
1790	0.42723	-60.49727	0.88294	23.28733	0.88294	23.28733	0.42723	-60.49727
1810	0.42192	-61.06672	0.88564	22.97421	0.88564	22.97421	0.42192	-61.06672
1830	0.41812	-61.67825	0.88853	22.79148	0.88853	22.79148	0.41812	-61.67825
1850	0.41356	-62.40441	0.89277	22.42552	0.89277	22.42552	0.41356	-62.40441
1870	0.41036	-62.68964	0.89332	21.921	0.89332	21.921	0.41036	-62.68964
1890	0.40622	-62.84482	0.89346	21.87075	0.89346	21.87075	0.40622	-62.84482
1910	0.40269	-62.85838	0.89593	21.77779	0.89593	21.77779	0.40269	-62.85838
1930	0.39913	-62.90437	0.89926	21.47645	0.89926	21.47645	0.39913	-62.90437
1950	0.39278	-63.34237	0.89778	21.13232	0.89778	21.13232	0.39278	-63.34237
1970	0.38731	-63.41724	0.90025	20.73273	0.90025	20.73273	0.38731	-63.41724
1990	0.38263	-64.05328	0.90226	20.42579	0.90226	20.42579	0.38263	-64.05328
2010	0.3785	-64.56837	0.90538	20.11093	0.90538	20.11093	0.3785	-64.56837
2030	0.37448	-64.83511	0.90869	19.77841	0.90869	19.77841	0.37448	-64.83511
2050	0.36989	-65.28082	0.90887	19.5094	0.90887	19.5094	0.36989	-65.28082
2070	0.36752	-65.25695	0.91105	19.27874	0.91105	19.27874	0.36752	-65.25695
2090	0.36373	-65.3806	0.91384	19.0872	0.91384	19.0872	0.36373	-65.3806
2110	0.35923	-65.56243	0.91405	18.80719	0.91405	18.80719	0.35923	-65.56243
2130	0.35447	-65.73129	0.91306	18.48186	0.91306	18.48186	0.35447	-65.73129
2150	0.34966	-65.83416	0.91686	18.32519	0.91686	18.32519	0.34966	-65.83416
2170	0.34465	-66.0442	0.91867	17.97407	0.91867	17.97407	0.34465	-66.0442
2190	0.33928	-66.2682	0.92126	17.76459	0.92126	17.76459	0.33928	-66.2682
2210	0.33431	-66.75653	0.92298	17.45228	0.92298	17.45228	0.33431	-66.75653
2230	0.33011	-67.40869	0.92357	17.07007	0.92357	17.07007	0.33011	-67.40869
2250	0.32674	-67.77326	0.9242	16.9283	0.9242	16.9283	0.32674	-67.77326
2270	0.3228	-67.79914	0.92547	16.82234	0.92547	16.82234	0.3228	-67.79914
2290	0.32041	-68.01426	0.92939	16.57634	0.92939	16.57634	0.32041	-68.01426
2310	0.31737	-68.32831	0.93201	16.2885	0.93201	16.2885	0.31737	-68.32831
2330	0.31259	-68.5557	0.93155	16.02753	0.93155	16.02753	0.31259	-68.5557
2350	0.30607	-68.41553	0.92841	15.8326	0.92841	15.8326	0.30607	-68.41553
2370	0.30284	-68.55417	0.93327	15.60824	0.93327	15.60824	0.30284	-68.55417
2390	0.29793	-69.06322	0.93453	15.21384	0.93453	15.21384	0.29793	-69.06322
2410	0.29306	-69.58446	0.93509	14.88698	0.93509	14.88698	0.29306	-69.58446
2430	0.28951	-70.04802	0.93589	14.74858	0.93589	14.74858	0.28951	-70.04802
2450	0.28805	-70.67243	0.93597	14.8029	0.93597	14.8029	0.28805	-70.67243
2470	0.28615	-70.91424	0.94133	14.46238	0.94133	14.46238	0.28615	-70.91424
2490	0.28306	-71.27053	0.94295	14.25358	0.94295	14.25358	0.28306	-71.27053
2510	0.27991	-71.46926	0.94236	14.01445	0.94236	14.01445	0.27991	-71.46926
2530	0.27695	-71.41099	0.94163	13.74195	0.94163	13.74195	0.27695	-71.41099
2550	0.27362	-71.16897	0.94329	13.59206	0.94329	13.59206	0.27362	-71.16897
2570	0.26817	-71.26284	0.94191	13.16043	0.94191	13.16043	0.26817	-71.26284
2590	0.26384	-71.53971	0.94342	13.0857	0.94342	13.0857	0.26384	-71.53971
2610	0.2598	-71.98809	0.9455	12.95955	0.9455	12.95955	0.2598	-71.98809
2630	0.25597	-72.4919	0.94647	12.74106	0.94647	12.74106	0.25597	-72.4919
2650	0.25302	-72.83046	0.94533	12.75672	0.94533	12.75672	0.25302	-72.83046
2670	0.25135	-72.96055	0.94751	12.47901	0.94751	12.47901	0.25135	-72.96055
2690	0.24763	-73.09682	0.94823	12.20801	0.94823	12.20801	0.24763	-73.09682
2710	0.24407	-73.33427	0.94823	12.07518	0.94823	12.07518	0.24407	-73.33427
2730	0.24102	-73.50563	0.94895	12.02536	0.94895	12.02536	0.24102	-73.50563
2750	0.23694	-73.1813	0.95256	11.81681	0.95256	11.81681	0.23694	-73.1813
2770	0.23443	-73.59806	0.95192	11.54274	0.95192	11.54274	0.23443	-73.59806
2790	0.23134	-73.95978	0.95231	11.28106	0.95231	11.28106	0.23134	-73.95978
2810	0.22779	-74.32174	0.95038	11.06237	0.95038	11.06237	0.22779	-74.32174
2830	0.22447	-74.56609	0.94792	10.92936	0.94792	10.92936	0.22447	-74.56609
2850	0.22259	-74.40178	0.95192	10.93673	0.95192	10.93673	0.22259	-74.40178
2870	0.21968	-74.85178	0.95377	10.65858	0.95377	10.65858	0.21968	-74.85178
2890	0.21576	-75.20694	0.95647	10.49062	0.95647	10.49062	0.21576	-75.20694
2910	0.21272	-75.64184	0.95682	10.26193	0.95682	10.26193	0.21272	-75.64184
2930	0.21098	-76.09098	0.9555	10.0088	0.9555	10.0088	0.21098	-76.09098
2950	0.20946	-76.24873	0.95703	9.97475	0.95703	9.97475	0.20946	-76.24873
2970	0.20589	-76.34885	0.95738	9.73678	0.95738	9.73678	0.20589	-76.34885
2990	0.20298	-76.49568	0.95814	9.76602	0.95814	9.76602	0.20298	-76.49568
3010	0.20027	-76.55541	0.95678	9.66991	0.95678	9.66991	0.20027	-76.55541
3030	0.19711	-76.60639	0.95513	9.37484	0.95513	9.37484	0.19711	-76.60639
3050	0.19264	-76.93905	0.95935	9.12613	0.95935	9.12613	0.19264	-76.93905
3070	0.18943	-77.16428	0.96001	8.98409	0.96001	8.98409	0.18943	-77.16428
3090	0.18702	-77.57198	0.95747	8.6143	0.95747	8.6143	0.18702	-77.57198
3110	0.18473	-78.11346	0.9582	8.47794	0.9582	8.47794	0.18473	-78.11346
3130	0.18251	-78.72586	0.96213	8.53684	0.96213	8.53684	0.18251	-78.72586
3150	0.18093	-79.33211	0.96261	8.25341	0.96261	8.25341	0.18093	-79.33211
3170	0.17815	-79.36961	0.95746	8.44607	0.95746	8.44607	0.17815	-79.36961
3190	0.17653	-79.17996	0.9626	8.22021	0.9626	8.22021	0.17653	-79.17996
3210	0.17462	-79.35977	0.96543	7.99117	0.96543	7.99117	0.17462	-79.35977
3230	0.17174	-79.87442	0.96237	7.88319	0.96237	7.88319	0.17174	-79.87442
3250	0.16797	-80.05805	0.95891	7.72936	0.95891	7.72936	0.16797	-80.05805
3270	0.16422	-80.47098	0.96241	7.64538	0.96241	7.64538	0.16422	-80.47098
3290	0.16176	-81.29647	0.96364	7.36473	0.96364	7.36473	0.16176	-81.29647
3310	0.16011	-82.08432	0.96434	7.17648	0.96434	7.17648	0.16011	-82.08432
3330	0.15916	-82.68602	0.9654	7.06144	0.9654	7.06144	0.15916	-82.68602
3350	0.15921	-83.25471	0.96685	6.69209	0.96685	6.69209	0.15921	-83.25471
3370	0.15707	-83.38513	0.96933	6.86957	0.96933	6.86957	0.15707	-83.38513
3390	0.15511	-83.10791	0.96745	6.79186	0.96745	6.79186	0.15511	-83.10791
3410	0.15337	-83.0299	0.96514	6.4595	0.96514	6.4595	0.15337	-83.0299
3430	0.15087	-83.41508	0.96497	6.15936	0.96497	6.15936	0.15087	-83.41508
3450	0.14562	-84.18457	0.96819	6.46464	0.96819	6.46464	0.14562	-84.18457
3470	0.14254	-84.9076	0.96622	6.22144	0.96622	6.22144	0.14254	-84.9076
3490	0.14063	-85.62927	0.96695	6.14626	0.96695	6.14626	0.14063	-85.62927
3510	0.13965	-86.53193	0.96633	5.99266	0.96633	5.99266	0.13965	-86.53193
3530	0.13899	-87.42795	0.96462	5.79368	0.96462	5.79368	0.13899	-87.42795
3550	0.13759	-87.75967	0.96636	5.86183	0.96636	5.86183	0.13759	-87.75967
3570	0.1367	-88.01164	0.96947	5.64013	0.96947	5.64013	0.1367	-88.01164
3590	0.13537	-88.83244	0.96657	5.35685	0.96657	5.35685	0.13537	-88.83244
3610	0.1329	-89.23351	0.96535	5.20846	0.96535	5.20846	0.1329	-89.23351
3630	0.12984	-89.28028	0.96762	5.2006	0.96762	5.2006	0.12984	-89.28028
3650	0.12805	-90.09217	0.9693	5.14805	0.9693	5.14805	0.12805	-90.09217
3670	0.12572	-90.8429	0.96859	5.03293	0.96859	5.03293	0.12572	-90.8429
3690	0.12435	-91.75976	0.96572	4.81501	0.96572	4.81501	0.12435	-91.75976
3710	0.1234	-92.56163	0.96551	4.64932	0.96551	4.64932	0.1234	-92.56163
3730	0.12255	-93.05643	0.96787	4.54868	0.96787	4.54868	0.12255	-93.05643
3750	0.12169	-93.14117	0.9678	4.38374	0.9678	4.38374	0.12169	-93.14117
3770	0.12003	-94.02253	0.96722	4.427	0.96722	4.427	0.12003	-94.02253
3790	0.11838	-94.40396	0.97233	4.17671	0.97233	4.17671	0.11838	-94.40396
3810	0.11625	-94.7627	0.97357	4.05535	0.97357	4.05535	0.11625	-94.7627
3830	0.11389	-95.30816	0.97043	4.10516	0.97043	4.10516	0.11389	-95.30816
3850	0.1123	-95.98191	0.97147	3.98816	0.97147	3.98816	0.1123	-95.98191
3870	0.11113	-96.84552	0.96691	3.89957	0.96691	3.89957	0.11113	-96.84552
3890	0.10991	-97.68855	0.97059	3.78696	0.97059	3.78696	0.10991	-97.68855
3910	0.10868	-98.47234	0.97199	3.63096	0.97199	3.63096	0.10868	-98.47234
3930	0.10751	-99.16146	0.96977	3.48129	0.96977	3.48129	0.10751	-99.16146
3950	0.10643	-99.72365	0.9718	3.45669	0.9718	3.45669	0.10643	-99.72365
3970	0.10477	-100.35091	0.97122	3.64639	0.97122	3.64639	0.10477	-100.35091
3990	0.10327	-101.12749	0.97015	3.35698	0.97015	3.35698	0.10327	-101.12749
4010	0.10151	-101.84466	0.97049	3.11921	0.97049	3.11921	0.10151	-101.84466
4030	0.09964	-102.52506	0.97248	3.02369	0.97248	3.02369	0.09964	-102.52506
4050	0.09842	-103.42274	0.97461	2.72085	0.97461	2.72085	0.09842	-103.42274
4070	0.09718	-104.88896	0.97221	2.82849	0.97221	2.82849	0.09718	-104.88896
4090	0.09616	-105.88426	0.97316	2.64815	0.97316	2.64815	0.09616	-105.88426
4110	0.09514	-106.80489	0.97328	2.61178	0.97328	2.61178	0.09514	-106.80489
4130	0.09422	-107.74076	0.97224	2.69879	0.97224	2.69879	0.09422	-107.74076
4150	0.09381	-108.47547	0.9736	2.43604	0.9736	2.43604	0.09381	-108.47547
4170	0.09284	-109.59737	0.97992	2.10085	0.97992	2.10085	0.09284	-109.59737
4190	0.09163	-110.26031	0.97725	2.00432	0.97725	2.00432	0.09163	-110.26031
4210	0.09051	-111.05287	0.97335	2.02969	0.97335	2.02969	0.09051	-111.05287
4230	0.08964	-112.14712	0.97147	1.97798	0.97147	1.97798	0.08964	-112.14712
4250	0.08901	-113.29854	0.97027	1.56802	0.97027	1.56802	0.08901	-113.29854
4270	0.08786	-114.27816	0.97361	1.78669	0.97361	1.78669	0.08786	-114.27816
4290	0.08736	-115.34749	0.97327	1.62772	0.97327	1.62772	0.08736	-115.34749
4310	0.08711	-116.43953	0.97308	1.52752	0.97308	1.52752	0.08711	-116.43953
4330	0.0868	-117.27286	0.97335	1.51472	0.97335	1.51472	0.0868	-117.27286
4350	0.08624	-117.35166	0.97098	1.21022	0.97098	1.21022	0.08624	-117.35166
4370	0.08574	-118.2032	0.97185	1.04361	0.97185	1.04361	0.08574	-118.2032
4390	0.08496	-118.75956	0.97134	1.0654	0.97134	1.0654	0.08496	-118.75956
4410	0.08443	-119.26831	0.97597	0.93055	0.97597	0.93055	0.08443	-119.26831
4430	0.08398	-119.90097	0.98254	0.7017	0.98254	0.7017	0.08398	-119.90097
4450	0.0827	-120.75299	0.9781	0.84917	0.9781	0.84917	0.0827	-120.75299
4470	0.08125	-121.58741	0.97452	0.66551	0.97452	0.66551	0.08125	-121.58741
4490	0.08088	-122.59696	0.97258	0.61594	0.97258	0.61594	0.08088	-122.59696
4510	0.08051	-123.13838	0.97107	0.58446	0.97107	0.58446	0.08051	-123.13838
4530	0.07985	-123.44078	0.97065	0.47544	0.97065	0.47544	0.07985	-123.44078
4550	0.07939	-124.60565	0.97394	0.21364	0.97394	0.21364	0.07939	-124.60565
4570	0.0785	-124.8335	0.97155	0.17527	0.97155	0.17527	0.0785	-124.8335
4590	0.07777	-125.35596	0.9726	0.16647	0.9726	0.16647	0.07777	-125.35596
4610	0.07705	-126.09858	0.97483	0.14962	0.97483	0.14962	0.07705	-126.09858
4630	0.07623	-127.13356	0.97588	0.07153	0.97588	0.07153	0.07623	-127.13356
4650	0.07525	-128.67977	0.97324	-0.13654	0.97324	-0.13654	0.07525	-128.67977
4670	0.0743	-129.16416	0.9715	-0.34134	0.9715	-0.34134	0.0743	-129.16416
4690	0.07418	-130.22332	0.97353	-0.50129	0.97353	-0.50129	0.07418	-130.22332
4710	0.07456	-130.90739	0.97395	-0.60401	0.97395	-0.60401	0.07456	-130.90739
4730	0.07491	-131.10215	0.9726	-0.66265	0.9726	-0.66265	0.07491	-131.10215
4750	0.07454	-131.52907	0.97456	-0.71589	0.97456	-0.71589	0.07454	-131.52907
4770	0.07363	-131.70028	0.97546	-0.55465	0.97546	-0.55465	0.07363	-131.70028
4790	0.0731	-131.80987	0.97224	-0.70114	0.97224	-0.70114	0.0731	-131.80987
4810	0.0725	-132.18113	0.97203	-0.8942	0.97203	-0.8942	0.0725	-132.18113
4830	0.07171	-132.95588	0.97546	-1.02068	0.97546	-1.02068	0.07171	-132.95588
4850	0.071	-134.09442	0.97669	-1.11541	0.97669	-1.11541	0.071	-134.09442
4870	0.07025	-134.54004	0.97778	-1.08984	0.97778	-1.08984	0.07025	-134.54004
4890	0.06989	-135.25393	0.9741	-1.34387	0.9741	-1.34387	0.06989	-135.25393
4910	0.06986	-135.80676	0.97084	-1.4759	0.97084	-1.4759	0.06986	-135.80676
4930	0.06998	-136.0036	0.96989	-1.47992	0.96989	-1.47992	0.06998	-136.0036
4950	0.06994	-135.88392	0.96984	-1.74548	0.96984	-1.74548	0.06994	-135.88392
4970	0.06934	-135.97383	0.97099	-1.60509	0.97099	-1.60509	0.06934	-135.97383
4990	0.06856	-136.09268	0.97219	-1.73253	0.97219	-1.73253	0.06856	-136.09268
5010	0.06747	-136.40951	0.97204	-1.78825	0.97204	-1.78825	0.06747	-136.40951
5030	0.0662	-136.90002	0.97023	-1.80781	0.97023	-1.80781	0.0662	-136.90002
5050	0.06516	-137.34654	0.96748	-2.20183	0.96748	-2.20183	0.06516	-137.34654
5070	0.06549	-138.02384	0.97153	-2.33661	0.97153	-2.33661	0.06549	-138.02384
5090	0.06554	-138.66078	0.97104	-2.24083	0.97104	-2.24083	0.06554	-138.66078
5110	0.06535	-138.76937	0.97157	-2.33517	0.97157	-2.33517	0.06535	-138.76937
5130	0.06507	-138.4498	0.97393	-2.56749	0.97393	-2.56749	0.06507	-138.4498
5150	0.06504	-138.39046	0.97425	-2.41284	0.97425	-2.41284	0.06504	-138.39046
5170	0.06458	-138.39739	0.97334	-2.56331	0.97334	-2.56331	0.06458	-138.39739
5190	0.06332	-138.332	0.97115	-2.4546	0.97115	-2.4546	0.06332	-138.332
5210	0.06179	-137.84654	0.97085	-2.5375	0.97085	-2.5375	0.06179	-137.84654
5230	0.06042	-137.11451	0.97163	-2.87245	0.97163	-2.87245	0.06042	-137.11451
5250	0.05961	-136.83072	0.96873	-3.12957	0.96873	-3.12957	0.05961	-136.83072
5270	0.05895	-137.69766	0.97031	-3.0884	0.97031	-3.0884	0.05895	-137.69766
5290	0.05823	-138.28877	0.96897	-3.19001	0.96897	-3.19001	0.05823	-138.28877
5310	0.05777	-138.37155	0.97195	-3.23074	0.97195	-3.23074	0.05777	-138.37155
5330	0.05732	-137.9006	0.97651	-3.23301	0.97651	-3.23301	0.05732	-137.9006
5350	0.05616	-137.01761	0.96992	-3.44533	0.96992	-3.44533	0.05616	-137.01761
5370	0.05496	-137.19099	0.96993	-3.45396	0.96993	-3.45396	0.05496	-137.19099
