! P/N: 500R07S2R0BV4								
! Measured by Marlon								
! Oct. 28, 2003								
#	mhz	s	ma	r	50
0	0.99999	0.00000	0.00000	90.00000	0.00000	90.00000	0.99999	0.00000			
50	0.9999	-2.88164	0.06217	83.84655	0.06217	83.84655	0.9999	-2.88164
70	0.9999	-5.74175	0.08392	84.16481	0.08392	84.16481	0.9999	-5.74175
90	0.99693	-6.55911	0.10796	83.32571	0.10796	83.32571	0.99693	-6.55911
110	0.9999	-7.72744	0.13253	81.68879	0.13253	81.68879	0.9999	-7.72744
130	0.9999	-9.53931	0.15621	79.99504	0.15621	79.99504	0.9999	-9.53931
150	0.98811	-10.18614	0.17796	79.36692	0.17796	79.36692	0.98811	-10.18614
170	0.9970	-11.81687	0.20323	77.68959	0.20323	77.68959	0.9970	-11.81687
190	0.98501	-13.28392	0.22396	75.96343	0.22396	75.96343	0.98501	-13.28392
210	0.9763	-14.4765	0.24632	74.70902	0.24632	74.70902	0.9763	-14.4765
230	0.97533	-15.60208	0.27039	73.62687	0.27039	73.62687	0.97533	-15.60208
250	0.96681	-17.18637	0.29015	71.59745	0.29015	71.59745	0.96681	-17.18637
270	0.95583	-18.31983	0.30998	70.83201	0.30998	70.83201	0.95583	-18.31983
290	0.95439	-19.48594	0.33328	69.78865	0.33328	69.78865	0.95439	-19.48594
310	0.94845	-20.8887	0.35441	68.27905	0.35441	68.27905	0.94845	-20.8887
330	0.93653	-22.25459	0.3721	66.71258	0.3721	66.71258	0.93653	-22.25459
350	0.92959	-22.83256	0.38945	66.09632	0.38945	66.09632	0.92959	-22.83256
370	0.9203	-23.9822	0.40988	64.85366	0.40988	64.85366	0.9203	-23.9822
390	0.90622	-25.27033	0.42602	63.59019	0.42602	63.59019	0.90622	-25.27033
410	0.89387	-26.45295	0.44285	62.31598	0.44285	62.31598	0.89387	-26.45295
430	0.88496	-27.60252	0.46163	61.03344	0.46163	61.03344	0.88496	-27.60252
450	0.8764	-29.10789	0.47996	59.73727	0.47996	59.73727	0.8764	-29.10789
470	0.86504	-30.30572	0.49406	58.86017	0.49406	58.86017	0.86504	-30.30572
490	0.86213	-28.14409	0.48957	59.36784	0.48957	59.36784	0.86213	-28.14409
510	0.85542	-27.72507	0.49253	59.16277	0.49253	59.16277	0.85542	-27.72507
530	0.84348	-30.00636	0.50769	57.78981	0.50769	57.78981	0.84348	-30.00636
550	0.83565	-31.80133	0.51859	56.43618	0.51859	56.43618	0.83565	-31.80133
570	0.84432	-32.95941	0.53244	55.36141	0.53244	55.36141	0.84432	-32.95941
590	0.84885	-33.78905	0.54919	54.28175	0.54919	54.28175	0.84885	-33.78905
610	0.84704	-34.25558	0.56547	53.15148	0.56547	53.15148	0.84704	-34.25558
630	0.83845	-34.33857	0.57883	52.04376	0.57883	52.04376	0.83845	-34.33857
650	0.82443	-34.03183	0.5877	51.15062	0.5877	51.15062	0.82443	-34.03183
670	0.81371	-34.42145	0.60402	50.71201	0.60402	50.71201	0.81371	-34.42145
690	0.79782	-35.38828	0.61722	49.88217	0.61722	49.88217	0.79782	-35.38828
710	0.77854	-36.51354	0.62683	49.05507	0.62683	49.05507	0.77854	-36.51354
730	0.76378	-37.62467	0.63468	48.40195	0.63468	48.40195	0.76378	-37.62467
750	0.76749	-38.79537	0.64488	47.87131	0.64488	47.87131	0.76749	-38.79537
770	0.76107	-39.83016	0.65084	46.98919	0.65084	46.98919	0.76107	-39.83016
790	0.75591	-40.34422	0.65662	46.16868	0.65662	46.16868	0.75591	-40.34422
810	0.75033	-40.67202	0.66548	45.21705	0.66548	45.21705	0.75033	-40.67202
830	0.74241	-40.8696	0.6761	44.187	0.6761	44.187	0.74241	-40.8696
850	0.73004	-40.71456	0.68252	43.37667	0.68252	43.37667	0.73004	-40.71456
870	0.71685	-41.43412	0.69634	42.86002	0.69634	42.86002	0.71685	-41.43412
890	0.70173	-42.35909	0.70696	42.05239	0.70696	42.05239	0.70173	-42.35909
910	0.68809	-43.27893	0.71373	41.42432	0.71373	41.42432	0.68809	-43.27893
930	0.67871	-44.17698	0.7185	41.11123	0.7185	41.11123	0.67871	-44.17698
950	0.67574	-45.23054	0.72552	40.91341	0.72552	40.91341	0.67574	-45.23054
970	0.67489	-46.1487	0.72941	40.09286	0.72941	40.09286	0.67489	-46.1487
990	0.67028	-46.64753	0.7364	39.28507	0.7364	39.28507	0.67028	-46.64753
1010	0.66345	-46.74009	0.74078	38.50894	0.74078	38.50894	0.66345	-46.74009
1030	0.65491	-46.70046	0.74284	37.77653	0.74284	37.77653	0.65491	-46.70046
1050	0.64415	-47.06384	0.74888	37.09311	0.74888	37.09311	0.64415	-47.06384
1070	0.6314	-47.92296	0.75891	36.38396	0.75891	36.38396	0.6314	-47.92296
1090	0.62065	-48.78073	0.76465	35.66977	0.76465	35.66977	0.62065	-48.78073
1110	0.61164	-49.67423	0.77023	35.04542	0.77023	35.04542	0.61164	-49.67423
1130	0.60567	-50.5994	0.77738	34.5285	0.77738	34.5285	0.60567	-50.5994
1150	0.60563	-51.51108	0.78543	34.0593	0.78543	34.0593	0.60563	-51.51108
1170	0.60463	-51.90175	0.78867	33.6961	0.78867	33.6961	0.60463	-51.90175
1190	0.60261	-52.12152	0.79336	33.22771	0.79336	33.22771	0.60261	-52.12152
1210	0.59778	-52.20868	0.79691	32.73187	0.79691	32.73187	0.59778	-52.20868
1230	0.59054	-52.2539	0.79944	32.30258	0.79944	32.30258	0.59054	-52.2539
1250	0.58338	-52.40025	0.80386	32.05011	0.80386	32.05011	0.58338	-52.40025
1270	0.57344	-52.80945	0.81072	31.15504	0.81072	31.15504	0.57344	-52.80945
1290	0.5640	-53.62646	0.81253	30.5615	0.81253	30.5615	0.5640	-53.62646
1310	0.5571	-54.24816	0.81636	30.27564	0.81636	30.27564	0.5571	-54.24816
1330	0.55365	-54.71245	0.82376	30.08072	0.82376	30.08072	0.55365	-54.71245
1350	0.55344	-55.69829	0.83074	29.53707	0.83074	29.53707	0.55344	-55.69829
1370	0.54831	-55.57801	0.82942	29.29859	0.82942	29.29859	0.54831	-55.57801
1390	0.54338	-55.67917	0.83281	28.89534	0.83281	28.89534	0.54338	-55.67917
1410	0.53785	-55.77332	0.83704	28.34957	0.83704	28.34957	0.53785	-55.77332
1430	0.53072	-55.77457	0.83995	27.80827	0.83995	27.80827	0.53072	-55.77457
1450	0.52076	-55.73954	0.84105	27.54319	0.84105	27.54319	0.52076	-55.73954
1470	0.51189	-56.2225	0.84482	26.91601	0.84482	26.91601	0.51189	-56.2225
1490	0.50237	-56.8757	0.84674	26.68147	0.84674	26.68147	0.50237	-56.8757
1510	0.49537	-57.56539	0.84962	26.36838	0.84962	26.36838	0.49537	-57.56539
1530	0.49096	-58.2389	0.85354	25.89208	0.85354	25.89208	0.49096	-58.2389
1550	0.48603	-58.92457	0.85588	25.55452	0.85588	25.55452	0.48603	-58.92457
1570	0.48292	-59.50751	0.85637	25.20296	0.85637	25.20296	0.48292	-59.50751
1590	0.4795	-59.70317	0.85942	24.99686	0.85942	24.99686	0.4795	-59.70317
1610	0.47498	-59.89049	0.86317	24.63736	0.86317	24.63736	0.47498	-59.89049
1630	0.46907	-60.1683	0.86639	24.11102	0.86639	24.11102	0.46907	-60.1683
1650	0.46197	-60.35535	0.86847	23.68979	0.86847	23.68979	0.46197	-60.35535
1670	0.45533	-61.0246	0.86811	23.38401	0.86811	23.38401	0.45533	-61.0246
1690	0.45093	-61.60627	0.87087	23.02847	0.87087	23.02847	0.45093	-61.60627
1710	0.44693	-62.27224	0.87494	22.62596	0.87494	22.62596	0.44693	-62.27224
1730	0.44353	-62.92939	0.87819	22.21625	0.87819	22.21625	0.44353	-62.92939
1750	0.44299	-63.2196	0.87818	21.8761	0.87818	21.8761	0.44299	-63.2196
1770	0.43876	-63.26539	0.88249	21.85927	0.88249	21.85927	0.43876	-63.26539
1790	0.43289	-63.42958	0.88439	21.43364	0.88439	21.43364	0.43289	-63.42958
1810	0.42722	-63.49725	0.8855	21.11852	0.8855	21.11852	0.42722	-63.49725
1830	0.42242	-63.57103	0.88747	20.9830	0.88747	20.9830	0.42242	-63.57103
1850	0.41799	-64.07102	0.8920	20.64598	0.8920	20.64598	0.41799	-64.07102
1870	0.41191	-64.7002	0.89032	20.30101	0.89032	20.30101	0.41191	-64.7002
1890	0.40683	-65.50203	0.89165	20.12577	0.89165	20.12577	0.40683	-65.50203
1910	0.40541	-66.01436	0.89649	19.85132	0.89649	19.85132	0.40541	-66.01436
1930	0.40627	-66.25417	0.90125	19.50146	0.90125	19.50146	0.40627	-66.25417
1950	0.40399	-66.71758	0.89832	19.39274	0.89832	19.39274	0.40399	-66.71758
1970	0.40062	-66.59719	0.90036	19.05763	0.90036	19.05763	0.40062	-66.59719
1990	0.39714	-66.44898	0.90294	18.88237	0.90294	18.88237	0.39714	-66.44898
2010	0.39259	-66.36111	0.90539	18.75411	0.90539	18.75411	0.39259	-66.36111
2030	0.38668	-66.41591	0.90609	18.49998	0.90609	18.49998	0.38668	-66.41591
2050	0.37978	-66.68987	0.90238	17.88714	0.90238	17.88714	0.37978	-66.68987
2070	0.37259	-67.11396	0.90563	17.75929	0.90563	17.75929	0.37259	-67.11396
2090	0.36984	-67.72351	0.9108	17.54622	0.9108	17.54622	0.36984	-67.72351
2110	0.36672	-68.29995	0.91279	17.27303	0.91279	17.27303	0.36672	-68.29995
2130	0.36231	-68.69343	0.91153	17.02799	0.91153	17.02799	0.36231	-68.69343
2150	0.35966	-68.82287	0.91193	16.9626	0.91193	16.9626	0.35966	-68.82287
2170	0.35861	-69.1861	0.91605	16.63241	0.91605	16.63241	0.35861	-69.1861
2190	0.35446	-69.04544	0.91625	16.47927	0.91625	16.47927	0.35446	-69.04544
2210	0.34916	-68.93874	0.91707	16.33407	0.91707	16.33407	0.34916	-68.93874
2230	0.34301	-69.10999	0.91864	16.09653	0.91864	16.09653	0.34301	-69.10999
2250	0.33468	-69.50938	0.91668	15.73526	0.91668	15.73526	0.33468	-69.50938
2270	0.32978	-69.91848	0.91857	15.62614	0.91857	15.62614	0.32978	-69.91848
2290	0.3261	-70.61708	0.92053	15.36765	0.92053	15.36765	0.3261	-70.61708
2310	0.32335	-71.34378	0.92267	15.05935	0.92267	15.05935	0.32335	-71.34378
2330	0.3209	-72.00639	0.92348	14.75124	0.92348	14.75124	0.3209	-72.00639
2350	0.31786	-72.68191	0.91982	14.44381	0.91982	14.44381	0.31786	-72.68191
2370	0.31647	-72.37613	0.92263	14.38011	0.92263	14.38011	0.31647	-72.37613
2390	0.31365	-72.40335	0.92496	14.19819	0.92496	14.19819	0.31365	-72.40335
2410	0.30962	-72.48277	0.92586	14.02816	0.92586	14.02816	0.30962	-72.48277
2430	0.30532	-72.59632	0.92647	13.87354	0.92647	13.87354	0.30532	-72.59632
2450	0.3024	-72.98867	0.93005	13.61127	0.93005	13.61127	0.3024	-72.98867
2470	0.29604	-73.72591	0.92551	13.18782	0.92551	13.18782	0.29604	-73.72591
2490	0.29227	-74.43491	0.92964	13.21005	0.92964	13.21005	0.29227	-74.43491
2510	0.29084	-75.13647	0.93326	13.17085	0.93326	13.17085	0.29084	-75.13647
2530	0.29069	-75.65298	0.93319	12.95167	0.93319	12.95167	0.29069	-75.65298
2550	0.28995	-75.60835	0.93231	12.82255	0.93231	12.82255	0.28995	-75.60835
2570	0.28829	-75.60098	0.93808	12.49841	0.93808	12.49841	0.28829	-75.60098
2590	0.2853	-75.3069	0.93682	12.34355	0.93682	12.34355	0.2853	-75.3069
2610	0.28033	-75.18546	0.93507	12.09477	0.93507	12.09477	0.28033	-75.18546
2630	0.27402	-75.27839	0.93441	11.85871	0.93441	11.85871	0.27402	-75.27839
2650	0.26832	-75.20984	0.93144	12.1118	0.93144	12.1118	0.26832	-75.20984
2670	0.26481	-76.09448	0.93487	11.66967	0.93487	11.66967	0.26481	-76.09448
2690	0.26133	-77.17598	0.93638	11.46408	0.93638	11.46408	0.26133	-77.17598
2710	0.2584	-77.90015	0.93723	11.44133	0.93723	11.44133	0.2584	-77.90015
2730	0.25646	-78.12123	0.93831	11.41682	0.93831	11.41682	0.25646	-78.12123
2750	0.25593	-78.10184	0.94018	11.07504	0.94018	11.07504	0.25593	-78.10184
2770	0.25341	-78.3239	0.94139	10.74906	0.94139	10.74906	0.25341	-78.3239
2790	0.25072	-78.01954	0.94156	10.52847	0.94156	10.52847	0.25072	-78.01954
2810	0.24671	-77.80446	0.94491	10.32426	0.94491	10.32426	0.24671	-77.80446
2830	0.24124	-77.88667	0.94827	10.19098	0.94827	10.19098	0.24124	-77.88667
2850	0.23522	-78.06645	0.94109	10.32678	0.94109	10.32678	0.23522	-78.06645
2870	0.23035	-79.38702	0.94411	10.0407	0.94411	10.0407	0.23035	-79.38702
2890	0.22806	-80.52944	0.94332	9.92241	0.94332	9.92241	0.22806	-80.52944
2910	0.22794	-81.16491	0.94156	9.67273	0.94156	9.67273	0.22794	-81.16491
2930	0.22721	-81.19622	0.94176	9.37996	0.94176	9.37996	0.22721	-81.19622
2950	0.2207	-80.7578	0.94694	9.5200	0.94694	9.5200	0.2207	-80.7578
2970	0.22102	-81.28823	0.94589	9.40771	0.94589	9.40771	0.22102	-81.28823
2990	0.21853	-81.34179	0.94369	9.22537	0.94369	9.22537	0.21853	-81.34179
3010	0.21392	-81.16506	0.94363	9.03564	0.94363	9.03564	0.21392	-81.16506
3030	0.2087	-81.19539	0.94615	8.88257	0.94615	8.88257	0.2087	-81.19539
3050	0.20521	-82.06089	0.94883	8.79156	0.94883	8.79156	0.20521	-82.06089
3070	0.20072	-83.61167	0.94768	8.3455	0.94768	8.3455	0.20072	-83.61167
3090	0.1993	-84.42572	0.94686	8.22965	0.94686	8.22965	0.1993	-84.42572
3110	0.19921	-84.90566	0.94775	8.25018	0.94775	8.25018	0.19921	-84.90566
3130	0.19902	-85.29418	0.94942	8.23633	0.94942	8.23633	0.19902	-85.29418
3150	0.19764	-85.67407	0.94866	8.04043	0.94866	8.04043	0.19764	-85.67407
3170	0.19585	-84.94476	0.95059	7.89626	0.95059	7.89626	0.19585	-84.94476
3190	0.1918	-84.62206	0.94816	7.73018	0.94816	7.73018	0.1918	-84.62206
3210	0.1877	-84.94566	0.94789	7.68931	0.94789	7.68931	0.1877	-84.94566
3230	0.18377	-85.54372	0.95055	7.65825	0.95055	7.65825	0.18377	-85.54372
3250	0.17822	-85.43292	0.9511	7.2591	0.9511	7.2591	0.17822	-85.43292
3270	0.17502	-86.73301	0.95146	7.26525	0.95146	7.26525	0.17502	-86.73301
3290	0.17219	-87.81443	0.95293	7.18527	0.95293	7.18527	0.17219	-87.81443
3310	0.17043	-88.66172	0.95338	7.02202	0.95338	7.02202	0.17043	-88.66172
3330	0.16948	-89.28432	0.95274	6.81681	0.95274	6.81681	0.16948	-89.28432
3350	0.16813	-89.7166	0.9530	6.64938	0.9530	6.64938	0.16813	-89.7166
3370	0.16592	-89.53729	0.95261	6.82369	0.95261	6.82369	0.16592	-89.53729
3390	0.16244	-89.88686	0.95254	6.6364	0.95254	6.6364	0.16244	-89.88686
3410	0.15898	-90.42353	0.95335	6.48157	0.95335	6.48157	0.15898	-90.42353
3430	0.15579	-91.09206	0.95376	6.36777	0.95376	6.36777	0.15579	-91.09206
3450	0.15214	-92.12386	0.95068	5.91813	0.95068	5.91813	0.15214	-92.12386
3470	0.15052	-93.18921	0.9569	6.07624	0.9569	6.07624	0.15052	-93.18921
3490	0.14895	-94.26569	0.95638	6.02307	0.95638	6.02307	0.14895	-94.26569
3510	0.14792	-95.23268	0.95416	5.75701	0.95416	5.75701	0.14792	-95.23268
3530	0.1473	-95.95536	0.95368	5.55279	0.95368	5.55279	0.1473	-95.95536
3550	0.14629	-96.28475	0.95671	5.96156	0.95671	5.96156	0.14629	-96.28475
3570	0.14385	-96.2892	0.95594	5.55457	0.95594	5.55457	0.14385	-96.2892
3590	0.14106	-96.51711	0.95615	5.48131	0.95615	5.48131	0.14106	-96.51711
3610	0.13856	-96.85654	0.95732	5.36474	0.95732	5.36474	0.13856	-96.85654
3630	0.13632	-97.42569	0.95914	5.12887	0.95914	5.12887	0.13632	-97.42569
3650	0.13373	-98.57295	0.96105	4.99874	0.96105	4.99874	0.13373	-98.57295
3670	0.13112	-100.02392	0.95769	5.01341	0.95769	5.01341	0.13112	-100.02392
3690	0.12982	-101.13502	0.95779	4.97919	0.95779	4.97919	0.12982	-101.13502
3710	0.12907	-102.11665	0.95898	4.70535	0.95898	4.70535	0.12907	-102.11665
3730	0.12832	-102.8731	0.95946	4.40816	0.95946	4.40816	0.12832	-102.8731
3750	0.12719	-103.0026	0.95795	4.71089	0.95795	4.71089	0.12719	-103.0026
3770	0.12576	-102.94208	0.96294	4.45358	0.96294	4.45358	0.12576	-102.94208
3790	0.12317	-103.14397	0.96068	4.45588	0.96068	4.45588	0.12317	-103.14397
3810	0.12007	-103.74376	0.95886	4.38822	0.95886	4.38822	0.12007	-103.74376
3830	0.11698	-104.76699	0.95959	4.18812	0.95959	4.18812	0.11698	-104.76699
3850	0.1143	-106.12926	0.95944	4.06017	0.95944	4.06017	0.1143	-106.12926
3870	0.1123	-107.83631	0.96251	3.96568	0.96251	3.96568	0.1123	-107.83631
3890	0.11096	-109.44812	0.95956	4.02773	0.95956	4.02773	0.11096	-109.44812
3910	0.11017	-110.94182	0.95894	3.84079	0.95894	3.84079	0.11017	-110.94182
3930	0.10941	-112.09081	0.96141	3.55252	0.96141	3.55252	0.10941	-112.09081
3950	0.1078	-112.46483	0.96013	3.86374	0.96013	3.86374	0.1078	-112.46483
3970	0.10718	-112.71076	0.96407	3.57197	0.96407	3.57197	0.10718	-112.71076
3990	0.10502	-113.56781	0.9625	3.4427	0.9625	3.4427	0.10502	-113.56781
4010	0.10279	-114.84672	0.96107	3.32406	0.96107	3.32406	0.10279	-114.84672
4030	0.10089	-116.38538	0.96127	3.15493	0.96127	3.15493	0.10089	-116.38538
4050	0.0987	-118.04878	0.96051	2.96495	0.96051	2.96495	0.0987	-118.04878
4070	0.09763	-119.70994	0.96267	3.23465	0.96267	3.23465	0.09763	-119.70994
4090	0.09699	-121.43466	0.96276	3.09619	0.96276	3.09619	0.09699	-121.43466
4110	0.09631	-122.97008	0.96187	2.92141	0.96187	2.92141	0.09631	-122.97008
4130	0.09554	-124.15057	0.96158	2.84154	0.96158	2.84154	0.09554	-124.15057
4150	0.09498	-124.89776	0.9640	2.74719	0.9640	2.74719	0.09498	-124.89776
4170	0.09409	-126.31007	0.9635	2.67012	0.9635	2.67012	0.09409	-126.31007
4190	0.09306	-127.85096	0.96227	2.50535	0.96227	2.50535	0.09306	-127.85096
4210	0.09254	-129.40614	0.96172	2.3526	0.96172	2.3526	0.09254	-129.40614
4230	0.09277	-130.80568	0.96262	2.30738	0.96262	2.30738	0.09277	-130.80568
4250	0.09358	-131.82402	0.96512	2.46107	0.96512	2.46107	0.09358	-131.82402
4270	0.09327	-132.85215	0.96534	2.20239	0.96534	2.20239	0.09327	-132.85215
4290	0.09332	-133.61819	0.96397	2.09073	0.96397	2.09073	0.09332	-133.61819
4310	0.09262	-134.23524	0.96213	1.98849	0.96213	1.98849	0.09262	-134.23524
4330	0.09124	-134.72008	0.96083	1.89404	0.96083	1.89404	0.09124	-134.72008
4350	0.09043	-134.99316	0.9610	1.94176	0.9610	1.94176	0.09043	-134.99316
4370	0.08961	-136.57267	0.96411	1.78175	0.96411	1.78175	0.08961	-136.57267
4390	0.08878	-137.97131	0.96263	1.67705	0.96263	1.67705	0.08878	-137.97131
4410	0.08802	-139.02915	0.96291	1.39252	0.96291	1.39252	0.08802	-139.02915
4430	0.08737	-139.65683	0.96617	1.12697	0.96617	1.12697	0.08737	-139.65683
4450	0.08678	-139.83552	0.96842	1.51323	0.96842	1.51323	0.08678	-139.83552
4470	0.08603	-140.975	0.96501	1.16013	0.96501	1.16013	0.08603	-140.975
4490	0.08448	-142.46142	0.9663	1.13888	0.9663	1.13888	0.08448	-142.46142
4510	0.0823	-143.81128	0.9659	1.09357	0.9659	1.09357	0.0823	-143.81128
4530	0.08036	-145.32649	0.96374	0.98877	0.96374	0.98877	0.08036	-145.32649
4550	0.08019	-148.09429	0.96612	1.1095	0.96612	1.1095	0.08019	-148.09429
4570	0.07999	-149.80858	0.96391	0.89566	0.96391	0.89566	0.07999	-149.80858
4590	0.08041	-151.4445	0.96391	0.9168	0.96391	0.9168	0.08041	-151.4445
4610	0.08114	-152.56869	0.96507	0.78187	0.96507	0.78187	0.08114	-152.56869
4630	0.08183	-153.17273	0.96544	0.53729	0.96544	0.53729	0.08183	-153.17273
4650	0.08207	-153.67316	0.96219	0.66694	0.96219	0.66694	0.08207	-153.67316
4670	0.0808	-153.91691	0.96417	0.68587	0.96417	0.68587	0.0808	-153.91691
4690	0.07923	-154.64123	0.96317	0.68296	0.96317	0.68296	0.07923	-154.64123
4710	0.07757	-155.89441	0.96224	0.46777	0.96224	0.46777	0.07757	-155.89441
4730	0.07635	-157.76538	0.96256	0.17001	0.96256	0.17001	0.07635	-157.76538
4750	0.07636	-160.38372	0.96342	0.23957	0.96342	0.23957	0.07636	-160.38372
4770	0.0772	-162.24891	0.96867	0.2527	0.96867	0.2527	0.0772	-162.24891
4790	0.07842	-163.64888	0.97043	0.02242	0.97043	0.02242	0.07842	-163.64888
4810	0.07939	-164.34155	0.96726	-0.1425	0.96726	-0.1425	0.07939	-164.34155
4830	0.07988	-164.35732	0.96284	-0.13337	0.96284	-0.13337	0.07988	-164.35732
4850	0.0801	-163.99913	0.96603	-0.04163	0.96603	-0.04163	0.0801	-163.99913
4870	0.07805	-163.95151	0.95955	-0.19816	0.95955	-0.19816	0.07805	-163.95151
4890	0.07682	-164.84458	0.96313	-0.30765	0.96313	-0.30765	0.07682	-164.84458
4910	0.07533	-166.2292	0.96534	-0.4327	0.96534	-0.4327	0.07533	-166.2292
4930	0.07393	-167.82345	0.96371	-0.39425	0.96371	-0.39425	0.07393	-167.82345
4950	0.07442	-169.51259	0.96473	0.22837	0.96473	0.22837	0.07442	-169.51259
4970	0.0740	-171.20568	0.96371	-0.55397	0.96371	-0.55397	0.0740	-171.20568
4990	0.07487	-172.4218	0.96529	-0.82738	0.96529	-0.82738	0.07487	-172.4218
5010	0.07549	-172.84473	0.9649	-0.90254	0.9649	-0.90254	0.07549	-172.84473
5030	0.07526	-172.57041	0.96332	-0.87948	0.96332	-0.87948	0.07526	-172.57041
5050	0.07459	-172.10695	0.96674	-0.64753	0.96674	-0.64753	0.07459	-172.10695
5070	0.07259	-172.38205	0.96663	-1.06154	0.96663	-1.06154	0.07259	-172.38205
5090	0.0707	-173.88801	0.96346	-1.25289	0.96346	-1.25289	0.0707	-173.88801
5110	0.06845	-175.48124	0.96312	-1.3214	0.96312	-1.3214	0.06845	-175.48124
5130	0.06646	-177.13594	0.96554	-1.39243	0.96554	-1.39243	0.06646	-177.13594
5150	0.06635	-179.944	0.96471	-1.61696	0.96471	-1.61696	0.06635	-179.944
5170	0.06751	106.34477	0.96301	-1.53695	0.96301	-1.53695	0.06751	106.34477
5190	0.06844	177.42157	0.96486	-1.44061	0.96486	-1.44061	0.06844	177.42157
5210	0.06893	177.14505	0.96403	-1.40187	0.96403	-1.40187	0.06893	177.14505
5230	0.06876	177.48835	0.96089	-1.46786	0.96089	-1.46786	0.06876	177.48835
5250	0.06763	178.53915	0.96244	-1.65894	0.96244	-1.65894	0.06763	178.53915
5270	0.06476	177.97639	0.96193	-1.72092	0.96193	-1.72092	0.06476	177.97639
5290	0.0630	177.17385	0.96313	-1.6404	0.96313	-1.6404	0.0630	177.17385
5310	0.06121	175.02742	0.96509	-1.86783	0.96509	-1.86783	0.06121	175.02742
5330	0.05978	171.55471	0.96591	-2.24618	0.96591	-2.24618	0.05978	171.55471
5350	0.06066	167.89505	0.96275	-2.01092	0.96275	-2.01092	0.06066	167.89505
5370	0.0615	166.52902	0.96639	-2.13069	0.96639	-2.13069	0.0615	166.52902
5390	0.06341	167.04786	0.9634	-2.06562	0.9634	-2.06562	0.06341	167.04786
