! 500R07S2R7BV4
! Data taken April 11, 2003
! Data taken on a HP 8720C VNA using a series-through test fixture and TRL* de-embedding
#	mhz	s	ma	r	50
0	0.99999	0.00000	0.00000	90.00000	0.00000	90.00000	0.99999	0.00000
50	0.99999	-4.51513	0.08888	84.69559	0.08888	84.69559	0.99999	-4.51513
70	0.99718	-7.42397	0.12059	82.68593	0.12059	82.68593	0.99718	-7.42397
90	0.98802	-8.82371	0.15671	81.06998	0.15671	81.06998	0.98802	-8.82371
110	0.99051	-10.98806	0.19266	78.82986	0.19266	78.82986	0.99051	-10.98806
130	0.98702	-13.87772	0.22576	76.22353	0.22576	76.22353	0.98702	-13.87772
150	0.96792	-15.14041	0.25524	74.78484	0.25524	74.78484	0.96792	-15.14041
170	0.97311	-17.33342	0.29044	72.60148	0.29044	72.60148	0.97311	-17.33342
190	0.95817	-19.1642	0.32028	70.72958	0.32028	70.72958	0.95817	-19.1642
210	0.94513	-20.75333	0.3503	69.03668	0.3503	69.03668	0.94513	-20.75333
230	0.93983	-22.3827	0.38116	67.30704	0.38116	67.30704	0.93983	-22.3827
250	0.93197	-24.49551	0.40866	65.24159	0.40866	65.24159	0.93197	-24.49551
270	0.90298	-25.98842	0.43128	63.80344	0.43128	63.80344	0.90298	-25.98842
290	0.89294	-27.34202	0.45875	62.26064	0.45875	62.26064	0.89294	-27.34202
310	0.88153	-29.04455	0.48371	60.48316	0.48371	60.48316	0.88153	-29.04455
330	0.86304	-30.95813	0.50475	58.71643	0.50475	58.71643	0.86304	-30.95813
350	0.84635	-32.31876	0.52644	57.58128	0.52644	57.58128	0.84635	-32.31876
370	0.83722	-34.26247	0.54966	55.81333	0.54966	55.81333	0.83722	-34.26247
390	0.81851	-35.69573	0.56788	54.09179	0.56788	54.09179	0.81851	-35.69573
410	0.80534	-36.83439	0.58657	52.75322	0.58657	52.75322	0.80534	-36.83439
430	0.79845	-38.01757	0.60639	51.62204	0.60639	51.62204	0.79845	-38.01757
450	0.78421	-39.70765	0.62313	50.01048	0.62313	50.01048	0.78421	-39.70765
470	0.76668	-40.49979	0.63774	48.86461	0.63774	48.86461	0.76668	-40.49979
490	0.76864	-39.35248	0.63204	48.83009	0.63204	48.83009	0.76864	-39.35248
510	0.76606	-38.71431	0.63196	48.19269	0.63196	48.19269	0.76606	-38.71431
530	0.75249	-39.2675	0.64498	46.76376	0.64498	46.76376	0.75249	-39.2675
550	0.73909	-39.92795	0.66019	45.88025	0.66019	45.88025	0.73909	-39.92795
570	0.72386	-40.85666	0.67433	44.85503	0.67433	44.85503	0.72386	-40.85666
590	0.71228	-41.68587	0.68607	43.71723	0.68607	43.71723	0.71228	-41.68587
610	0.70101	-42.67843	0.69862	42.68758	0.69862	42.68758	0.70101	-42.67843
630	0.68871	-43.8346	0.71154	41.80593	0.71154	41.80593	0.68871	-43.8346
650	0.67606	-44.8921	0.72079	40.93125	0.72079	40.93125	0.67606	-44.8921
670	0.66468	-45.20558	0.72945	40.26621	0.72945	40.26621	0.66468	-45.20558
690	0.65684	-45.89011	0.74141	39.32524	0.74141	39.32524	0.65684	-45.89011
710	0.64711	-46.64478	0.75113	38.4359	0.75113	38.4359	0.64711	-46.64478
730	0.63435	-47.32153	0.7581	37.65611	0.7581	37.65611	0.63435	-47.32153
750	0.6216	-47.92518	0.76679	36.77412	0.76679	36.77412	0.6216	-47.92518
770	0.6083	-48.49067	0.77347	35.81769	0.77347	35.81769	0.6083	-48.49067
790	0.5978	-49.38045	0.77979	35.13904	0.77979	35.13904	0.5978	-49.38045
810	0.58845	-50.28857	0.78813	34.37096	0.78813	34.37096	0.58845	-50.28857
830	0.57883	-50.99833	0.79728	33.52863	0.79728	33.52863	0.57883	-50.99833
850	0.56781	-51.38227	0.80252	33.00962	0.80252	33.00962	0.56781	-51.38227
870	0.56107	-51.79246	0.80881	32.5246	0.80881	32.5246	0.56107	-51.79246
890	0.55059	-52.59831	0.81726	31.5015	0.81726	31.5015	0.55059	-52.59831
910	0.5388	-53.14436	0.82266	30.72853	0.82266	30.72853	0.5388	-53.14436
930	0.52788	-53.42265	0.82568	30.35144	0.82568	30.35144	0.52788	-53.42265
950	0.51974	-54.0728	0.8329	29.87351	0.8329	29.87351	0.51974	-54.0728
970	0.5116	-55.40454	0.83948	29.08658	0.83948	29.08658	0.5116	-55.40454
990	0.50407	-56.11526	0.84518	28.58969	0.84518	28.58969	0.50407	-56.11526
1010	0.49762	-56.58778	0.85	28.11586	0.85	28.11586	0.49762	-56.58778
1030	0.49236	-57.01535	0.85311	27.60634	0.85311	27.60634	0.49236	-57.01535
1050	0.48803	-57.40158	0.8528	27.21059	0.8528	27.21059	0.48803	-57.40158
1070	0.4823	-57.54129	0.86269	26.74767	0.86269	26.74767	0.4823	-57.54129
1090	0.47249	-57.48392	0.86571	26.12265	0.86571	26.12265	0.47249	-57.48392
1110	0.46226	-57.54902	0.86846	25.54563	0.86846	25.54563	0.46226	-57.54902
1130	0.45258	-57.88383	0.8732	25.06285	0.8732	25.06285	0.45258	-57.88383
1150	0.44174	-58.46329	0.8778	24.55672	0.8778	24.55672	0.44174	-58.46329
1170	0.43328	-59.23156	0.87984	24.07779	0.87984	24.07779	0.43328	-59.23156
1190	0.4262	-60.08284	0.88432	23.62228	0.88432	23.62228	0.4262	-60.08284
1210	0.42113	-60.868	0.88792	23.19045	0.88792	23.19045	0.42113	-60.868
1230	0.41766	-61.4618	0.89055	22.83889	0.89055	22.83889	0.41766	-61.4618
1250	0.4144	-61.76283	0.89528	22.68056	0.89528	22.68056	0.4144	-61.76283
1270	0.41039	-62.39988	0.89725	22.06578	0.89725	22.06578	0.41039	-62.39988
1290	0.40444	-62.53255	0.89822	21.66095	0.89822	21.66095	0.40444	-62.53255
1310	0.39785	-62.4844	0.89896	21.38626	0.89896	21.38626	0.39785	-62.4844
1330	0.39179	-62.49468	0.90067	21.097	0.90067	21.097	0.39179	-62.49468
1350	0.38736	-62.71828	0.905	20.58363	0.905	20.58363	0.38736	-62.71828
1370	0.37854	-62.96664	0.906	20.15833	0.906	20.15833	0.37854	-62.96664
1390	0.37262	-63.58429	0.90986	19.6884	0.90986	19.6884	0.37262	-63.58429
1410	0.36734	-64.14386	0.91175	19.32419	0.91175	19.32419	0.36734	-64.14386
1430	0.36206	-64.5011	0.91203	19.07477	0.91203	19.07477	0.36206	-64.5011
1450	0.3577	-64.79484	0.9163	18.80788	0.9163	18.80788	0.3577	-64.79484
1470	0.35331	-65.21777	0.91713	18.41695	0.91713	18.41695	0.35331	-65.21777
1490	0.34948	-65.05619	0.91958	18.26835	0.91958	18.26835	0.34948	-65.05619
1510	0.34455	-64.89765	0.92174	17.99441	0.92174	17.99441	0.34455	-64.89765
1530	0.33842	-64.93438	0.92306	17.54106	0.92306	17.54106	0.33842	-64.93438
1550	0.33261	-64.96326	0.9243	17.16782	0.9243	17.16782	0.33261	-64.96326
1570	0.32525	-65.50514	0.92387	16.8942	0.92387	16.8942	0.32525	-65.50514
1590	0.31824	-65.85439	0.92435	16.53536	0.92435	16.53536	0.31824	-65.85439
1610	0.31281	-66.40347	0.92725	16.1638	0.92725	16.1638	0.31281	-66.40347
1630	0.309	-67.18652	0.93063	15.83205	0.93063	15.83205	0.309	-67.18652
1650	0.30557	-67.87929	0.92919	15.57266	0.92919	15.57266	0.30557	-67.87929
1670	0.30194	-67.9039	0.93338	15.28685	0.93338	15.28685	0.30194	-67.9039
1690	0.2987	-67.69341	0.93314	15.14823	0.93314	15.14823	0.2987	-67.69341
1710	0.29473	-67.64084	0.93426	14.85648	0.93426	14.85648	0.29473	-67.64084
1730	0.28973	-67.76931	0.93805	14.50725	0.93805	14.50725	0.28973	-67.76931
1750	0.28424	-67.73195	0.94144	14.59212	0.94144	14.59212	0.28424	-67.73195
1770	0.27941	-68.15195	0.94258	14.16685	0.94258	14.16685	0.27941	-68.15195
1790	0.2745	-68.6631	0.94275	13.8284	0.94275	13.8284	0.2745	-68.6631
1810	0.27027	-69.17262	0.94378	13.55385	0.94378	13.55385	0.27027	-69.17262
1830	0.26687	-69.69904	0.94506	13.2982	0.94506	13.2982	0.26687	-69.69904
1850	0.26379	-70.37226	0.94353	12.99434	0.94353	12.99434	0.26379	-70.37226
1870	0.26154	-70.51328	0.946	12.71744	0.946	12.71744	0.26154	-70.51328
1890	0.25846	-70.41647	0.94664	12.6047	0.94664	12.6047	0.25846	-70.41647
1910	0.25533	-70.32131	0.94822	12.51559	0.94822	12.51559	0.25533	-70.32131
1930	0.25198	-70.38165	0.95003	12.35458	0.95003	12.35458	0.25198	-70.38165
1950	0.24733	-70.66575	0.94796	12.07105	0.94796	12.07105	0.24733	-70.66575
1970	0.24226	-70.7409	0.94885	11.6801	0.94885	11.6801	0.24226	-70.7409
1990	0.23915	-71.06826	0.95148	11.47633	0.95148	11.47633	0.23915	-71.06826
2010	0.23582	-71.49284	0.95282	11.36246	0.95282	11.36246	0.23582	-71.49284
2030	0.23213	-71.92209	0.95287	11.19152	0.95287	11.19152	0.23213	-71.92209
2050	0.23001	-72.32592	0.95467	10.76682	0.95467	10.76682	0.23001	-72.32592
2070	0.22841	-71.99804	0.9555	10.65017	0.9555	10.65017	0.22841	-71.99804
2090	0.22463	-72.0072	0.95542	10.58848	0.95542	10.58848	0.22463	-72.0072
2110	0.22102	-71.93194	0.95641	10.47495	0.95641	10.47495	0.22102	-71.93194
2130	0.21786	-71.76091	0.95838	10.26313	0.95838	10.26313	0.21786	-71.76091
2150	0.21337	-71.89287	0.95918	9.96701	0.95918	9.96701	0.21337	-71.89287
2170	0.20885	-72.02031	0.95927	9.82983	0.95927	9.82983	0.20885	-72.02031
2190	0.20547	-72.20272	0.96165	9.53723	0.96165	9.53723	0.20547	-72.20272
2210	0.20214	-72.66352	0.96306	9.28262	0.96306	9.28262	0.20214	-72.66352
2230	0.19859	-73.1997	0.96257	9.10629	0.96257	9.10629	0.19859	-73.1997
2250	0.19539	-73.18183	0.96152	8.89548	0.96152	8.89548	0.19539	-73.18183
2270	0.19394	-73.47457	0.96259	8.75902	0.96259	8.75902	0.19394	-73.47457
2290	0.19161	-73.56563	0.96462	8.55728	0.96462	8.55728	0.19161	-73.56563
2310	0.18855	-73.67626	0.96539	8.39052	0.96539	8.39052	0.18855	-73.67626
2330	0.18487	-73.6976	0.96433	8.27148	0.96433	8.27148	0.18487	-73.6976
2350	0.18064	-73.19066	0.96254	8.12548	0.96254	8.12548	0.18064	-73.19066
2370	0.17708	-73.50858	0.96493	7.98822	0.96493	7.98822	0.17708	-73.50858
2390	0.1731	-73.99057	0.96478	7.69219	0.96478	7.69219	0.1731	-73.99057
2410	0.1695	-74.54586	0.96462	7.41133	0.96462	7.41133	0.1695	-74.54586
2430	0.16686	-75.13485	0.96505	7.32388	0.96505	7.32388	0.16686	-75.13485
2450	0.1656	-75.76913	0.9648	7.61237	0.9648	7.61237	0.1656	-75.76913
2470	0.16503	-75.85848	0.96918	7.24931	0.96918	7.24931	0.16503	-75.85848
2490	0.16303	-75.94316	0.96758	6.94656	0.96758	6.94656	0.16303	-75.94316
2510	0.16034	-75.80928	0.96726	6.75561	0.96726	6.75561	0.16034	-75.80928
2530	0.15757	-75.53157	0.96921	6.64082	0.96921	6.64082	0.15757	-75.53157
2550	0.15525	-75.47342	0.96816	6.4794	0.96816	6.4794	0.15525	-75.47342
2570	0.15167	-75.40384	0.96849	6.47138	0.96849	6.47138	0.15167	-75.40384
2590	0.14798	-75.6832	0.96841	6.13916	0.96841	6.13916	0.14798	-75.6832
2610	0.14472	-76.20672	0.96875	5.92783	0.96875	5.92783	0.14472	-76.20672
2630	0.14223	-76.74525	0.96926	5.9349	0.96926	5.9349	0.14223	-76.74525
2650	0.14064	-76.94528	0.96853	5.91035	0.96853	5.91035	0.14064	-76.94528
2670	0.13904	-77.16465	0.97072	5.7001	0.97072	5.7001	0.13904	-77.16465
2690	0.13694	-76.93729	0.97068	5.51194	0.97068	5.51194	0.13694	-76.93729
2710	0.13443	-76.93739	0.96846	5.28781	0.96846	5.28781	0.13443	-76.93739
2730	0.13148	-77.10378	0.9672	5.07587	0.9672	5.07587	0.13148	-77.10378
2750	0.12794	-76.63995	0.97311	5.03045	0.97311	5.03045	0.12794	-76.63995
2770	0.12571	-76.95366	0.97179	4.86388	0.97179	4.86388	0.12571	-76.95366
2790	0.12305	-77.4264	0.97133	4.68195	0.97133	4.68195	0.12305	-77.4264
2810	0.12042	-77.86068	0.97022	4.70924	0.97022	4.70924	0.12042	-77.86068
2830	0.11813	-78.10805	0.96919	4.77444	0.96919	4.77444	0.11813	-78.10805
2850	0.11638	-78.06907	0.97125	4.31034	0.97125	4.31034	0.11638	-78.06907
2870	0.11445	-78.45394	0.97298	4.12114	0.97298	4.12114	0.11445	-78.45394
2890	0.11196	-78.97173	0.97144	3.99754	0.97144	3.99754	0.11196	-78.97173
2910	0.10979	-79.37692	0.97065	3.86375	0.97065	3.86375	0.10979	-79.37692
2930	0.10817	-79.56979	0.97202	3.72919	0.97202	3.72919	0.10817	-79.56979
2950	0.10666	-79.59636	0.97437	3.6885	0.97437	3.6885	0.10666	-79.59636
2970	0.10444	-79.37868	0.97541	3.65582	0.97541	3.65582	0.10444	-79.37868
2990	0.10227	-79.61854	0.97407	3.66445	0.97407	3.66445	0.10227	-79.61854
3010	0.09994	-79.928	0.97282	3.54378	0.97282	3.54378	0.09994	-79.928
3030	0.09753	-80.10864	0.97279	3.30845	0.97279	3.30845	0.09753	-80.10864
3050	0.09548	-80.15155	0.97377	3.15832	0.97377	3.15832	0.09548	-80.15155
3070	0.09198	-80.32478	0.97445	3.0526	0.97445	3.0526	0.09198	-80.32478
3090	0.08978	-81.12813	0.97246	2.8923	0.97246	2.8923	0.08978	-81.12813
3110	0.08781	-82.28399	0.97322	2.68773	0.97322	2.68773	0.08781	-82.28399
3130	0.08603	-83.29437	0.97635	2.50159	0.97635	2.50159	0.08603	-83.29437
3150	0.08536	-83.44095	0.97562	2.44892	0.97562	2.44892	0.08536	-83.44095
3170	0.0842	-83.4462	0.96633	2.51319	0.96633	2.51319	0.0842	-83.4462
3190	0.08223	-82.94135	0.97361	2.41234	0.97361	2.41234	0.08223	-82.94135
3210	0.07959	-82.76298	0.97785	2.26055	0.97785	2.26055	0.07959	-82.76298
3230	0.07688	-83.33117	0.97334	2.14396	0.97334	2.14396	0.07688	-83.33117
3250	0.07519	-84.64951	0.96819	2.1207	0.96819	2.1207	0.07519	-84.64951
3270	0.07266	-85.1702	0.97297	2.09593	0.97297	2.09593	0.07266	-85.1702
3290	0.07104	-86.80804	0.9743	1.77811	0.9743	1.77811	0.07104	-86.80804
3310	0.07002	-88.41607	0.97481	1.59193	0.97481	1.59193	0.07002	-88.41607
3330	0.06951	-89.44318	0.97565	1.55085	0.97565	1.55085	0.06951	-89.44318
3350	0.06963	-89.93408	0.97652	1.25708	0.97652	1.25708	0.06963	-89.93408
3370	0.06836	-89.48828	0.97693	1.35823	0.97693	1.35823	0.06836	-89.48828
3390	0.06675	-88.96246	0.97699	1.34061	0.97699	1.34061	0.06675	-88.96246
3410	0.06425	-88.9373	0.97662	1.20855	0.97662	1.20855	0.06425	-88.9373
3430	0.06119	-89.73616	0.97628	1.03886	0.97628	1.03886	0.06119	-89.73616
3450	0.05875	-91.42503	0.97704	0.98076	0.97704	0.98076	0.05875	-91.42503
3470	0.05675	-93.3525	0.97455	0.90713	0.97455	0.90713	0.05675	-93.3525
3490	0.05542	-95.37086	0.97453	0.87849	0.97453	0.87849	0.05542	-95.37086
3510	0.05487	-97.2712	0.97504	0.74175	0.97504	0.74175	0.05487	-97.2712
3530	0.05473	-98.70256	0.97559	0.54236	0.97559	0.54236	0.05473	-98.70256
3550	0.05413	-99.17193	0.97715	0.5243	0.97715	0.5243	0.05413	-99.17193
3570	0.05377	-98.99056	0.97753	0.44683	0.97753	0.44683	0.05377	-98.99056
3590	0.05256	-100.24567	0.97527	0.22809	0.97527	0.22809	0.05256	-100.24567
3610	0.05042	-101.45192	0.97536	0.14437	0.97536	0.14437	0.05042	-101.45192
3630	0.04815	-102.57193	0.97761	0.20854	0.97761	0.20854	0.04815	-102.57193
3650	0.04739	-105.01624	0.97663	0.17009	0.97663	0.17009	0.04739	-105.01624
3670	0.04621	-106.87636	0.9766	-0.00179	0.9766	-0.00179	0.04621	-106.87636
3690	0.04573	-108.67284	0.97724	-0.36022	0.97724	-0.36022	0.04573	-108.67284
3710	0.04543	-110.23078	0.97651	-0.52528	0.97651	-0.52528	0.04543	-110.23078
3730	0.04506	-111.2187	0.97458	-0.46505	0.97458	-0.46505	0.04506	-111.2187
3750	0.04464	-111.14859	0.97385	-0.49556	0.97385	-0.49556	0.04464	-111.14859
3770	0.0435	-113.08955	0.97278	-0.22569	0.97278	-0.22569	0.0435	-113.08955
3790	0.04234	-114.39252	0.97661	-0.60858	0.97661	-0.60858	0.04234	-114.39252
3810	0.04096	-115.63926	0.9782	-0.90486	0.9782	-0.90486	0.04096	-115.63926
3830	0.03955	-117.2964	0.97683	-0.87645	0.97683	-0.87645	0.03955	-117.2964
3850	0.03866	-119.71543	0.97815	-0.78656	0.97815	-0.78656	0.03866	-119.71543
3870	0.03862	-122.41591	0.97129	-0.65939	0.97129	-0.65939	0.03862	-122.41591
3890	0.03827	-124.73249	0.97532	-0.92074	0.97532	-0.92074	0.03827	-124.73249
3910	0.03795	-126.62517	0.97757	-1.10148	0.97757	-1.10148	0.03795	-126.62517
3930	0.03764	-128.15173	0.97505	-1.10222	0.97505	-1.10222	0.03764	-128.15173
3950	0.03697	-129.46763	0.97455	-1.19323	0.97455	-1.19323	0.03697	-129.46763
3970	0.03609	-131.31573	0.97603	-1.09255	0.97603	-1.09255	0.03609	-131.31573
3990	0.03537	-133.66875	0.9757	-1.34253	0.9757	-1.34253	0.03537	-133.66875
4010	0.03472	-136.37969	0.97584	-1.49995	0.97584	-1.49995	0.03472	-136.37969
4030	0.03426	-139.21588	0.97718	-1.53069	0.97718	-1.53069	0.03426	-139.21588
4050	0.03427	-141.85907	0.97885	-1.80983	0.97885	-1.80983	0.03427	-141.85907
4070	0.03468	-145.04465	0.97387	-1.71694	0.97387	-1.71694	0.03468	-145.04465
4090	0.0351	-147.33238	0.97489	-1.88759	0.97489	-1.88759	0.0351	-147.33238
4110	0.0353	-149.30819	0.97671	-1.92526	0.97671	-1.92526	0.0353	-149.30819
4130	0.03541	-151.19138	0.97743	-1.85392	0.97743	-1.85392	0.03541	-151.19138
4150	0.0359	-152.83462	0.97851	-2.11799	0.97851	-2.11799	0.0359	-152.83462
4170	0.03578	-155.09395	0.98402	-2.35191	0.98402	-2.35191	0.03578	-155.09395
4190	0.03554	-156.75201	0.98116	-2.40689	0.98116	-2.40689	0.03554	-156.75201
4210	0.03575	-158.47127	0.97746	-2.44256	0.97746	-2.44256	0.03575	-158.47127
4230	0.0364	-160.57427	0.97601	-2.54551	0.97601	-2.54551	0.0364	-160.57427
4250	0.03689	-163.04365	0.97547	-2.72921	0.97547	-2.72921	0.03689	-163.04365
4270	0.03753	-165.42306	0.97803	-2.49887	0.97803	-2.49887	0.03753	-165.42306
4290	0.03809	-165.86601	0.97675	-2.60974	0.97675	-2.60974	0.03809	-165.86601
4310	0.03882	-166.62728	0.97667	-2.7194	0.97667	-2.7194	0.03882	-166.62728
4330	0.03954	-168.1569	0.97863	-2.81196	0.97863	-2.81196	0.03954	-168.1569
4350	0.03961	-169.1002	0.97919	-3.19806	0.97919	-3.19806	0.03961	-169.1002
4370	0.03926	-169.4115	0.97666	-3.16042	0.97666	-3.16042	0.03926	-169.4115
4390	0.03909	-170.24181	0.97518	-3.04811	0.97518	-3.04811	0.03909	-170.24181
4410	0.03921	-171.39126	0.97993	-3.12867	0.97993	-3.12867	0.03921	-171.39126
4430	0.03952	-172.61043	0.98665	-3.34883	0.98665	-3.34883	0.03952	-172.61043
4450	0.0396	-173.60038	0.98167	-3.33445	0.98167	-3.33445	0.0396	-173.60038
4470	0.03928	-175.92343	0.97769	-3.50303	0.97769	-3.50303	0.03928	-175.92343
4490	0.03935	-177.2683	0.97449	-3.54457	0.97449	-3.54457	0.03935	-177.2683
4510	0.03975	-177.56271	0.97235	-3.41968	0.97235	-3.41968	0.03975	-177.56271
4530	0.04022	-177.61244	0.97229	-3.32454	0.97229	-3.32454	0.04022	-177.61244
4550	0.04026	-179.10139	0.97612	-3.69087	0.97612	-3.69087	0.04026	-179.10139
4570	0.03965	106.86458	0.9761	-3.72108	0.9761	-3.72108	0.03965	106.86458
4590	0.03966	177.64548	0.9779	-3.81091	0.9779	-3.81091	0.03966	177.64548
4610	0.04009	176.45192	0.97783	-3.93113	0.97783	-3.93113	0.04009	176.45192
4630	0.04078	174.9614	0.97558	-4.04283	0.97558	-4.04283	0.04078	174.9614
4650	0.04164	173.31838	0.97423	-4.09738	0.97423	-4.09738	0.04164	173.31838
4670	0.04142	171.77844	0.97427	-4.32181	0.97427	-4.32181	0.04142	171.77844
4690	0.04089	171.17641	0.97143	-4.48525	0.97143	-4.48525	0.04089	171.17641
4710	0.04158	171.20311	0.97173	-4.59468	0.97173	-4.59468	0.04158	171.20311
4730	0.04304	171.20777	0.97524	-4.63906	0.97524	-4.63906	0.04304	171.20777
4750	0.0429	170.19803	0.97603	-4.58928	0.97603	-4.58928	0.0429	170.19803
4770	0.04222	170.2377	0.97127	-4.58148	0.97127	-4.58148	0.04222	170.2377
4790	0.04197	169.93083	0.97261	-4.61944	0.97261	-4.61944	0.04197	169.93083
4810	0.0419	169.00044	0.97514	-4.68518	0.97514	-4.68518	0.0419	169.00044
4830	0.04192	167.67765	0.97652	-4.76839	0.97652	-4.76839	0.04192	167.67765
4850	0.04202	166.70171	0.97703	-4.86649	0.97703	-4.86649	0.04202	166.70171
4870	0.04204	166.19657	0.97495	-4.72568	0.97495	-4.72568	0.04204	166.19657
4890	0.04254	165.52453	0.97354	-4.9415	0.97354	-4.9415	0.04254	165.52453
4910	0.04292	165.08972	0.97297	-5.23003	0.97297	-5.23003	0.04292	165.08972
4930	0.0429	164.97489	0.97334	-5.41454	0.97334	-5.41454	0.0429	164.97489
4950	0.04257	164.94143	0.97473	-5.42554	0.97473	-5.42554	0.04257	164.94143
4970	0.0423	164.80688	0.97482	-5.24494	0.97482	-5.24494	0.0423	164.80688
4990	0.04184	163.89126	0.97456	-5.4857	0.97456	-5.4857	0.04184	163.89126
5010	0.04142	162.71371	0.97468	-5.53836	0.97468	-5.53836	0.04142	162.71371
5030	0.0411	161.55708	0.97521	-5.38687	0.97521	-5.38687	0.0411	161.55708
5050	0.04073	160.46799	0.9755	-5.60857	0.9755	-5.60857	0.04073	160.46799
5070	0.04113	160.3801	0.97584	-5.8659	0.97584	-5.8659	0.04113	160.3801
5090	0.04146	160.23243	0.97358	-5.90445	0.97358	-5.90445	0.04146	160.23243
5110	0.04138	159.93492	0.97239	-5.97246	0.97239	-5.97246	0.04138	159.93492
5130	0.04085	159.81345	0.97343	-6.06656	0.97343	-6.06656	0.04085	159.81345
5150	0.04005	160.60976	0.97538	-5.93178	0.97538	-5.93178	0.04005	160.60976
5170	0.03952	160.58212	0.97336	-6.19865	0.97336	-6.19865	0.03952	160.58212
5190	0.03877	159.97067	0.96987	-6.28584	0.96987	-6.28584	0.03877	159.97067
5210	0.03764	158.26247	0.96879	-6.33854	0.96879	-6.33854	0.03764	158.26247
5230	0.03639	156.11037	0.97022	-6.41589	0.97022	-6.41589	0.03639	156.11037
5250	0.03577	155.33304	0.97049	-6.49101	0.97049	-6.49101	0.03577	155.33304
5270	0.03569	153.90443	0.97194	-6.60581	0.97194	-6.60581	0.03569	153.90443
5290	0.03548	152.40573	0.97284	-6.55923	0.97284	-6.55923	0.03548	152.40573
5310	0.03514	151.89676	0.97604	-6.59419	0.97604	-6.59419	0.03514	151.89676
5330	0.03456	151.96698	0.97888	-6.76479	0.97888	-6.76479	0.03456	151.96698
5350	0.0335	150.73546	0.97316	-6.93625	0.97316	-6.93625	0.0335	150.73546
5370	0.03229	150.12596	0.97218	-6.91428	0.97218	-6.91428	0.03229	150.12596
5390	0.03159	148.67691	0.9703	-7.05571	0.9703	-7.05571	0.03159	148.67691
