! P/N: 500R07S3R3CV4S								
! Measured by Marlon					
! Oct. 28, 2003								
#	mhz	s	ma	r	50
0	0.99999	0.00000	0.00000	90.00000	0.00000	90.00000	0.99999	0.00000			
50	0.99999	-6.03587	0.10849	83.86582	0.10849	83.86582	0.99999	-6.03587
70	0.99335	-9.39618	0.14595	80.97012	0.14595	80.97012	0.99335	-9.39618
90	0.98511	-11.03937	0.18605	78.75461	0.18605	78.75461	0.98511	-11.03937
110	0.98417	-13.15546	0.2266	76.29613	0.2266	76.29613	0.98417	-13.15546
130	0.97661	-15.908	0.26562	73.72203	0.26562	73.72203	0.97661	-15.908
150	0.96124	-17.434	0.30125	72.21022	0.30125	72.21022	0.96124	-17.434
170	0.95233	-20.27093	0.33779	69.71972	0.33779	69.71972	0.95233	-20.27093
190	0.93235	-22.30389	0.37004	67.2572	0.37004	67.2572	0.93235	-22.30389
210	0.91832	-23.97547	0.40348	65.10132	0.40348	65.10132	0.91832	-23.97547
230	0.90964	-25.87943	0.43785	63.06847	0.43785	63.06847	0.90964	-25.87943
250	0.88809	-28.76068	0.46716	60.51278	0.46716	60.51278	0.88809	-28.76068
270	0.86976	-29.9034	0.4924	59.27816	0.4924	59.27816	0.86976	-29.9034
290	0.86161	-31.45009	0.52123	57.55662	0.52123	57.55662	0.86161	-31.45009
310	0.8481	-33.18974	0.54716	55.5180	0.54716	55.5180	0.8481	-33.18974
330	0.82732	-34.81289	0.56938	53.56107	0.56938	53.56107	0.82732	-34.81289
350	0.81094	-35.91165	0.59279	52.31361	0.59279	52.31361	0.81094	-35.91165
370	0.7910	-37.53929	0.61354	50.68108	0.61354	50.68108	0.7910	-37.53929
390	0.76996	-38.99459	0.6298	49.09651	0.6298	49.09651	0.76996	-38.99459
410	0.75179	-40.38412	0.64843	47.67058	0.64843	47.67058	0.75179	-40.38412
430	0.73641	-41.8941	0.66924	46.33184	0.66924	46.33184	0.73641	-41.8941
450	0.71965	-43.79041	0.68497	44.82672	0.68497	44.82672	0.71965	-43.79041
470	0.70402	-45.04206	0.69801	43.63368	0.69801	43.63368	0.70402	-45.04206
490	0.70345	-42.89494	0.69548	44.16899	0.69548	44.16899	0.70345	-42.89494
510	0.69691	-42.50992	0.69913	43.88218	0.69913	43.88218	0.69691	-42.50992
530	0.68066	-44.83144	0.71187	42.35143	0.71187	42.35143	0.68066	-44.83144
550	0.6683	-46.58754	0.71777	41.28355	0.71777	41.28355	0.6683	-46.58754
570	0.66782	-47.91133	0.73197	39.80653	0.73197	39.80653	0.66782	-47.91133
590	0.66563	-48.60259	0.74861	38.66878	0.74861	38.66878	0.66563	-48.60259
610	0.65776	-49.03824	0.76236	37.50519	0.76236	37.50519	0.65776	-49.03824
630	0.64438	-49.26433	0.7721	36.35569	0.7721	36.35569	0.64438	-49.26433
650	0.62983	-48.9961	0.78093	35.66522	0.78093	35.66522	0.62983	-48.9961
670	0.61661	-49.3355	0.7910	34.85371	0.7910	34.85371	0.61661	-49.3355
690	0.59839	-50.31442	0.80174	34.03328	0.80174	34.03328	0.59839	-50.31442
710	0.57927	-51.465	0.8098	33.37767	0.8098	33.37767	0.57927	-51.465
730	0.56515	-52.58178	0.81497	32.81485	0.81497	32.81485	0.56515	-52.58178
750	0.56369	-53.72165	0.82014	32.02708	0.82014	32.02708	0.56369	-53.72165
770	0.55582	-54.50356	0.82302	31.34009	0.82302	31.34009	0.55582	-54.50356
790	0.54926	-54.84963	0.82905	30.66093	0.82905	30.66093	0.54926	-54.84963
810	0.54031	-55.01417	0.83484	29.78415	0.83484	29.78415	0.54031	-55.01417
830	0.52889	-55.00234	0.83892	28.81037	0.83892	28.81037	0.52889	-55.00234
850	0.51854	-54.57012	0.84179	28.14629	0.84179	28.14629	0.51854	-54.57012
870	0.50538	-55.53427	0.85158	27.61822	0.85158	27.61822	0.50538	-55.53427
890	0.49132	-56.36444	0.85855	26.96945	0.85855	26.96945	0.49132	-56.36444
910	0.47994	-57.17139	0.86273	26.45264	0.86273	26.45264	0.47994	-57.17139
930	0.47266	-58.01249	0.86618	26.08311	0.86618	26.08311	0.47266	-58.01249
950	0.46873	-58.89166	0.8730	25.63884	0.8730	25.63884	0.46873	-58.89166
970	0.46453	-59.79076	0.87102	25.26729	0.87102	25.26729	0.46453	-59.79076
990	0.45821	-59.98987	0.87317	24.60772	0.87317	24.60772	0.45821	-59.98987
1010	0.4518	-59.85149	0.87624	23.95815	0.87624	23.95815	0.4518	-59.85149
1030	0.44503	-59.73942	0.87836	23.40561	0.87836	23.40561	0.44503	-59.73942
1050	0.4354	-60.01876	0.87902	22.82613	0.87902	22.82613	0.4354	-60.01876
1070	0.42249	-60.94657	0.88509	22.05089	0.88509	22.05089	0.42249	-60.94657
1090	0.41412	-61.66007	0.88829	21.64362	0.88829	21.64362	0.41412	-61.66007
1110	0.40724	-62.39615	0.89114	21.3031	0.89114	21.3031	0.40724	-62.39615
1130	0.40188	-63.26606	0.89552	20.9004	0.89552	20.9004	0.40188	-63.26606
1150	0.40125	-64.25544	0.90263	20.47896	0.90263	20.47896	0.40125	-64.25544
1170	0.39967	-64.60814	0.90424	20.25613	0.90424	20.25613	0.39967	-64.60814
1190	0.39859	-64.51754	0.90492	19.78482	0.90492	19.78482	0.39859	-64.51754
1210	0.39443	-64.26275	0.90575	19.34794	0.90575	19.34794	0.39443	-64.26275
1230	0.38734	-64.08954	0.90716	19.05191	0.90716	19.05191	0.38734	-64.08954
1250	0.38123	-64.21031	0.90898	18.8267	0.90898	18.8267	0.38123	-64.21031
1270	0.37305	-64.57902	0.9133	18.15434	0.9133	18.15434	0.37305	-64.57902
1290	0.36571	-65.07744	0.9135	17.76267	0.9135	17.76267	0.36571	-65.07744
1310	0.36076	-65.50417	0.91611	17.45505	0.91611	17.45505	0.36076	-65.50417
1330	0.35803	-65.89078	0.92066	17.16299	0.92066	17.16299	0.35803	-65.89078
1350	0.3556	-66.50183	0.91969	16.94618	0.91969	16.94618	0.3556	-66.50183
1370	0.35163	-66.36328	0.92159	16.7899	0.92159	16.7899	0.35163	-66.36328
1390	0.34785	-66.2257	0.92065	16.37286	0.92065	16.37286	0.34785	-66.2257
1410	0.34382	-66.02459	0.9222	16.11087	0.9222	16.11087	0.34382	-66.02459
1430	0.3382	-65.84475	0.92612	15.97661	0.92612	15.97661	0.3382	-65.84475
1450	0.32873	-65.92032	0.92683	15.49967	0.92683	15.49967	0.32873	-65.92032
1470	0.32077	-66.26536	0.92665	15.06782	0.92665	15.06782	0.32077	-66.26536
1490	0.31456	-66.84111	0.9303	14.84107	0.9303	14.84107	0.31456	-66.84111
1510	0.30957	-67.67233	0.93368	14.59572	0.93368	14.59572	0.30957	-67.67233
1530	0.30551	-68.60235	0.93414	14.29864	0.93414	14.29864	0.30551	-68.60235
1550	0.30234	-69.29301	0.93053	14.10734	0.93053	14.10734	0.30234	-69.29301
1570	0.29937	-69.41048	0.93115	13.76049	0.93115	13.76049	0.29937	-69.41048
1590	0.2969	-69.48528	0.93687	13.66239	0.93687	13.66239	0.2969	-69.48528
1610	0.2933	-69.55589	0.93878	13.44349	0.93878	13.44349	0.2933	-69.55589
1630	0.28826	-69.69404	0.93625	13.05061	0.93625	13.05061	0.28826	-69.69404
1650	0.28283	-70.00475	0.93691	12.74702	0.93691	12.74702	0.28283	-70.00475
1670	0.27842	-70.44822	0.93659	12.5219	0.93659	12.5219	0.27842	-70.44822
1690	0.2755	-71.20379	0.94043	12.23083	0.94043	12.23083	0.2755	-71.20379
1710	0.27352	-71.89363	0.94318	11.93314	0.94318	11.93314	0.27352	-71.89363
1730	0.27177	-72.34179	0.94311	11.6793	0.94311	11.6793	0.27177	-72.34179
1750	0.26933	-72.57413	0.94204	11.51087	0.94204	11.51087	0.26933	-72.57413
1770	0.26723	-72.29182	0.9425	11.49913	0.9425	11.49913	0.26723	-72.29182
1790	0.26437	-72.3451	0.94429	11.21991	0.94429	11.21991	0.26437	-72.3451
1810	0.26006	-72.36587	0.94525	10.99823	0.94525	10.99823	0.26006	-72.36587
1830	0.25482	-72.37395	0.94597	10.8749	0.94597	10.8749	0.25482	-72.37395
1850	0.25035	-72.77711	0.9497	10.60654	0.9497	10.60654	0.25035	-72.77711
1870	0.24728	-73.27783	0.94833	10.35489	0.94833	10.35489	0.24728	-73.27783
1890	0.24456	-74.28567	0.94876	10.17357	0.94876	10.17357	0.24456	-74.28567
1910	0.24252	-75.07423	0.95004	10.00272	0.95004	10.00272	0.24252	-75.07423
1930	0.24133	-75.30571	0.95093	9.81086	0.95093	9.81086	0.24133	-75.30571
1950	0.24097	-75.03096	0.94987	9.59487	0.94987	9.59487	0.24097	-75.03096
1970	0.24085	-74.62468	0.95046	9.50238	0.95046	9.50238	0.24085	-74.62468
1990	0.23786	-74.28141	0.95127	9.32955	0.95127	9.32955	0.23786	-74.28141
2010	0.23306	-73.92092	0.9516	9.10428	0.9516	9.10428	0.23306	-73.92092
2030	0.22763	-73.67492	0.95189	8.88956	0.95189	8.88956	0.22763	-73.67492
2050	0.22289	-73.88704	0.95369	8.78352	0.95369	8.78352	0.22289	-73.88704
2070	0.21813	-74.31515	0.95375	8.49516	0.95375	8.49516	0.21813	-74.31515
2090	0.21366	-75.0743	0.95623	8.46104	0.95623	8.46104	0.21366	-75.0743
2110	0.21049	-75.8078	0.95659	8.3424	0.95659	8.3424	0.21049	-75.8078
2130	0.20878	-76.28849	0.95527	8.07546	0.95527	8.07546	0.20878	-76.28849
2150	0.20784	-76.41878	0.95775	7.8714	0.95775	7.8714	0.20784	-76.41878
2170	0.20657	-76.56921	0.95749	7.58164	0.95749	7.58164	0.20657	-76.56921
2190	0.2029	-76.13063	0.95725	7.6610	0.95725	7.6610	0.2029	-76.13063
2210	0.19828	-75.75275	0.95813	7.5321	0.95813	7.5321	0.19828	-75.75275
2230	0.1935	-75.74749	0.95895	7.15224	0.95895	7.15224	0.1935	-75.74749
2250	0.18866	-76.08907	0.95625	7.01343	0.95625	7.01343	0.18866	-76.08907
2270	0.18391	-77.23898	0.9550	6.85444	0.9550	6.85444	0.18391	-77.23898
2290	0.17969	-78.04801	0.95844	6.71759	0.95844	6.71759	0.17969	-78.04801
2310	0.17711	-78.8360	0.96103	6.53213	0.96103	6.53213	0.17711	-78.8360
2330	0.17603	-79.64094	0.96035	6.31893	0.96035	6.31893	0.17603	-79.64094
2350	0.17501	-80.21904	0.95712	6.1905	0.95712	6.1905	0.17501	-80.21904
2370	0.17452	-80.11165	0.95642	6.0156	0.95642	6.0156	0.17452	-80.11165
2390	0.1721	-79.82034	0.95801	5.93003	0.95801	5.93003	0.1721	-79.82034
2410	0.16904	-79.4860	0.95893	5.83772	0.95893	5.83772	0.16904	-79.4860
2430	0.16592	-79.46762	0.95869	5.68232	0.95869	5.68232	0.16592	-79.46762
2450	0.16263	-80.34236	0.95929	5.44724	0.95929	5.44724	0.16263	-80.34236
2470	0.15829	-81.21834	0.95792	5.41983	0.95792	5.41983	0.15829	-81.21834
2490	0.15559	-82.00368	0.95873	5.32303	0.95873	5.32303	0.15559	-82.00368
2510	0.15465	-82.88768	0.96079	5.16984	0.96079	5.16984	0.15465	-82.88768
2530	0.15497	-83.63293	0.96236	5.00067	0.96236	5.00067	0.15497	-83.63293
2550	0.15539	-83.57531	0.96076	4.88334	0.96076	4.88334	0.15539	-83.57531
2570	0.15405	-83.16404	0.96524	4.89265	0.96524	4.89265	0.15405	-83.16404
2590	0.15114	-82.3782	0.96339	4.68894	0.96339	4.68894	0.15114	-82.3782
2610	0.14695	-81.89027	0.96082	4.51927	0.96082	4.51927	0.14695	-81.89027
2630	0.14214	-81.94229	0.96075	4.47435	0.96075	4.47435	0.14214	-81.94229
2650	0.13782	-82.34583	0.96396	4.48858	0.96396	4.48858	0.13782	-82.34583
2670	0.13383	-83.38277	0.96172	4.19255	0.96172	4.19255	0.13383	-83.38277
2690	0.13151	-84.57027	0.96393	4.00436	0.96393	4.00436	0.13151	-84.57027
2710	0.13024	-85.67881	0.96501	3.90372	0.96501	3.90372	0.13024	-85.67881
2730	0.12948	-86.44345	0.96368	3.85095	0.96368	3.85095	0.12948	-86.44345
2750	0.12882	-86.5638	0.96292	3.78702	0.96292	3.78702	0.12882	-86.5638
2770	0.12667	-86.04387	0.96372	3.53374	0.96372	3.53374	0.12667	-86.04387
2790	0.12427	-85.06912	0.96344	3.38489	0.96344	3.38489	0.12427	-85.06912
2810	0.12093	-84.68856	0.96562	3.2123	0.96562	3.2123	0.12093	-84.68856
2830	0.11669	-85.18562	0.96941	3.12051	0.96941	3.12051	0.11669	-85.18562
2850	0.11233	-86.07811	0.96953	3.44674	0.96953	3.44674	0.11233	-86.07811
2870	0.10715	-87.89725	0.96787	3.14852	0.96787	3.14852	0.10715	-87.89725
2890	0.1055	-89.4031	0.96565	2.89021	0.96565	2.89021	0.1055	-89.4031
2910	0.10552	-90.73776	0.96485	2.66066	0.96485	2.66066	0.10552	-90.73776
2930	0.10494	-91.44863	0.96553	2.48685	0.96553	2.48685	0.10494	-91.44863
2950	0.10114	-90.48838	0.96584	2.43388	0.96584	2.43388	0.10114	-90.48838
2970	0.1015	-90.28528	0.96444	2.46644	0.96444	2.46644	0.1015	-90.28528
2990	0.09919	-90.03065	0.96202	2.31488	0.96202	2.31488	0.09919	-90.03065
3010	0.09546	-89.94727	0.96183	2.24564	0.96183	2.24564	0.09546	-89.94727
3030	0.09163	-90.55847	0.96426	2.25505	0.96426	2.25505	0.09163	-90.55847
3050	0.08906	-92.68814	0.96688	2.06929	0.96688	2.06929	0.08906	-92.68814
3070	0.0849	-94.9065	0.96527	1.85806	0.96527	1.85806	0.0849	-94.9065
3090	0.08441	-96.92665	0.96577	1.66672	0.96577	1.66672	0.08441	-96.92665
3110	0.08504	-98.16545	0.96594	1.61566	0.96594	1.61566	0.08504	-98.16545
3130	0.08511	-98.59677	0.9653	1.6696	0.9653	1.6696	0.08511	-98.59677
3150	0.08382	-98.75152	0.96536	1.63761	0.96536	1.63761	0.08382	-98.75152
3170	0.08278	-97.04687	0.96528	1.51018	0.96528	1.51018	0.08278	-97.04687
3190	0.07935	-96.43346	0.96179	1.31523	0.96179	1.31523	0.07935	-96.43346
3210	0.07587	-97.09752	0.96213	1.24084	0.96213	1.24084	0.07587	-97.09752
3230	0.07235	-98.64067	0.96559	1.26546	0.96559	1.26546	0.07235	-98.64067
3250	0.0665	-100.07995	0.96345	1.15796	0.96345	1.15796	0.0665	-100.07995
3270	0.0654	-102.68696	0.9663	1.12272	0.9663	1.12272	0.0654	-102.68696
3290	0.0647	-105.55356	0.96763	0.92351	0.96763	0.92351	0.0647	-105.55356
3310	0.06417	-107.89531	0.96701	0.70615	0.96701	0.70615	0.06417	-107.89531
3330	0.0635	-109.2183	0.96629	0.61618	0.96629	0.61618	0.0635	-109.2183
3350	0.06222	-109.31922	0.9697	0.79883	0.9697	0.79883	0.06222	-109.31922
3370	0.06061	-109.46404	0.96624	0.56259	0.96624	0.56259	0.06061	-109.46404
3390	0.05815	-111.02678	0.96581	0.49245	0.96581	0.49245	0.05815	-111.02678
3410	0.05546	-112.88917	0.96696	0.39939	0.96696	0.39939	0.05546	-112.88917
3430	0.05304	-114.9133	0.96707	0.24214	0.96707	0.24214	0.05304	-114.9133
3450	0.0512	-117.94166	0.9624	0.12718	0.9624	0.12718	0.0512	-117.94166
3470	0.05111	-121.3461	0.96871	0.25466	0.96871	0.25466	0.05111	-121.3461
3490	0.05128	-124.7656	0.96752	0.14069	0.96752	0.14069	0.05128	-124.7656
3510	0.05146	-127.18533	0.96585	-0.13899	0.96585	-0.13899	0.05146	-127.18533
3530	0.05143	-128.32598	0.96555	-0.35045	0.96555	-0.35045	0.05143	-128.32598
3550	0.05097	-128.64374	0.96329	-0.10165	0.96329	-0.10165	0.05097	-128.64374
3570	0.05015	-129.57858	0.9660	-0.11149	0.9660	-0.11149	0.05015	-129.57858
3590	0.0488	-130.88532	0.96735	-0.33177	0.96735	-0.33177	0.0488	-130.88532
3610	0.0469	-133.22847	0.96635	-0.50091	0.96635	-0.50091	0.0469	-133.22847
3630	0.04485	-136.59055	0.96536	-0.51885	0.96536	-0.51885	0.04485	-136.59055
3650	0.04343	-140.27207	0.97018	-0.44697	0.97018	-0.44697	0.04343	-140.27207
3670	0.04466	-144.23312	0.96761	-0.77222	0.96761	-0.77222	0.04466	-144.23312
3690	0.04549	-147.57734	0.96704	-0.84045	0.96704	-0.84045	0.04549	-147.57734
3710	0.04601	-149.84155	0.96886	-0.95189	0.96886	-0.95189	0.04601	-149.84155
3730	0.04629	-150.94042	0.9710	-1.09448	0.9710	-1.09448	0.04629	-150.94042
3750	0.04638	-151.16649	0.96885	-0.94392	0.96885	-0.94392	0.04638	-151.16649
3770	0.04534	-152.15284	0.97023	-1.06655	0.97023	-1.06655	0.04534	-152.15284
3790	0.04351	-154.32534	0.96906	-1.05123	0.96906	-1.05123	0.04351	-154.32534
3810	0.04194	-157.59103	0.96804	-1.16512	0.96804	-1.16512	0.04194	-157.59103
3830	0.04138	-161.63003	0.96773	-1.40553	0.96773	-1.40553	0.04138	-161.63003
3850	0.04237	-165.89557	0.96655	-1.49987	0.96655	-1.49987	0.04237	-165.89557
3870	0.04417	-170.68972	0.96985	-1.50198	0.96985	-1.50198	0.04417	-170.68972
3890	0.04577	-174.04746	0.96756	-1.54105	0.96756	-1.54105	0.04577	-174.04746
3910	0.04703	-175.83611	0.96611	-1.66196	0.96611	-1.66196	0.04703	-175.83611
3930	0.04792	-176.59832	0.96708	-1.76964	0.96708	-1.76964	0.04792	-176.59832
3950	0.04854	-177.55211	0.96716	-1.62914	0.96716	-1.62914	0.04854	-177.55211
3970	0.04881	-179.39774	0.97122	-1.70293	0.97122	-1.70293	0.04881	-179.39774
3990	0.0484	33.98617	0.9692	-1.65516	0.9692	-1.65516	0.0484	33.98617
4010	0.04859	175.24962	0.96756	-1.75422	0.96756	-1.75422	0.04859	175.24962
4030	0.04988	172.68699	0.96797	-1.98996	0.96797	-1.98996	0.04988	172.68699
4050	0.05193	170.23704	0.96734	-2.07373	0.96734	-2.07373	0.05193	170.23704
4070	0.05404	167.74178	0.96734	-1.91167	0.96734	-1.91167	0.05404	167.74178
4090	0.05563	166.21711	0.96836	-2.00461	0.96836	-2.00461	0.05563	166.21711
4110	0.0570	165.45013	0.96861	-2.16823	0.96861	-2.16823	0.0570	165.45013
4130	0.0583	164.87426	0.96843	-2.33401	0.96843	-2.33401	0.0583	164.87426
4150	0.05954	163.56923	0.9702	-2.54921	0.9702	-2.54921	0.05954	163.56923
4170	0.06061	161.88233	0.9653	-2.39516	0.9653	-2.39516	0.06061	161.88233
4190	0.06177	160.77017	0.96583	-2.42946	0.96583	-2.42946	0.06177	160.77017
4210	0.06335	160.07536	0.96639	-2.61737	0.96639	-2.61737	0.06335	160.07536
4230	0.06533	159.66319	0.96705	-2.73048	0.96705	-2.73048	0.06533	159.66319
4250	0.06741	159.42156	0.97335	-2.34676	0.97335	-2.34676	0.06741	159.42156
4270	0.06774	158.68782	0.96745	-2.8569	0.96745	-2.8569	0.06774	158.68782
4290	0.06818	158.44301	0.96664	-2.88462	0.96664	-2.88462	0.06818	158.44301
4310	0.0685	157.98508	0.96695	-2.8793	0.96695	-2.8793	0.0685	157.98508
4330	0.0686	157.10131	0.96573	-2.94773	0.96573	-2.94773	0.0686	157.10131
4350	0.06843	156.06832	0.96164	-2.85405	0.96164	-2.85405	0.06843	156.06832
4370	0.06927	154.43992	0.96679	-3.1485	0.96679	-3.1485	0.06927	154.43992
4390	0.06991	153.63984	0.9667	-3.23326	0.9667	-3.23326	0.06991	153.63984
4410	0.07057	152.99332	0.96649	-3.37662	0.96649	-3.37662	0.07057	152.99332
4430	0.07121	152.22486	0.96762	-3.54623	0.96762	-3.54623	0.07121	152.22486
4450	0.07157	151.45827	0.9679	-3.40911	0.9679	-3.40911	0.07157	151.45827
4470	0.07048	149.61119	0.96738	-3.63554	0.96738	-3.63554	0.07048	149.61119
4490	0.07198	148.33618	0.9691	-3.70352	0.9691	-3.70352	0.07198	148.33618
4510	0.07363	146.99211	0.97006	-3.74683	0.97006	-3.74683	0.07363	146.99211
4530	0.07491	145.31628	0.96889	-3.76388	0.96889	-3.76388	0.07491	145.31628
4550	0.07717	143.42436	0.96582	-3.61778	0.96582	-3.61778	0.07717	143.42436
4570	0.07831	142.68616	0.96502	-3.73556	0.96502	-3.73556	0.07831	142.68616
4590	0.07999	142.61975	0.96718	-3.82744	0.96718	-3.82744	0.07999	142.61975
4610	0.08164	142.77179	0.96893	-3.7910	0.96893	-3.7910	0.08164	142.77179
4630	0.08277	142.70599	0.96859	-3.7244	0.96859	-3.7244	0.08277	142.70599
4650	0.08301	142.00308	0.96623	-3.92639	0.96623	-3.92639	0.08301	142.00308
4670	0.08248	141.24397	0.96928	-4.00507	0.96928	-4.00507	0.08248	141.24397
4690	0.08273	140.60409	0.96858	-4.08954	0.96858	-4.08954	0.08273	140.60409
4710	0.0835	139.14847	0.96567	-4.22336	0.96567	-4.22336	0.0835	139.14847
4730	0.0846	137.22909	0.96274	-4.33142	0.96274	-4.33142	0.0846	137.22909
4750	0.08593	136.48484	0.96257	-4.21996	0.96257	-4.21996	0.08593	136.48484
4770	0.08753	136.37281	0.96607	-4.25977	0.96607	-4.25977	0.08753	136.37281
4790	0.08935	136.55266	0.97003	-4.45315	0.97003	-4.45315	0.08935	136.55266
4810	0.09042	136.61534	0.96835	-4.61295	0.96835	-4.61295	0.09042	136.61534
4830	0.09037	136.57053	0.9637	-4.64966	0.9637	-4.64966	0.09037	136.57053
4850	0.08948	136.84661	0.96759	-4.5714	0.96759	-4.5714	0.08948	136.84661
4870	0.0880	136.50943	0.96264	-4.58769	0.96264	-4.58769	0.0880	136.50943
4890	0.08782	135.12614	0.96351	-4.77805	0.96351	-4.77805	0.08782	135.12614
4910	0.08842	133.32086	0.96517	-4.95478	0.96517	-4.95478	0.08842	133.32086
4930	0.08948	131.83653	0.96613	-4.95843	0.96613	-4.95843	0.08948	131.83653
4950	0.09091	131.53491	0.96847	-4.65779	0.96847	-4.65779	0.09091	131.53491
4970	0.09159	130.89507	0.96511	-5.15461	0.96511	-5.15461	0.09159	130.89507
4990	0.09288	130.74932	0.96452	-5.18132	0.96452	-5.18132	0.09288	130.74932
5010	0.09326	130.69313	0.96367	-5.13124	0.96367	-5.13124	0.09326	130.69313
5030	0.09231	130.59723	0.96254	-5.10126	0.96254	-5.10126	0.09231	130.59723
5050	0.09073	130.60757	0.96411	-4.89181	0.96411	-4.89181	0.09073	130.60757
5070	0.08951	129.71426	0.96399	-5.23191	0.96399	-5.23191	0.08951	129.71426
5090	0.08961	127.86841	0.96427	-5.54685	0.96427	-5.54685	0.08961	127.86841
5110	0.08996	125.80731	0.96309	-5.6492	0.96309	-5.6492	0.08996	125.80731
5130	0.09056	124.06338	0.96188	-5.58336	0.96188	-5.58336	0.09056	124.06338
5150	0.09253	122.96415	0.9654	-5.62553	0.9654	-5.62553	0.09253	122.96415
5170	0.09459	122.98549	0.96281	-5.67579	0.96281	-5.67579	0.09459	122.98549
5190	0.09615	122.95405	0.96505	-5.61684	0.96505	-5.61684	0.09615	122.95405
5210	0.09613	122.89398	0.96521	-5.69399	0.96521	-5.69399	0.09613	122.89398
5230	0.0946	122.90633	0.96264	-5.86809	0.96264	-5.86809	0.0946	122.90633
5250	0.09274	123.1691	0.96287	-5.81558	0.96287	-5.81558	0.09274	123.1691
5270	0.09153	121.66154	0.96244	-6.03157	0.96244	-6.03157	0.09153	121.66154
5290	0.09167	120.03762	0.96637	-5.92953	0.96637	-5.92953	0.09167	120.03762
5310	0.0922	118.07925	0.9657	-6.04143	0.9657	-6.04143	0.0922	118.07925
5330	0.09329	116.17778	0.96125	-6.31252	0.96125	-6.31252	0.09329	116.17778
5350	0.09617	115.33407	0.96359	-6.10133	0.96359	-6.10133	0.09617	115.33407
5370	0.09817	115.50728	0.96581	-6.29689	0.96581	-6.29689	0.09817	115.50728
5390	0.09828	116.35671	0.96282	-6.41553	0.96282	-6.41553	0.09828	116.35671
5410	0.09771	116.68168	0.9622	-6.46188	0.9622	-6.46188	0.09771	116.68168
