! P/N: L-05C6N8_SER								
! Measured by Marlon								
! Sep. 23, 2003								
! Measure with a Series-through-fixture								
#	mhz	s	ma	r	50			
50	0.03865	32.48768	0.96895	-1.60627	0.96895	-1.60627	0.03865	32.48768
70	0.04327	40.96113	0.96903	-1.7751	0.96903	-1.7751	0.04327	40.96113
90	0.04939	46.55605	0.96752	-2.23187	0.96752	-2.23187	0.04939	46.55605
110	0.05602	52.00326	0.96743	-2.70244	0.96743	-2.70244	0.05602	52.00326
130	0.06286	57.3794	0.96766	-3.14137	0.96766	-3.14137	0.06286	57.3794
150	0.0703	60.10703	0.96304	-3.73195	0.96304	-3.73195	0.0703	60.10703
170	0.07785	61.78771	0.96376	-4.17865	0.96376	-4.17865	0.07785	61.78771
190	0.0844	62.48902	0.96454	-4.66506	0.96454	-4.66506	0.0844	62.48902
210	0.09093	63.09951	0.96322	-5.11964	0.96322	-5.11964	0.09093	63.09951
230	0.09837	63.95597	0.95976	-5.56852	0.95976	-5.56852	0.09837	63.95597
250	0.10758	64.84343	0.95625	-6.13544	0.95625	-6.13544	0.10758	64.84343
270	0.11457	64.78026	0.95737	-6.7972	0.95737	-6.7972	0.11457	64.78026
290	0.12158	65.6835	0.95587	-7.1518	0.95587	-7.1518	0.12158	65.6835
310	0.12916	66.45177	0.95387	-7.52638	0.95387	-7.52638	0.12916	66.45177
330	0.13719	66.63158	0.9527	-8.0276	0.9527	-8.0276	0.13719	66.63158
350	0.1448	66.41729	0.95295	-8.54165	0.95295	-8.54165	0.1448	66.41729
370	0.15134	66.56819	0.95175	-9.1687	0.95175	-9.1687	0.15134	66.56819
390	0.1588	67.04775	0.95103	-9.72468	0.95103	-9.72468	0.1588	67.04775
410	0.1667	67.51621	0.94885	-10.22614	0.94885	-10.22614	0.1667	67.51621
430	0.1747	67.80374	0.94568	-10.63829	0.94568	-10.63829	0.1747	67.80374
450	0.18255	67.91045	0.94448	-10.87497	0.94448	-10.87497	0.18255	67.91045
470	0.1887	67.99384	0.94468	-11.43869	0.94468	-11.43869	0.1887	67.99384
490	0.20763	68.82268	0.94031	-12.68306	0.94031	-12.68306	0.20763	68.82268
510	0.22366	69.84955	0.93687	-13.61968	0.93687	-13.61968	0.22366	69.84955
530	0.23163	70.57335	0.93569	-14.05762	0.93569	-14.05762	0.23163	70.57335
550	0.23692	70.53929	0.93395	-14.60339	0.93395	-14.60339	0.23692	70.53929
570	0.24121	70.62501	0.93218	-14.98283	0.93218	-14.98283	0.24121	70.62501
590	0.24747	70.63038	0.93211	-15.61099	0.93211	-15.61099	0.24747	70.63038
610	0.2539	70.09141	0.93049	-16.01451	0.93049	-16.01451	0.2539	70.09141
630	0.25979	69.07903	0.92721	-16.28655	0.92721	-16.28655	0.25979	69.07903
650	0.26554	68.1992	0.92533	-17.08675	0.92533	-17.08675	0.26554	68.1992
670	0.27615	67.99048	0.92004	-17.64	0.92004	-17.64	0.27615	67.99048
690	0.28748	67.64771	0.91726	-18.06042	0.91726	-18.06042	0.28748	67.64771
710	0.29799	67.17173	0.91511	-18.57686	0.91511	-18.57686	0.29799	67.17173
730	0.30694	66.85858	0.91313	-19.17916	0.91313	-19.17916	0.30694	66.85858
750	0.31438	67.29949	0.9123	-19.61811	0.9123	-19.61811	0.31438	67.29949
770	0.32202	67.61862	0.91211	-20.16077	0.91211	-20.16077	0.32202	67.61862
790	0.32798	67.48682	0.9071	-20.59282	0.9071	-20.59282	0.32798	67.48682
810	0.33444	67.15813	0.90392	-20.96467	0.90392	-20.96467	0.33444	67.15813
830	0.34157	66.77236	0.90335	-21.34814	0.90335	-21.34814	0.34157	66.77236
850	0.34747	66.35506	0.90029	-21.83639	0.90029	-21.83639	0.34747	66.35506
870	0.35429	65.77048	0.89358	-22.52663	0.89358	-22.52663	0.35429	65.77048
890	0.36325	65.37201	0.89186	-22.89565	0.89186	-22.89565	0.36325	65.37201
910	0.37289	65.09128	0.89011	-23.38576	0.89011	-23.38576	0.37289	65.09128
930	0.3818	64.87092	0.88626	-24.0379	0.88626	-24.0379	0.3818	64.87092
950	0.3886	64.66453	0.88117	-24.49158	0.88117	-24.49158	0.3886	64.66453
970	0.39654	64.32289	0.88043	-24.77215	0.88043	-24.77215	0.39654	64.32289
990	0.40286	63.86581	0.87665	-25.27539	0.87665	-25.27539	0.40286	63.86581
1010	0.40991	63.48166	0.87267	-25.86782	0.87267	-25.86782	0.40991	63.48166
1030	0.41791	63.28107	0.86952	-26.39426	0.86952	-26.39426	0.41791	63.28107
1050	0.42493	63.29693	0.86637	-26.67787	0.86637	-26.67787	0.42493	63.29693
1070	0.43202	63.1867	0.86244	-27.16132	0.86244	-27.16132	0.43202	63.1867
1090	0.4395	63.02298	0.86005	-27.77059	0.86005	-27.77059	0.4395	63.02298
1110	0.44531	62.85144	0.857	-28.35838	0.857	-28.35838	0.44531	62.85144
1130	0.44914	62.69663	0.85332	-28.82287	0.85332	-28.82287	0.44914	62.69663
1150	0.45241	62.56205	0.85125	-29.10767	0.85125	-29.10767	0.45241	62.56205
1170	0.45623	61.61257	0.84664	-29.50601	0.84664	-29.50601	0.45623	61.61257
1190	0.46109	60.89426	0.8433	-29.86585	0.8433	-29.86585	0.46109	60.89426
1210	0.46682	60.16067	0.84001	-30.35209	0.84001	-30.35209	0.46682	60.16067
1230	0.47339	59.4118	0.83567	-30.93123	0.83567	-30.93123	0.47339	59.4118
1250	0.48096	58.89409	0.82927	-31.37129	0.82927	-31.37129	0.48096	58.89409
1270	0.48992	58.3366	0.8261	-31.66675	0.8261	-31.66675	0.48992	58.3366
1290	0.49975	57.74102	0.82648	-32.3591	0.82648	-32.3591	0.49975	57.74102
1310	0.50669	57.40186	0.82177	-32.93143	0.82177	-32.93143	0.50669	57.40186
1330	0.5122	57.35459	0.81376	-33.26815	0.81376	-33.26815	0.5122	57.35459
1350	0.52286	57.37569	0.81461	-33.65494	0.81461	-33.65494	0.52286	57.37569
1370	0.52767	56.50108	0.80963	-34.09914	0.80963	-34.09914	0.52767	56.50108
1390	0.53248	55.88059	0.80613	-34.46843	0.80613	-34.46843	0.53248	55.88059
1410	0.53965	55.48964	0.80211	-34.93109	0.80211	-34.93109	0.53965	55.48964
1430	0.54824	55.1332	0.79681	-35.48343	0.79681	-35.48343	0.54824	55.1332
1450	0.55396	54.44581	0.7906	-35.94981	0.7906	-35.94981	0.55396	54.44581
1470	0.56361	54.04619	0.78519	-36.26614	0.78519	-36.26614	0.56361	54.04619
1490	0.5717	53.68518	0.78347	-36.88372	0.78347	-36.88372	0.5717	53.68518
1510	0.57885	53.52856	0.7794	-37.43822	0.7794	-37.43822	0.57885	53.52856
1530	0.5857	53.5538	0.77351	-37.84577	0.77351	-37.84577	0.5857	53.5538
1550	0.59292	53.55005	0.77291	-38.30297	0.77291	-38.30297	0.59292	53.55005
1570	0.59848	53.02381	0.76613	-38.64702	0.76613	-38.64702	0.59848	53.02381
1590	0.5996	52.69962	0.76231	-39.14971	0.76231	-39.14971	0.5996	52.69962
1610	0.6022	52.35064	0.75914	-39.53338	0.75914	-39.53338	0.6022	52.35064
1630	0.60797	51.88486	0.75511	-39.8204	0.75511	-39.8204	0.60797	51.88486
1650	0.61448	51.34508	0.74951	-40.33307	0.74951	-40.33307	0.61448	51.34508
1670	0.6203	50.70167	0.74632	-40.6604	0.74632	-40.6604	0.6203	50.70167
1690	0.62361	50.39791	0.74077	-40.91639	0.74077	-40.91639	0.62361	50.39791
1710	0.62901	50.23412	0.73701	-41.28649	0.73701	-41.28649	0.62901	50.23412
1730	0.63666	49.9873	0.73533	-41.79408	0.73533	-41.79408	0.63666	49.9873
1750	0.64222	49.41111	0.73217	-42.30052	0.73217	-42.30052	0.64222	49.41111
1770	0.64196	49.03127	0.72443	-42.4593	0.72443	-42.4593	0.64196	49.03127
1790	0.64759	48.75009	0.72176	-42.81762	0.72176	-42.81762	0.64759	48.75009
1810	0.65237	48.19169	0.71812	-43.36043	0.71812	-43.36043	0.65237	48.19169
1830	0.65467	47.38149	0.7115	-43.86879	0.7115	-43.86879	0.65467	47.38149
1850	0.65789	46.74618	0.70397	-43.9198	0.70397	-43.9198	0.65789	46.74618
1870	0.66483	46.20698	0.70237	-44.39647	0.70237	-44.39647	0.66483	46.20698
1890	0.67201	45.76486	0.69488	-44.94599	0.69488	-44.94599	0.67201	45.76486
1910	0.6787	45.54154	0.68704	-45.40392	0.68704	-45.40392	0.6787	45.54154
1930	0.6849	45.3553	0.68195	-45.74576	0.68195	-45.74576	0.6849	45.3553
1950	0.69128	44.72098	0.68026	-46.08696	0.68026	-46.08696	0.69128	44.72098
1970	0.69596	44.00912	0.67619	-46.60201	0.67619	-46.60201	0.69596	44.00912
1990	0.69898	43.62017	0.67221	-46.91286	0.67221	-46.91286	0.69898	43.62017
2010	0.70237	43.34604	0.66713	-47.14425	0.66713	-47.14425	0.70237	43.34604
2030	0.7077	42.96181	0.66207	-47.43005	0.66207	-47.43005	0.7077	42.96181
2050	0.71602	42.22572	0.66045	-47.91321	0.66045	-47.91321	0.71602	42.22572
2070	0.72005	42.07644	0.65477	-48.34569	0.65477	-48.34569	0.72005	42.07644
2090	0.7247	41.83939	0.64929	-48.60197	0.64929	-48.60197	0.7247	41.83939
2110	0.73069	41.57409	0.6447	-48.87887	0.6447	-48.87887	0.73069	41.57409
2130	0.73667	41.2067	0.64025	-49.27185	0.64025	-49.27185	0.73667	41.2067
2150	0.73926	40.52998	0.63382	-49.77498	0.63382	-49.77498	0.73926	40.52998
2170	0.74249	40.42128	0.63154	-49.96776	0.63154	-49.96776	0.74249	40.42128
2190	0.74735	40.11728	0.62714	-50.28832	0.62714	-50.28832	0.74735	40.11728
2210	0.75121	39.6635	0.62149	-50.63801	0.62149	-50.63801	0.75121	39.6635
2230	0.75484	39.1897	0.61671	-50.94132	0.61671	-50.94132	0.75484	39.1897
2250	0.76234	38.90984	0.61617	-51.14586	0.61617	-51.14586	0.76234	38.90984
2270	0.7641	38.3172	0.60861	-51.84234	0.60861	-51.84234	0.7641	38.3172
2290	0.77032	38.16043	0.60117	-51.88369	0.60117	-51.88369	0.77032	38.16043
2310	0.77624	37.9197	0.59697	-52.09019	0.59697	-52.09019	0.77624	37.9197
2330	0.77943	37.46857	0.59456	-52.70132	0.59456	-52.70132	0.77943	37.46857
2350	0.77979	37.07395	0.58791	-53.37577	0.58791	-53.37577	0.77979	37.07395
2370	0.78049	37.04402	0.58225	-53.33915	0.58225	-53.33915	0.78049	37.04402
2390	0.78563	36.81156	0.57927	-53.53756	0.57927	-53.53756	0.78563	36.81156
2410	0.78867	36.30051	0.57688	-53.91376	0.57688	-53.91376	0.78867	36.30051
2430	0.78845	35.61455	0.57303	-54.34727	0.57303	-54.34727	0.78845	35.61455
2450	0.78927	35.03703	0.56572	-54.65437	0.56572	-54.65437	0.78927	35.03703
2470	0.80041	35.01158	0.56099	-54.60574	0.56099	-54.60574	0.80041	35.01158
2490	0.80427	34.44891	0.55591	-55.09223	0.55591	-55.09223	0.80427	34.44891
2510	0.80625	33.82204	0.55021	-55.63673	0.55021	-55.63673	0.80625	33.82204
2530	0.80929	33.47628	0.54444	-56.01668	0.54444	-56.01668	0.80929	33.47628
2550	0.81389	33.62929	0.53994	-56.26413	0.53994	-56.26413	0.81389	33.62929
2570	0.82092	33.05257	0.53762	-56.5128	0.53762	-56.5128	0.82092	33.05257
2590	0.81912	32.87719	0.53209	-56.6245	0.53209	-56.6245	0.81912	32.87719
2610	0.81892	32.73259	0.52827	-56.8366	0.52827	-56.8366	0.81892	32.73259
2630	0.82299	32.44585	0.52557	-57.18166	0.52557	-57.18166	0.82299	32.44585
2650	0.82625	32.04172	0.51796	-57.48738	0.51796	-57.48738	0.82625	32.04172
2670	0.8309	31.84942	0.5146	-57.69071	0.5146	-57.69071	0.8309	31.84942
2690	0.83475	31.60764	0.51132	-57.93572	0.51132	-57.93572	0.83475	31.60764
2710	0.83756	31.10392	0.50592	-58.30853	0.50592	-58.30853	0.83756	31.10392
2730	0.83851	30.58335	0.49922	-58.70299	0.49922	-58.70299	0.83851	30.58335
2750	0.83625	30.7486	0.49512	-58.82063	0.49512	-58.82063	0.83625	30.7486
2770	0.84612	30.2654	0.49066	-59.17836	0.49066	-59.17836	0.84612	30.2654
2790	0.85004	29.73871	0.48575	-59.48668	0.48575	-59.48668	0.85004	29.73871
2810	0.85336	29.40529	0.48086	-59.56445	0.48086	-59.56445	0.85336	29.40529
2830	0.85742	29.29155	0.47601	-59.61263	0.47601	-59.61263	0.85742	29.29155
2850	0.85951	29.21347	0.4708	-60.21435	0.4708	-60.21435	0.85951	29.21347
2870	0.86299	28.68531	0.46594	-60.45025	0.46594	-60.45025	0.86299	28.68531
2890	0.86349	28.40078	0.46219	-60.88632	0.46219	-60.88632	0.86349	28.40078
2910	0.8663	28.05662	0.45817	-61.24225	0.45817	-61.24225	0.8663	28.05662
2930	0.872	27.73999	0.45348	-61.43621	0.45348	-61.43621	0.872	27.73999
2950	0.8765	27.92838	0.44873	-61.58484	0.44873	-61.58484	0.8765	27.92838
2970	0.87645	27.90847	0.44402	-61.98347	0.44402	-61.98347	0.87645	27.90847
2990	0.87691	27.37213	0.4409	-62.24793	0.4409	-62.24793	0.87691	27.37213
3010	0.87709	26.77611	0.43589	-62.57424	0.43589	-62.57424	0.87709	26.77611
3030	0.8779	26.42037	0.42965	-62.87935	0.42965	-62.87935	0.8779	26.42037
3050	0.88198	26.44802	0.4269	-62.80116	0.4269	-62.80116	0.88198	26.44802
3070	0.88516	26.06432	0.42429	-63.23657	0.42429	-63.23657	0.88516	26.06432
3090	0.88735	25.56574	0.41931	-63.8132	0.41931	-63.8132	0.88735	25.56574
3110	0.88789	25.40534	0.41409	-64.01966	0.41409	-64.01966	0.88789	25.40534
3130	0.88918	25.44456	0.41006	-63.9545	0.41006	-63.9545	0.88918	25.44456
3150	0.89669	24.95328	0.40798	-64.32623	0.40798	-64.32623	0.89669	24.95328
3170	0.89115	24.44798	0.40031	-64.67557	0.40031	-64.67557	0.89115	24.44798
3190	0.89542	24.18955	0.39665	-64.74679	0.39665	-64.74679	0.89542	24.18955
3210	0.8999	23.95887	0.39318	-64.78153	0.39318	-64.78153	0.8999	23.95887
3230	0.9015	23.65438	0.38764	-64.95721	0.38764	-64.95721	0.9015	23.65438
3250	0.9036	23.29209	0.37941	-65.38708	0.37941	-65.38708	0.9036	23.29209
3270	0.90279	23.57789	0.37735	-65.38616	0.37735	-65.38616	0.90279	23.57789
3290	0.90637	22.92298	0.37377	-65.97173	0.37377	-65.97173	0.90637	22.92298
3310	0.90777	22.41143	0.3698	-66.30089	0.3698	-66.30089	0.90777	22.41143
3330	0.90744	22.27431	0.3662	-66.28007	0.3662	-66.28007	0.90744	22.27431
3350	0.91286	21.88962	0.36341	-66.56513	0.36341	-66.56513	0.91286	21.88962
3370	0.91629	21.68537	0.35956	-66.88886	0.35956	-66.88886	0.91629	21.68537
3390	0.91674	21.2805	0.35312	-67.15573	0.35312	-67.15573	0.91674	21.2805
3410	0.91852	21.07055	0.34659	-67.3873	0.34659	-67.3873	0.91852	21.07055
3430	0.92361	21.05253	0.34207	-67.54618	0.34207	-67.54618	0.92361	21.05253
3450	0.93172	20.8249	0.34131	-67.53599	0.34131	-67.53599	0.93172	20.8249
3470	0.92335	20.32867	0.33488	-68.26872	0.33488	-68.26872	0.92335	20.32867
3490	0.9208	20.47523	0.32998	-68.29635	0.32998	-68.29635	0.9208	20.47523
3510	0.92516	20.44227	0.32669	-68.25496	0.32669	-68.25496	0.92516	20.44227
3530	0.93064	19.91441	0.32346	-68.51673	0.32346	-68.51673	0.93064	19.91441
3550	0.92465	19.08318	0.31706	-69.18996	0.31706	-69.18996	0.92465	19.08318
3570	0.92805	19.06176	0.31315	-68.92691	0.31315	-68.92691	0.92805	19.06176
3590	0.934	18.76918	0.30986	-69.13975	0.30986	-69.13975	0.934	18.76918
3610	0.93501	18.40709	0.30487	-69.52638	0.30487	-69.52638	0.93501	18.40709
3630	0.93254	18.16404	0.29909	-69.79919	0.29909	-69.79919	0.93254	18.16404
3650	0.93703	18.21543	0.29667	-69.68505	0.29667	-69.68505	0.93703	18.21543
3670	0.93913	17.44194	0.29303	-70.18351	0.29303	-70.18351	0.93913	17.44194
3690	0.93753	17.28202	0.28745	-70.44736	0.28745	-70.44736	0.93753	17.28202
3710	0.94029	17.14057	0.28323	-70.54637	0.28323	-70.54637	0.94029	17.14057
3730	0.94613	16.70279	0.28055	-70.71753	0.28055	-70.71753	0.94613	16.70279
3750	0.94443	15.93421	0.27644	-71.36503	0.27644	-71.36503	0.94443	15.93421
3770	0.94488	16.0619	0.27207	-71.17326	0.27207	-71.17326	0.94488	16.0619
3790	0.95211	15.72042	0.26833	-71.45823	0.26833	-71.45823	0.95211	15.72042
3810	0.95339	15.45131	0.2642	-71.71516	0.2642	-71.71516	0.95339	15.45131
3830	0.94891	15.3423	0.25959	-71.79793	0.25959	-71.79793	0.94891	15.3423
3850	0.95174	15.02728	0.25536	-71.91908	0.25536	-71.91908	0.95174	15.02728
3870	0.9503	14.80375	0.25018	-72.08552	0.25018	-72.08552	0.9503	14.80375
3890	0.94956	14.57339	0.2465	-72.263	0.2465	-72.263	0.94956	14.57339
3910	0.95462	14.1615	0.24332	-72.55799	0.24332	-72.55799	0.95462	14.1615
3930	0.96019	13.59815	0.23959	-72.97042	0.23959	-72.97042	0.96019	13.59815
3950	0.95065	13.11814	0.23415	-73.39374	0.23415	-73.39374	0.95065	13.11814
3970	0.95216	13.24783	0.23008	-72.92585	0.23008	-72.92585	0.95216	13.24783
3990	0.96069	12.77874	0.22695	-73.25505	0.22695	-73.25505	0.96069	12.77874
4010	0.96343	12.26055	0.22318	-73.67012	0.22318	-73.67012	0.96343	12.26055
4030	0.95967	11.91277	0.21862	-73.9185	0.21862	-73.9185	0.95967	11.91277
4050	0.96081	11.62472	0.21455	-74.20629	0.21455	-74.20629	0.96081	11.62472
4070	0.96249	11.46178	0.20981	-73.90028	0.20981	-73.90028	0.96249	11.46178
4090	0.96552	11.33013	0.20694	-74.15413	0.20694	-74.15413	0.96552	11.33013
4110	0.96497	10.89081	0.20325	-74.66131	0.20325	-74.66131	0.96497	10.89081
4130	0.96176	10.39948	0.1982	-74.95703	0.1982	-74.95703	0.96176	10.39948
4150	0.96262	10.70647	0.19339	-74.41818	0.19339	-74.41818	0.96262	10.70647
4170	0.97091	10.0619	0.19177	-74.8621	0.19177	-74.8621	0.97091	10.0619
4190	0.9671	9.32361	0.18775	-75.45491	0.18775	-75.45491	0.9671	9.32361
4210	0.96415	8.89602	0.18277	-75.48518	0.18277	-75.48518	0.96415	8.89602
4230	0.96707	8.68475	0.17806	-75.21719	0.17806	-75.21719	0.96707	8.68475
4250	0.97289	8.09655	0.17467	-75.89092	0.17467	-75.89092	0.97289	8.09655
4270	0.97061	7.88275	0.17002	-75.64128	0.17002	-75.64128	0.97061	7.88275
4290	0.97205	7.70645	0.16607	-75.72962	0.16607	-75.72962	0.97205	7.70645
4310	0.9724	7.35058	0.16227	-76.06614	0.16227	-76.06614	0.9724	7.35058
4330	0.97006	6.91666	0.15825	-76.39478	0.15825	-76.39478	0.97006	6.91666
4350	0.96663	6.82481	0.15384	-76.29317	0.15384	-76.29317	0.96663	6.82481
4370	0.97341	6.1564	0.15053	-76.49875	0.15053	-76.49875	0.97341	6.1564
4390	0.97263	5.65715	0.14604	-76.84205	0.14604	-76.84205	0.97263	5.65715
4410	0.97592	5.39974	0.1425	-77.01577	0.1425	-77.01577	0.97592	5.39974
4430	0.98314	5.2275	0.13964	-76.98042	0.13964	-76.98042	0.98314	5.2275
4450	0.98232	4.75448	0.13479	-76.9643	0.13479	-76.9643	0.98232	4.75448
4470	0.98028	4.73288	0.13028	-76.68463	0.13028	-76.68463	0.98028	4.73288
4490	0.98242	4.18667	0.12682	-76.96282	0.12682	-76.96282	0.98242	4.18667
4510	0.97815	3.66778	0.12247	-77.24689	0.12247	-77.24689	0.97815	3.66778
4530	0.97032	3.48802	0.11745	-77.17097	0.11745	-77.17097	0.97032	3.48802
4550	0.97529	3.71915	0.11408	-76.55531	0.11408	-76.55531	0.97529	3.71915
4570	0.98525	2.55702	0.11146	-77.22195	0.11146	-77.22195	0.98525	2.55702
4590	0.97732	1.93276	0.10672	-77.5819	0.10672	-77.5819	0.97732	1.93276
4610	0.97383	1.95229	0.1022	-77.28134	0.1022	-77.28134	0.97383	1.95229
4630	0.98127	2.07155	0.09864	-76.77796	0.09864	-76.77796	0.98127	2.07155
4650	0.99032	1.09651	0.0952	-77.34095	0.0952	-77.34095	0.99032	1.09651
4670	0.97856	0.74264	0.09083	-77.23929	0.09083	-77.23929	0.97856	0.74264
4690	0.97568	0.69607	0.08693	-76.97681	0.08693	-76.97681	0.97568	0.69607
4710	0.97817	0.4921	0.08324	-76.79841	0.08324	-76.79841	0.97817	0.4921
4730	0.98192	0.07837	0.07953	-76.64544	0.07953	-76.64544	0.98192	0.07837
4750	0.98224	-0.18513	0.07568	-76.15569	0.07568	-76.15569	0.98224	-0.18513
4770	0.97966	-0.86435	0.07165	-76.06158	0.07165	-76.06158	0.97966	-0.86435
4790	0.97878	-1.25529	0.0677	-75.67467	0.0677	-75.67467	0.97878	-1.25529
4810	0.98028	-1.54701	0.06408	-75.28043	0.06408	-75.28043	0.98028	-1.54701
4830	0.98241	-1.86753	0.06057	-74.93355	0.06057	-74.93355	0.98241	-1.86753
4850	0.981	-2.28384	0.05654	-74.45789	0.05654	-74.45789	0.981	-2.28384
4870	0.98055	-2.32775	0.05302	-73.33527	0.05302	-73.33527	0.98055	-2.32775
4890	0.98033	-2.98516	0.04921	-72.76821	0.04921	-72.76821	0.98033	-2.98516
4910	0.97737	-3.28587	0.0453	-71.86252	0.0453	-71.86252	0.97737	-3.28587
4930	0.9759	-3.14789	0.04161	-70.32294	0.04161	-70.32294	0.9759	-3.14789
4950	0.98734	-3.37738	0.03851	-68.45312	0.03851	-68.45312	0.98734	-3.37738
4970	0.98148	-4.4551	0.03475	-67.2107	0.03475	-67.2107	0.98148	-4.4551
4990	0.9734	-4.69603	0.03115	-64.36136	0.03115	-64.36136	0.9734	-4.69603
5010	0.97771	-4.82276	0.02796	-60.85747	0.02796	-60.85747	0.97771	-4.82276
5030	0.98895	-5.33308	0.02502	-57.1654	0.02502	-57.1654	0.98895	-5.33308
5050	0.98156	-6.49993	0.0218	-53.26546	0.0218	-53.26546	0.98156	-6.49993
5070	0.97621	-5.90073	0.01883	-45.55998	0.01883	-45.55998	0.97621	-5.90073
5090	0.98924	-5.65952	0.01648	-35.87754	0.01648	-35.87754	0.98924	-5.65952
5110	0.99516	-6.08214	0.01477	-24.61971	0.01477	-24.61971	0.99516	-6.08214
5130	0.98585	-6.83367	0.0137	-11.51653	0.0137	-11.51653	0.98585	-6.83367
5150	0.97058	-6.93843	0.01326	4.37357	0.01326	4.37357	0.97058	-6.93843
5170	0.98464	-6.74654	0.01458	19.0994	0.01458	19.0994	0.98464	-6.74654
5190	0.98738	-7.49389	0.01631	30.94996	0.01631	30.94996	0.98738	-7.49389
5210	0.97897	-8.093	0.01845	40.17893	0.01845	40.17893	0.97897	-8.093
5230	0.97058	-7.97025	0.02098	47.43273	0.02098	47.43273	0.97058	-7.97025
5250	0.98441	-7.06597	0.02395	53.75058	0.02395	53.75058	0.98441	-7.06597
5270	0.99228	-8.56394	0.02743	56.60111	0.02743	56.60111	0.99228	-8.56394
5290	0.97811	-9.15702	0.03033	59.34725	0.03033	59.34725	0.97811	-9.15702
5310	0.97522	-8.86736	0.03356	62.1764	0.03356	62.1764	0.97522	-8.86736
5330	0.98818	-8.54096	0.03725	64.60983	0.03725	64.60983	0.98818	-8.54096
5350	0.99281	-9.8477	0.04081	65.50263	0.04081	65.50263	0.99281	-9.8477
5370	0.97348	-10.17686	0.04335	66.60847	0.04335	66.60847	0.97348	-10.17686
5390	0.97679	-9.96824	0.04683	67.9255	0.04683	67.9255	0.97679	-9.96824
5410	0.98491	-9.96134	0.05056	68.92281	0.05056	68.92281	0.98491	-9.96134
5430	0.98619	-10.28959	0.05401	69.50495	0.05401	69.50495	0.98619	-10.28959
