! Data Taken on a HP 8720C VNA using a series-through fixture with TRL* de-embedding
#	mhz	s	ma	r	50
50	0.02435	64.55499	0.98216	-2.18672	0.98216	-2.18672	0.02435	64.55499
70	0.03822	71.05918	0.98446	-2.39765	0.98446	-2.39765	0.03822	71.05918
90	0.04879	72.99706	0.98401	-2.86953	0.98401	-2.86953	0.04879	72.99706
110	0.05703	72.41489	0.98305	-3.4722	0.98305	-3.4722	0.05703	72.41489
130	0.06458	71.66668	0.98198	-4.12802	0.98198	-4.12802	0.06458	71.66668
150	0.07383	73.41417	0.97937	-4.81183	0.97937	-4.81183	0.07383	73.41417
170	0.08315	73.95237	0.9825	-4.95498	0.9825	-4.95498	0.08315	73.95237
190	0.09247	73.80081	0.97811	-5.65754	0.97811	-5.65754	0.09247	73.80081
210	0.10147	73.71339	0.97505	-6.31171	0.97505	-6.31171	0.10147	73.71339
230	0.11016	73.83899	0.97577	-6.80063	0.97577	-6.80063	0.11016	73.83899
250	0.11881	73.72155	0.97634	-7.49843	0.97634	-7.49843	0.11881	73.72155
270	0.12702	73.49002	0.9697	-7.85929	0.9697	-7.85929	0.12702	73.49002
290	0.1363	73.03128	0.96918	-8.35217	0.96918	-8.35217	0.1363	73.03128
310	0.146	72.54487	0.97003	-8.90231	0.97003	-8.90231	0.146	72.54487
330	0.15575	72.11295	0.96901	-9.43859	0.96901	-9.43859	0.15575	72.11295
350	0.16555	71.70032	0.96445	-9.89361	0.96445	-9.89361	0.16555	71.70032
370	0.17515	72.27977	0.96547	-10.22584	0.96547	-10.22584	0.17515	72.27977
390	0.18355	72.14016	0.96352	-10.9602	0.96352	-10.9602	0.18355	72.14016
410	0.19198	71.84143	0.96218	-11.6883	0.96218	-11.6883	0.19198	71.84143
430	0.20063	71.61948	0.96187	-12.19639	0.96187	-12.19639	0.20063	71.61948
450	0.20867	71.38619	0.95985	-12.46538	0.95985	-12.46538	0.20867	71.38619
470	0.21636	70.69837	0.95844	-13.15513	0.95844	-13.15513	0.21636	70.69837
490	0.23719	71.93195	0.95444	-14.63033	0.95444	-14.63033	0.23719	71.93195
510	0.25542	72.60851	0.94786	-15.82234	0.94786	-15.82234	0.25542	72.60851
530	0.26524	72.29761	0.94201	-16.41422	0.94201	-16.41422	0.26524	72.29761
550	0.27079	72.6167	0.94351	-16.84072	0.94351	-16.84072	0.27079	72.6167
570	0.27748	71.99485	0.94281	-17.30235	0.94281	-17.30235	0.27748	71.99485
590	0.28663	71.313	0.93973	-17.79069	0.93973	-17.79069	0.28663	71.313
610	0.29496	70.783	0.93814	-18.28899	0.93814	-18.28899	0.29496	70.783
630	0.30216	70.36409	0.93745	-18.81157	0.93745	-18.81157	0.30216	70.36409
650	0.31086	69.76292	0.93255	-19.40384	0.93255	-19.40384	0.31086	69.76292
670	0.32101	69.32356	0.92698	-19.90922	0.92698	-19.90922	0.32101	69.32356
690	0.32965	69.02439	0.9247	-20.45415	0.9247	-20.45415	0.32965	69.02439
710	0.33867	68.62922	0.92137	-21.05387	0.92137	-21.05387	0.33867	68.62922
730	0.34768	68.22412	0.91657	-21.63522	0.91657	-21.63522	0.34768	68.22412
750	0.354	68.21739	0.91374	-22.03665	0.91374	-22.03665	0.354	68.21739
770	0.36264	68.09092	0.91418	-22.7406	0.91418	-22.7406	0.36264	68.09092
790	0.36982	67.55578	0.91051	-23.08306	0.91051	-23.08306	0.36982	67.55578
810	0.37589	67.06592	0.90584	-23.42652	0.90584	-23.42652	0.37589	67.06592
830	0.38173	66.59046	0.9004	-23.94719	0.9004	-23.94719	0.38173	66.59046
850	0.38878	65.61374	0.89151	-24.63501	0.89151	-24.63501	0.38878	65.61374
870	0.39584	65.45694	0.89043	-25.15924	0.89043	-25.15924	0.39584	65.45694
890	0.40391	64.75923	0.8882	-25.68854	0.8882	-25.68854	0.40391	64.75923
910	0.41245	64.02882	0.8863	-26.24896	0.8863	-26.24896	0.41245	64.02882
930	0.42039	63.45833	0.88339	-26.81277	0.88339	-26.81277	0.42039	63.45833
950	0.42609	62.92475	0.87535	-27.29848	0.87535	-27.29848	0.42609	62.92475
970	0.43595	62.38109	0.87285	-27.73458	0.87285	-27.73458	0.43595	62.38109
990	0.44414	61.6275	0.86944	-28.23018	0.86944	-28.23018	0.44414	61.6275
1010	0.45051	61.00352	0.86599	-28.68429	0.86599	-28.68429	0.45051	61.00352
1030	0.45662	60.6426	0.86264	-29.14492	0.86264	-29.14492	0.45662	60.6426
1050	0.46577	60.4721	0.85884	-29.80902	0.85884	-29.80902	0.46577	60.4721
1070	0.47594	59.9	0.85402	-30.29482	0.85402	-30.29482	0.47594	59.9
1090	0.4833	59.39517	0.85007	-30.75706	0.85007	-30.75706	0.4833	59.39517
1110	0.48992	58.95277	0.84602	-31.21605	0.84602	-31.21605	0.48992	58.95277
1130	0.4967	58.51749	0.8415	-31.67275	0.8415	-31.67275	0.4967	58.51749
1150	0.50339	57.98357	0.83676	-32.10882	0.83676	-32.10882	0.50339	57.98357
1170	0.51146	57.36549	0.83175	-32.78614	0.83175	-32.78614	0.51146	57.36549
1190	0.51787	56.97708	0.82784	-33.1574	0.82784	-33.1574	0.51787	56.97708
1210	0.52399	56.5367	0.82524	-33.62663	0.82524	-33.62663	0.52399	56.5367
1230	0.5305	56.00846	0.82238	-34.24413	0.82238	-34.24413	0.5305	56.00846
1250	0.53728	55.60227	0.81588	-34.70654	0.81588	-34.70654	0.53728	55.60227
1270	0.54561	55.35658	0.81281	-34.81455	0.81281	-34.81455	0.54561	55.35658
1290	0.5522	54.6496	0.80781	-35.5792	0.80781	-35.5792	0.5522	54.6496
1310	0.55725	54.1583	0.8025	-36.17198	0.8025	-36.17198	0.55725	54.1583
1330	0.56248	53.95855	0.79837	-36.44937	0.79837	-36.44937	0.56248	53.95855
1350	0.57106	53.52509	0.7968	-36.95285	0.7968	-36.95285	0.57106	53.52509
1370	0.5785	52.8625	0.79141	-37.70593	0.79141	-37.70593	0.5785	52.8625
1390	0.58339	52.54425	0.7869	-37.90448	0.7869	-37.90448	0.58339	52.54425
1410	0.58989	52.16673	0.78366	-38.26715	0.78366	-38.26715	0.58989	52.16673
1430	0.59712	51.63248	0.77983	-38.90006	0.77983	-38.90006	0.59712	51.63248
1450	0.59923	51.15016	0.7713	-39.29674	0.7713	-39.29674	0.59923	51.15016
1470	0.60441	50.82645	0.76845	-39.5538	0.76845	-39.5538	0.60441	50.82645
1490	0.60971	50.08386	0.76522	-40.24675	0.76522	-40.24675	0.60971	50.08386
1510	0.61459	49.50008	0.75944	-40.80551	0.75944	-40.80551	0.61459	49.50008
1530	0.61985	49.19371	0.75292	-41.12506	0.75292	-41.12506	0.61985	49.19371
1550	0.62767	48.8243	0.7514	-41.56552	0.7514	-41.56552	0.62767	48.8243
1570	0.63279	48.17607	0.74462	-42.1888	0.74462	-42.1888	0.63279	48.17607
1590	0.63652	47.56492	0.74005	-42.59481	0.74005	-42.59481	0.63652	47.56492
1610	0.64171	47.21477	0.73582	-42.87211	0.73582	-42.87211	0.64171	47.21477
1630	0.64811	47.01687	0.73101	-43.13276	0.73101	-43.13276	0.64811	47.01687
1650	0.65229	46.52982	0.72563	-43.51233	0.72563	-43.51233	0.65229	46.52982
1670	0.65649	45.72716	0.72024	-44.09017	0.72024	-44.09017	0.65649	45.72716
1690	0.65892	45.33989	0.71377	-44.4286	0.71377	-44.4286	0.65892	45.33989
1710	0.66425	44.98333	0.70934	-44.78226	0.70934	-44.78226	0.66425	44.98333
1730	0.67252	44.45681	0.70689	-45.29617	0.70689	-45.29617	0.67252	44.45681
1750	0.67913	43.74371	0.70324	-46.0057	0.70324	-46.0057	0.67913	43.74371
1770	0.68271	43.37832	0.69572	-46.30463	0.69572	-46.30463	0.68271	43.37832
1790	0.68823	43.1535	0.69403	-46.58961	0.69403	-46.58961	0.68823	43.1535
1810	0.69233	42.73062	0.6897	-46.99393	0.6897	-46.99393	0.69233	42.73062
1830	0.69506	42.12846	0.68216	-47.40776	0.68216	-47.40776	0.69506	42.12846
1850	0.69992	41.72316	0.67874	-47.47816	0.67874	-47.47816	0.69992	41.72316
1870	0.70417	40.84331	0.67435	-48.19018	0.67435	-48.19018	0.70417	40.84331
1890	0.70903	40.46267	0.66855	-48.74948	0.66855	-48.74948	0.70903	40.46267
1910	0.7144	40.14328	0.66307	-49.00634	0.66307	-49.00634	0.7144	40.14328
1930	0.72047	39.7046	0.65886	-49.1689	0.65886	-49.1689	0.72047	39.7046
1950	0.72768	39.22347	0.65615	-49.80308	0.65615	-49.80308	0.72768	39.22347
1970	0.72891	38.55924	0.64856	-50.1944	0.64856	-50.1944	0.72891	38.55924
1990	0.73301	38.29743	0.64249	-50.44384	0.64249	-50.44384	0.73301	38.29743
2010	0.73784	38.06251	0.63838	-50.6816	0.63838	-50.6816	0.73784	38.06251
2030	0.74236	37.63237	0.63539	-51.03195	0.63539	-51.03195	0.74236	37.63237
2050	0.74659	36.93828	0.63144	-51.61329	0.63144	-51.61329	0.74659	36.93828
2070	0.74616	36.47258	0.62379	-52.05157	0.62379	-52.05157	0.74616	36.47258
2090	0.75008	36.2552	0.61762	-52.2268	0.61762	-52.2268	0.75008	36.2552
2110	0.75628	35.80525	0.61424	-52.69454	0.61424	-52.69454	0.75628	35.80525
2130	0.7617	35.16253	0.6115	-53.35319	0.6115	-53.35319	0.7617	35.16253
2150	0.76224	34.88753	0.60384	-53.444	0.60384	-53.444	0.76224	34.88753
2170	0.76712	34.69609	0.59929	-53.47515	0.59929	-53.47515	0.76712	34.69609
2190	0.77305	34.20604	0.59545	-53.94566	0.59545	-53.94566	0.77305	34.20604
2210	0.77698	33.66722	0.58989	-54.39489	0.58989	-54.39489	0.77698	33.66722
2230	0.77926	33.1881	0.58375	-54.73905	0.58375	-54.73905	0.77926	33.1881
2250	0.78364	32.73576	0.58175	-55.2712	0.58175	-55.2712	0.78364	32.73576
2270	0.7852	32.23677	0.57548	-55.7003	0.57548	-55.7003	0.7852	32.23677
2290	0.78751	32.03394	0.56995	-55.97461	0.56995	-55.97461	0.78751	32.03394
2310	0.7934	31.78267	0.56684	-56.25556	0.56684	-56.25556	0.7934	31.78267
2330	0.79989	31.27853	0.56405	-56.6823	0.56405	-56.6823	0.79989	31.27853
2350	0.79819	30.45733	0.55566	-57.37169	0.55566	-57.37169	0.79819	30.45733
2370	0.80048	30.46656	0.55017	-57.10376	0.55017	-57.10376	0.80048	30.46656
2390	0.80753	30.11109	0.54803	-57.45691	0.54803	-57.45691	0.80753	30.11109
2410	0.81132	29.6753	0.54396	-58.0046	0.54396	-58.0046	0.81132	29.6753
2430	0.81096	29.28391	0.53703	-58.43553	0.53703	-58.43553	0.81096	29.28391
2450	0.81264	28.90204	0.53065	-58.55364	0.53065	-58.55364	0.81264	28.90204
2470	0.81951	28.49831	0.52774	-58.86371	0.52774	-58.86371	0.81951	28.49831
2490	0.82218	27.94578	0.52299	-59.35216	0.52299	-59.35216	0.82218	27.94578
2510	0.82221	27.54572	0.51781	-59.75874	0.51781	-59.75874	0.82221	27.54572
2530	0.82239	27.32424	0.51286	-59.99271	0.51286	-59.99271	0.82239	27.32424
2550	0.82671	27.03232	0.50811	-60.13283	0.50811	-60.13283	0.82671	27.03232
2570	0.83173	26.48427	0.5042	-60.38478	0.5042	-60.38478	0.83173	26.48427
2590	0.83421	26.11833	0.49841	-60.87063	0.49841	-60.87063	0.83421	26.11833
2610	0.83531	25.75181	0.49344	-61.2681	0.49344	-61.2681	0.83531	25.75181
2630	0.83709	25.33621	0.48907	-61.52706	0.48907	-61.52706	0.83709	25.33621
2650	0.84246	24.95721	0.48212	-61.86959	0.48212	-61.86959	0.84246	24.95721
2670	0.8447	24.74082	0.47846	-62.06661	0.47846	-62.06661	0.8447	24.74082
2690	0.84967	24.36163	0.47462	-62.40702	0.47462	-62.40702	0.84967	24.36163
2710	0.854	23.95647	0.46912	-62.79573	0.46912	-62.79573	0.854	23.95647
2730	0.85531	23.58696	0.46292	-63.12237	0.46292	-63.12237	0.85531	23.58696
2750	0.85216	23.23954	0.45937	-63.26132	0.45937	-63.26132	0.85216	23.23954
2770	0.85044	22.70329	0.45377	-63.77499	0.45377	-63.77499	0.85044	22.70329
2790	0.85617	22.35946	0.449	-64.07446	0.449	-64.07446	0.85617	22.35946
2810	0.86338	22.03856	0.44346	-64.42492	0.44346	-64.42492	0.86338	22.03856
2830	0.86692	21.67478	0.43765	-64.8504	0.43765	-64.8504	0.86692	21.67478
2850	0.86241	21.30593	0.43414	-65.13372	0.43414	-65.13372	0.86241	21.30593
2870	0.86525	21.05617	0.42874	-65.07759	0.42874	-65.07759	0.86525	21.05617
2890	0.87072	21.03069	0.42461	-65.31243	0.42461	-65.31243	0.87072	21.03069
2910	0.87486	20.71399	0.41995	-65.74557	0.41995	-65.74557	0.87486	20.71399
2930	0.87635	20.1938	0.41422	-66.1729	0.41422	-66.1729	0.87635	20.1938
2950	0.87659	20.16102	0.40821	-66.27889	0.40821	-66.27889	0.87659	20.16102
2970	0.88121	19.51212	0.40512	-66.66783	0.40512	-66.66783	0.88121	19.51212
2990	0.88414	18.97855	0.40101	-67.07947	0.40101	-67.07947	0.88414	18.97855
3010	0.8855	18.6705	0.39602	-67.36023	0.39602	-67.36023	0.8855	18.6705
3030	0.88668	18.52348	0.39063	-67.49474	0.39063	-67.49474	0.88668	18.52348
3050	0.89036	18.29832	0.38562	-67.60581	0.38562	-67.60581	0.89036	18.29832
3070	0.89001	17.487	0.38135	-68.19069	0.38135	-68.19069	0.89001	17.487
3090	0.88894	17.11105	0.37678	-68.56662	0.37678	-68.56662	0.88894	17.11105
3110	0.88873	17.069	0.37111	-68.60494	0.37111	-68.60494	0.88873	17.069
3130	0.89174	17.08948	0.3653	-68.54644	0.3653	-68.54644	0.89174	17.08948
3150	0.90106	16.73121	0.36202	-69.00133	0.36202	-69.00133	0.90106	16.73121
3170	0.89595	15.96941	0.35675	-69.47888	0.35675	-69.47888	0.89595	15.96941
3190	0.89806	15.78598	0.35044	-69.65036	0.35044	-69.65036	0.89806	15.78598
3210	0.9028	15.5732	0.34601	-69.85252	0.34601	-69.85252	0.9028	15.5732
3230	0.90602	15.18558	0.34303	-70.1967	0.34303	-70.1967	0.90602	15.18558
3250	0.90391	14.93989	0.33777	-70.56887	0.33777	-70.56887	0.90391	14.93989
3270	0.91126	14.77877	0.33406	-70.90903	0.33406	-70.90903	0.91126	14.77877
3290	0.90937	14.24644	0.32888	-71.15146	0.32888	-71.15146	0.90937	14.24644
3310	0.90713	13.86198	0.32312	-71.37465	0.32312	-71.37465	0.90713	13.86198
3330	0.90902	13.75906	0.31801	-71.53429	0.31801	-71.53429	0.90902	13.75906
3350	0.91502	13.68586	0.3151	-71.46327	0.3151	-71.46327	0.91502	13.68586
3370	0.91575	12.80594	0.30933	-72.0964	0.30933	-72.0964	0.91575	12.80594
3390	0.91417	12.38465	0.30335	-72.58553	0.30335	-72.58553	0.91417	12.38465
3410	0.91649	12.36031	0.29857	-72.64301	0.29857	-72.64301	0.91649	12.36031
3430	0.9218	12.37192	0.29529	-72.55293	0.29529	-72.55293	0.9218	12.37192
3450	0.92212	11.75916	0.29267	-73.17114	0.29267	-73.17114	0.92212	11.75916
3470	0.91706	11.09902	0.28527	-73.67453	0.28527	-73.67453	0.91706	11.09902
3490	0.9171	11.07662	0.28023	-73.54198	0.28023	-73.54198	0.9171	11.07662
3510	0.92328	10.82752	0.27695	-73.59271	0.27695	-73.59271	0.92328	10.82752
3530	0.93043	10.17828	0.27361	-74.0533	0.27361	-74.0533	0.93043	10.17828
3550	0.92717	9.64648	0.2671	-74.55771	0.2671	-74.55771	0.92717	9.64648
3570	0.92588	9.83955	0.26185	-74.20759	0.26185	-74.20759	0.92588	9.83955
3590	0.92907	9.54512	0.25842	-74.52851	0.25842	-74.52851	0.92907	9.54512
3610	0.93091	9.20062	0.25414	-74.95671	0.25414	-74.95671	0.93091	9.20062
3630	0.93058	8.99513	0.24883	-75.14033	0.24883	-75.14033	0.93058	8.99513
3650	0.93226	8.86937	0.24482	-74.93954	0.24482	-74.93954	0.93226	8.86937
3670	0.93447	8.12838	0.2411	-75.58481	0.2411	-75.58481	0.93447	8.12838
3690	0.93125	7.98358	0.23504	-75.83139	0.23504	-75.83139	0.93125	7.98358
3710	0.93168	7.75152	0.22997	-76.02284	0.22997	-76.02284	0.93168	7.75152
3730	0.93668	7.22742	0.2264	-76.3431	0.2264	-76.3431	0.93668	7.22742
3750	0.939	6.68525	0.22205	-76.81652	0.22205	-76.81652	0.939	6.68525
3770	0.93776	6.78276	0.2165	-76.54357	0.2165	-76.54357	0.93776	6.78276
3790	0.94189	6.77393	0.21304	-76.78965	0.21304	-76.78965	0.94189	6.77393
3810	0.94331	6.43678	0.20903	-77.12187	0.20903	-77.12187	0.94331	6.43678
3830	0.9412	5.8634	0.20408	-77.34412	0.20408	-77.34412	0.9412	5.8634
3850	0.94199	5.45995	0.20006	-77.49702	0.20006	-77.49702	0.94199	5.45995
3870	0.93946	5.05126	0.19468	-77.74161	0.19468	-77.74161	0.93946	5.05126
3890	0.94342	4.9273	0.19078	-77.60111	0.19078	-77.60111	0.94342	4.9273
3910	0.94777	4.502	0.18702	-77.8369	0.18702	-77.8369	0.94777	4.502
3930	0.94886	3.82156	0.18263	-78.41721	0.18263	-78.41721	0.94886	3.82156
3950	0.9454	3.56445	0.1774	-78.51707	0.1774	-78.51707	0.9454	3.56445
3970	0.94671	3.9977	0.17308	-78.48161	0.17308	-78.48161	0.94671	3.9977
3990	0.95133	3.6413	0.16921	-78.61912	0.16921	-78.61912	0.95133	3.6413
4010	0.95214	3.04571	0.16506	-78.84864	0.16506	-78.84864	0.95214	3.04571
4030	0.94893	2.54584	0.16052	-79.03881	0.16052	-79.03881	0.94893	2.54584
4050	0.94834	2.26106	0.15617	-79.00791	0.15617	-79.00791	0.94834	2.26106
4070	0.95233	2.03282	0.15206	-79.42206	0.15206	-79.42206	0.95233	2.03282
4090	0.95613	1.38717	0.14784	-79.58241	0.14784	-79.58241	0.95613	1.38717
4110	0.95627	0.79635	0.14352	-79.84908	0.14352	-79.84908	0.95627	0.79635
4130	0.95244	0.56691	0.13906	-80.06806	0.13906	-80.06806	0.95244	0.56691
4150	0.94746	0.83973	0.13437	-79.5712	0.13437	-79.5712	0.94746	0.83973
4170	0.96011	0.42643	0.13135	-79.93981	0.13135	-79.93981	0.96011	0.42643
4190	0.95963	-0.12284	0.12699	-80.22464	0.12699	-80.22464	0.95963	-0.12284
4210	0.95696	-0.37053	0.12244	-80.13242	0.12244	-80.13242	0.95696	-0.37053
4230	0.95878	-0.43027	0.11834	-79.86791	0.11834	-79.86791	0.95878	-0.43027
4250	0.96758	-0.96686	0.11481	-80.13395	0.11481	-80.13395	0.96758	-0.96686
4270	0.95938	-1.21189	0.10985	-80.25366	0.10985	-80.25366	0.95938	-1.21189
4290	0.96143	-1.52788	0.10609	-80.23801	0.10609	-80.23801	0.96143	-1.52788
4310	0.96445	-2.06859	0.10228	-80.33762	0.10228	-80.33762	0.96445	-2.06859
4330	0.96567	-2.60654	0.09816	-80.47279	0.09816	-80.47279	0.96567	-2.60654
4350	0.96884	-2.5329	0.0944	-80.23356	0.0944	-80.23356	0.96884	-2.5329
4370	0.96854	-2.91544	0.09013	-80.15247	0.09013	-80.15247	0.96854	-2.91544
4390	0.96632	-3.22035	0.0857	-80.02652	0.0857	-80.02652	0.96632	-3.22035
4410	0.96483	-3.3949	0.08152	-79.83509	0.08152	-79.83509	0.96483	-3.3949
4430	0.96489	-3.66196	0.0776	-79.60404	0.0776	-79.60404	0.96489	-3.66196
4450	0.9654	-4.51998	0.07355	-79.40572	0.07355	-79.40572	0.9654	-4.51998
4470	0.96777	-4.56832	0.06984	-78.94367	0.06984	-78.94367	0.96777	-4.56832
4490	0.97093	-5.11835	0.0661	-78.71967	0.0661	-78.71967	0.97093	-5.11835
4510	0.96906	-5.50832	0.06196	-78.44313	0.06196	-78.44313	0.96906	-5.50832
4530	0.96514	-5.50363	0.05768	-77.79054	0.05768	-77.79054	0.96514	-5.50363
4550	0.97091	-5.29682	0.05412	-76.40547	0.05412	-76.40547	0.97091	-5.29682
4570	0.97529	-6.36488	0.05057	-76.43584	0.05057	-76.43584	0.97529	-6.36488
4590	0.96498	-6.93089	0.04642	-75.72143	0.04642	-75.72143	0.96498	-6.93089
4610	0.96176	-6.92181	0.04246	-74.24845	0.04246	-74.24845	0.96176	-6.92181
4630	0.96987	-6.90791	0.0389	-72.56306	0.0389	-72.56306	0.96987	-6.90791
4650	0.97605	-8.10274	0.03534	-71.77138	0.03534	-71.77138	0.97605	-8.10274
4670	0.96808	-8.48912	0.03145	-69.63031	0.03145	-69.63031	0.96808	-8.48912
4690	0.96842	-8.59227	0.02794	-66.48849	0.02794	-66.48849	0.96842	-8.59227
4710	0.97097	-8.73114	0.02455	-62.60067	0.02455	-62.60067	0.97097	-8.73114
4730	0.97314	-9.06388	0.02132	-57.71847	0.02132	-57.71847	0.97314	-9.06388
4750	0.97585	-9.58781	0.01856	-51.09029	0.01856	-51.09029	0.97585	-9.58781
4770	0.96947	-9.92889	0.01565	-42.42418	0.01565	-42.42418	0.96947	-9.92889
4790	0.96681	-10.15545	0.01355	-30.17457	0.01355	-30.17457	0.96681	-10.15545
4810	0.96877	-10.47494	0.01243	-14.92738	0.01243	-14.92738	0.96877	-10.47494
4830	0.97231	-10.9559	0.01228	2.09712	0.01228	2.09712	0.97231	-10.9559
4850	0.97044	-11.52796	0.01285	19.04433	0.01285	19.04433	0.97044	-11.52796
4870	0.97521	-11.46508	0.01491	31.63113	0.01491	31.63113	0.97521	-11.46508
4890	0.97256	-11.91977	0.01726	40.95878	0.01726	40.95878	0.97256	-11.91977
4910	0.96889	-12.26378	0.01994	48.37002	0.01994	48.37002	0.96889	-12.26378
4930	0.97074	-12.41453	0.02301	54.2434	0.02301	54.2434	0.97074	-12.41453
4950	0.98472	-12.83504	0.02654	57.99331	0.02654	57.99331	0.98472	-12.83504
4970	0.97233	-13.68609	0.02948	60.5191	0.02948	60.5191	0.97233	-13.68609
4990	0.96718	-13.57582	0.0327	63.26885	0.0327	63.26885	0.96718	-13.57582
5010	0.97353	-13.63439	0.03618	65.30518	0.03618	65.30518	0.97353	-13.63439
5030	0.98189	-14.30653	0.03966	66.40743	0.03966	66.40743	0.98189	-14.30653
5050	0.96899	-15.3515	0.04263	67.07171	0.04263	67.07171	0.96899	-15.3515
5070	0.96605	-14.60612	0.04612	69.2532	0.04612	69.2532	0.96605	-14.60612
5090	0.97532	-14.79861	0.04986	70.01073	0.04986	70.01073	0.97532	-14.79861
5110	0.97808	-15.48969	0.05346	70.12234	0.05346	70.12234	0.97808	-15.48969
5130	0.96966	-16.08102	0.05672	70.31546	0.05672	70.31546	0.96966	-16.08102
5150	0.95941	-15.81522	0.05959	71.26697	0.05959	71.26697	0.95941	-15.81522
5170	0.96768	-15.98732	0.06355	71.98096	0.06355	71.98096	0.96768	-15.98732
5190	0.97391	-16.83686	0.06707	71.96565	0.06707	71.96565	0.97391	-16.83686
5210	0.96835	-17.47659	0.07	71.96062	0.07	71.96062	0.96835	-17.47659
5230	0.95864	-17.45717	0.07284	72.39539	0.07284	72.39539	0.95864	-17.45717
5250	0.96985	-16.76711	0.07673	73.38943	0.07673	73.38943	0.96985	-16.76711
5270	0.98057	-17.99701	0.08095	72.42285	0.08095	72.42285	0.98057	-17.99701
5290	0.96793	-18.45897	0.08331	72.2401	0.08331	72.2401	0.96793	-18.45897
5310	0.96483	-18.29055	0.0863	72.86745	0.0863	72.86745	0.96483	-18.29055
5330	0.97692	-18.162	0.09046	73.4918	0.09046	73.4918	0.97692	-18.162
5350	0.98258	-19.27627	0.09446	72.46073	0.09446	72.46073	0.98258	-19.27627
5370	0.96377	-19.51327	0.09646	72.59279	0.09646	72.59279	0.96377	-19.51327
5390	0.96795	-19.24325	0.09999	72.91873	0.09999	72.91873	0.96795	-19.24325
5410	0.9746	-19.47381	0.10373	72.81021	0.10373	72.81021	0.9746	-19.47381
5430	0.97437	-20.13975	0.10694	72.48114	0.10694	72.48114	0.97437	-20.13975
