!Keysight Technologies N9917A: A.08.15
!Date: Friday, 27 October 2017 09:07:55
!Timezone: (GMT-08:00) Pacific Time (US & Canada)
!Model: N9917A
!Serial: MY53102735
!GPS Latitude: 
!GPS Longitude: 
!GPS TimeStamp: 0001-01-01 00:00:00Z
!GPS Seconds Since Last Read: 0
!CHECKSUM:1795214090
!Correction: S11(ON U)S21(ON U)S12(ON U)S22(ON U)
!S2P File: Measurements:S11,S21,S12,S22:
# Hz S DB R 50
1000000000	-0.784461870611862	57.7167097915315	11.1663738941699	158.972523149346	-48.6997369264779	146.148387124801	-13.7787935749731	-134.567620749667	
1021250000	-0.652935068227299	54.0663949450192	11.1513896096223	151.927908958841	-43.7230936053779	81.5566492837793	-13.9831885509425	-128.526272401687	
1042500000	-0.492999740843865	51.683119991468	11.1237262611575	145.092076297416	-59.2300765234232	-124.613438228212	-13.7842942457458	-123.333974128225	
1063750000	-0.607080463694244	48.2665282196493	10.873063353468	137.692671540692	-46.1791460095773	33.7709332918553	-13.3156442453433	-126.366558885794	
1085000000	-0.760568948082101	44.1184741983312	10.7696391751748	131.289728075486	-42.9605482709847	162.148507751499	-12.2234457550577	-126.378860124456	
1106250000	-0.774483295605035	40.7066585105637	10.5813664139695	126.067856270561	-43.7502697486059	89.5040277850077	-11.2701436658841	-127.791904443772	
1127500000	-0.595526544988731	39.0802681725853	10.438943711182	120.61839368596	-44.2625481276738	-68.0269524167483	-10.7406822308246	-126.423557397122	
1148750000	-0.48202706633968	36.4105889911192	10.0809878248788	113.88523528942	-46.5157114328293	50.0348180818338	-10.630694763177	-133.705413932932	
1170000000	-0.68441105164025	33.0300151968689	9.56996574262219	108.684669530434	-45.2250999782502	-27.3358985596812	-9.70113122338248	-136.951794750525	
1191250000	-0.738803477481219	28.4212505755125	9.01074783235219	104.862081104619	-53.8915465542714	144.981248599415	-8.39577518186482	-142.254471381205	
1212500000	-0.62335136702204	24.651568583201	8.20162575993681	102.063161558539	-49.0228226803533	48.4635149940933	-7.63791871074578	-147.560818674106	
1233750000	-0.582713075026998	23.5658097972152	7.1392170479149	104.637261743027	-52.2522281357615	164.005226632099	-7.37335329547838	-157.97341848994	
1255000000	-0.874137141297322	19.6956310236914	6.60899712598229	115.005546276706	-48.3485635754953	97.0287343925739	-6.72304807354396	-172.424263502917	
1276250000	-1.10005162487171	15.2352662045594	8.43584236590871	125.044967953967	-59.2613022346382	44.2109398695717	-6.535833909692	173.289751939303	
1297500000	-1.11291086141134	10.8330611534969	10.9725181525978	122.522032063154	-57.9848020120157	54.4525800469111	-7.97443342239975	159.667074051962	
1318750000	-0.883724749086172	8.64507729195579	12.6426890690214	112.393198380848	-41.4073820471415	98.5631651022117	-10.5042665358854	146.723600294109	
1340000000	-1.12989796420135	7.45132751499401	13.5694241811873	101.265435573667	-40.6399679577244	63.2259980168006	-12.3736694744668	145.645033451737	
1361250000	-1.3855544090574	3.28863078746185	13.6267907557435	90.5906236923618	-41.3663018390494	28.7510101996335	-13.5901717615202	148.248340738228	
1382500000	-1.34762657091332	-1.08478703283482	13.6750349061091	83.3341732130256	-39.9496676778455	92.7092650136426	-14.7638863232327	162.405149409728	
1403750000	-1.02940806949932	-3.17306597493702	13.951660757246	76.7452076156399	-43.4062178718289	56.7453109146438	-15.528999404436	171.195151073467	
1425000000	-1.00053147140637	-5.91407822087191	14.0320929137008	71.9113704788747	-40.6938577459927	24.9705478130521	-14.7850279098369	173.287578573565	
1446250000	-1.45762372049433	-9.13089885119023	14.1320695107181	65.2594343113654	-39.0720748471803	32.5992618450056	-13.7810309414556	169.341278799779	
1467500000	-1.47122920558794	-12.9847066271383	14.3129161626264	59.6170559961963	-45.0414556460531	35.4029138885492	-12.6781503345093	173.773227471787	
1488750000	-1.18146386983068	-17.0885612391586	14.4485597402509	54.9779429199233	-43.4587294073959	12.1355488741057	-12.5241870490991	174.465667285374	
1510000000	-1.17257504048327	-19.8792736647426	14.6553165627831	49.4399160711863	-38.9854315377693	-10.4420371067458	-12.0592275542888	171.057830796625	
1531250000	-1.47253109680583	-22.1167007142146	14.7229186161507	44.181491115303	-43.3080446979807	1.25372229980487	-11.8288343362941	162.714040863617	
1552500000	-1.66356961617634	-27.7258210887061	14.8427950551205	38.0487233403483	-38.4774696001665	11.9311725387017	-10.8262912028599	162.42880833509	
1573750000	-1.26475140863747	-31.9054033427723	15.1013983031617	33.1429080231298	-35.841154659274	-13.7327019675748	-11.0061605069453	160.314738771436	
1595000000	-1.21259705842636	-35.0806463311647	15.2295567120104	28.3807029419639	-36.4527473123293	-14.4571383734011	-11.191575371953	159.849683368997	
1616250000	-1.44894685337828	-35.9440748804256	15.2840718037203	23.6726201193344	-42.63118225008	-24.4332682366476	-10.8223072230429	150.266196952168	
1637500000	-1.72099572141054	-42.1296335305099	15.3916066876035	17.7007719598801	-47.1863588951788	-2.48341778842881	-9.98478629051531	149.140138797088	
1658750000	-1.74894074785996	-46.3261650983333	15.5008239661496	12.5849535068437	-36.0258233947127	-27.5848213300388	-10.0617916249574	144.302573583239	
1680000000	-1.50279538341141	-50.1762748341909	15.776369271724	8.35344667231099	-40.3729167275642	-42.7320910110261	-10.0791940911662	141.467226237658	
1701250000	-1.55748949048481	-52.0716456932283	15.9083597303922	3.0437212736261	-40.1960924309909	-27.9036677631722	-10.3061383967283	133.838834991834	
1722500000	-1.87525190449618	-56.2113548699825	15.9611633615475	-2.42081743300464	-41.9436481396549	-77.0908814379227	-9.84790579875952	130.166432636777	
1743750000	-2.26594357228524	-61.3929621699404	15.9798280390652	-7.15381617802913	-36.5187856522134	-38.3572396392744	-9.21823229556618	128.07703168601	
1765000000	-2.11707844660216	-65.5852524290454	16.2368408737182	-12.3777909059824	-45.1321699620656	-33.6957421083633	-9.33377005795536	123.871645445502	
1786250000	-1.91636613865614	-67.065839245442	16.3629118384214	-16.6920709514256	-40.6257164917224	-60.2429639243131	-9.73392460908757	117.241403187787	
1807500000	-2.22096166048321	-72.3088910798321	16.5086570770502	-21.214515648019	-36.3306000005114	-34.7310510850155	-9.23357287586777	113.491385614483	
1828750000	-2.45094150284249	-77.0998742322074	16.5869440991648	-27.1581702519421	-38.3766458924978	-45.6071628846345	-8.82082255678505	110.836942074797	
1850000000	-2.50649736359096	-81.4203098997801	16.5989738612859	-32.1514961866671	-36.9015651090558	-53.0469813097265	-8.89527374572464	107.699735865034	
1871250000	-2.25565582967812	-84.6369194650335	16.8346651594089	-36.8630493447484	-37.9411263440986	-70.3675234371051	-9.16644270893284	102.420007794058	
1892500000	-2.51609382444239	-87.3800206093678	17.0073909822353	-40.9388380454784	-32.8600703202218	-73.472470854137	-8.82706370592807	96.7806572562122	
1913750000	-2.99853454078028	-92.863422010624	17.0715013515726	-46.4143417793474	-35.6809091177531	-66.8012159049506	-8.60665052514731	91.6779229178163	
1935000000	-2.80388356888305	-97.2458274888205	17.1267469483552	-50.5845206600149	-37.8457115503988	-105.243270829438	-8.60577611335497	92.244901019213	
1956250000	-2.84850718013303	-100.831666273078	17.1781700962439	-57.165417924044	-36.6375311298401	-86.8361503969812	-9.42372698600322	83.9419105876335	
1977500000	-2.80743839855889	-103.377734164	17.4595853730578	-61.6922911472786	-34.6433629514532	-81.0316604674816	-9.02195858830481	77.6373803490271	
1998750000	-3.40656731074988	-109.010510649306	17.4649681890557	-66.2971566928686	-36.3182310738778	-97.3795730940396	-8.40059141553232	75.4876097087622	
2020000000	-3.47027797304334	-114.382650791556	17.5520186468477	-70.997880742875	-35.6990361896724	-96.827744504673	-8.50944565365167	71.3609855659072	
2041250000	-3.15773072922697	-116.673274181722	17.668854438566	-76.0191624577839	-35.6344684648852	-97.0167701118919	-9.29774822586649	66.8492177786642	
2062500000	-3.44450293535875	-120.271610877848	17.7061926122658	-81.8368122260129	-34.3849970835104	-97.7436215424735	-9.4311849354897	61.4107697431137	
2083750000	-3.78882835909661	-124.926812041576	17.8267004553963	-86.4259796493502	-36.9641424793152	-112.700916648356	-8.66324787041451	57.5893212336778	
2105000000	-4.30078317606082	-131.385671838893	17.7807288919469	-91.4933986418243	-37.4819426643973	-106.778691300652	-8.73781825915334	54.4003754524228	
2126250000	-4.02594437910503	-135.901577454057	17.8898769725673	-97.0219843273433	-33.7141643629859	-131.363292294614	-9.10669511601839	50.2661634751715	
2147500000	-4.11294415970901	-139.120522231975	17.9776820516277	-102.600843348207	-32.5678795763834	-126.540082728516	-9.39166865703156	41.6978919295604	
2168750000	-4.42152103777996	-141.203284564355	18.1007322458128	-105.317485020281	-34.5139065135067	-129.928835863168	-9.32449563319501	38.8196450870912	
2190000000	-4.83576494003897	-146.553804217953	18.0582163637289	-110.868902032216	-33.0132502290883	-132.672875673773	-9.10307699019144	35.1168535059722	
2211250000	-4.91714514195031	-152.076441040577	18.0931058043536	-115.880684705555	-34.4750749450562	-142.120190217795	-9.35099148097646	31.7945646098378	
2232500000	-4.75760845874719	-153.353872998293	18.202463378742	-120.681625443687	-34.006140043991	-146.63378648885	-9.74921457775357	24.6028467224001	
2253750000	-5.12558591929552	-158.5830500028	18.1895980183517	-126.1850953421	-31.9613568272481	-147.630388284917	-9.82276187762134	19.5460848638855	
2275000000	-5.68617147845294	-162.611784271405	18.231608640427	-131.149709304626	-31.8884744195218	-151.852425468806	-9.46181943255014	16.4128757597172	
2296250000	-5.38277519265958	-167.717352318996	18.284983106252	-135.831354019179	-30.0017709065557	-159.795519310478	-10.2079840525878	12.8400983361075	
2317500000	-5.79891262025348	-171.176762457761	18.2044556706797	-141.138153478549	-32.5867269657401	-159.040123644055	-10.2735150186926	6.31751165933554	
2338750000	-6.27113195532593	-174.863745376714	18.3231433257178	-145.495167938296	-31.0746288488945	-168.739560208152	-10.2679576870069	2.15616487171626	
2360000000	-6.79033008803017	-179.188492381353	18.3455853906148	-150.738093866481	-31.6864665432079	-174.190555913534	-10.3868467502762	-3.76367889930397	
2381250000	-6.78119926443659	173.792922659498	18.2878582345481	-155.720832419968	-32.3699007817401	174.077073033003	-10.2958211776125	-6.76537328871015	
2402500000	-6.50743429333249	173.130735722261	18.3944968127061	-160.591924604297	-31.7913105639207	172.963019583116	-11.2895023000073	-10.5279884565658	
2423750000	-6.90010834377452	170.009346560359	18.2995153951307	-166.203089561445	-32.5400309731778	167.979139414431	-11.2923222922826	-18.7051626300094	
2445000000	-7.42593823180198	165.155608938698	18.3280864704304	-170.024571823658	-30.5945596082681	158.639797202887	-11.2337847343425	-20.4241889500623	
2466250000	-7.98148944141273	159.840128911968	18.3156308021079	-175.820706389507	-33.2971445483164	163.039140626914	-10.8257321001413	-22.4651643220122	
2487500000	-7.98667269894556	157.66853913108	18.1948641580166	-179.200808239498	-31.1677209027542	153.843562736905	-11.8230755764695	-27.7038324066715	
2508750000	-7.96439659170052	153.414679929608	18.1859279416016	175.204989487014	-31.6632363265197	154.654693989807	-12.3666013902803	-34.8268962587885	
2530000000	-8.82177516284902	150.218017001164	18.1789578325772	170.79435273097	-30.6173410348043	152.662819179116	-11.9560554301341	-39.9678832716683	
2551250000	-9.18577310246502	143.935698359035	18.2354149736172	165.927808455843	-32.1288870126809	136.678570329699	-12.0027567764066	-42.904846712373	
2572500000	-9.09167511821035	141.056172814429	18.2121402662392	160.997622024105	-29.7650721447012	155.134271276397	-13.4611288878783	-47.2507973835572	
2593750000	-9.51049077240854	138.975520818696	18.1001487439878	156.834126397323	-30.3018469824114	132.343760598407	-13.1123977930515	-53.2818006351245	
2615000000	-9.87847810857064	136.738209111345	18.1125933412809	151.847440544204	-31.0460220615122	130.520847613844	-13.1669834476111	-56.831720770088	
2636250000	-10.6473691962637	132.43652374973	18.0617455448415	146.979031210618	-30.6202835187833	117.558193679658	-13.3689175301158	-58.9453164241519	
2657500000	-10.9815607930375	126.891455508315	17.9720551285743	142.192893857855	-31.3306990754272	118.003720995042	-13.9329808248099	-60.8952021987863	
2678750000	-10.6315925311677	125.135901787376	17.8887808315743	137.795665158423	-29.7051378330885	119.095908392695	-15.0921487323314	-72.6818519209775	
2700000000	-11.1972636741128	124.533337086123	17.8720558049338	133.466175350323	-30.9895148994557	125.244757055275	-14.8310032876783	-72.3990882931231	
2721250000	-11.5616382598956	117.883918529776	17.8332581488961	129.564585964022	-28.8314935548692	100.222152403754	-14.465260468048	-79.2372420326617	
2742500000	-11.9332199473766	116.191431253048	17.7726029496153	124.255844871591	-29.615059853606	111.277196165265	-14.9625938292712	-80.6109853421955	
2763750000	-12.1215758947623	115.234718463874	17.6387815742589	119.860920473133	-32.0931968263827	103.536390378138	-16.3945425279425	-86.5733270784357	
2785000000	-12.2992791076317	111.340878374461	17.7206803513456	115.02538080198	-30.4260718619808	85.2431992995071	-17.1475337792594	-95.6338712804567	
2806250000	-13.6272894687882	109.206147647046	17.5495998309831	110.888252267781	-29.2717352177364	91.5196529277853	-16.6264902625109	-95.5906864283801	
2827500000	-14.2101941239277	102.070039081881	17.5392855560629	106.905453879605	-29.5575543471396	85.6505694414001	-16.7132832061775	-96.8006414187695	
2848750000	-13.3011206500625	104.355929762405	17.4630873566526	102.926673774276	-29.7772574603409	86.9367071161746	-17.7776652200144	-97.7976443984236	
2870000000	-13.6877523032646	103.118040716709	17.381850029106	98.0202874736359	-29.0228445810029	79.6049710325132	-17.8732570191718	-113.585803838422	
2891250000	-15.2080828811082	101.068912278924	17.3697757337828	93.776375455704	-30.102857280633	88.7031579682596	-18.2484853615018	-114.703207324836	
2912500000	-15.6105234381597	96.145501479171	17.3271749262435	89.3315720032299	-30.7593813239141	75.8929737475721	-17.6982054508412	-110.202313077482	
2933750000	-15.5819571413025	88.2990341145162	17.1739974831581	85.6883595403828	-28.0270798427283	73.6321856470106	-19.2372009251067	-117.028447719479	
2955000000	-15.3819292329025	94.4378347801811	17.1507072566709	80.9596108496818	-28.9574804625247	60.3777535209868	-19.4152669866077	-128.034837669765	
2976250000	-16.0268831130051	95.2157079293577	17.082204924505	77.2165191921455	-30.0483004930586	61.261680452472	-19.3936282478616	-135.998572108412	
2997500000	-16.4387792551926	89.5435492502205	16.9808819780325	72.1839186473363	-29.4576942622378	55.4532387445566	-19.2646729675959	-130.345800309098	
3018750000	-17.6249846735412	85.5676544883516	16.9036896325565	68.4563169075257	-29.2518376330855	48.7201862540728	-21.6579603749565	-135.155831178233	
3040000000	-15.7709756757983	81.3416919154165	16.8714128020898	64.7144865018097	-29.401039555317	51.2636304688598	-23.30304355095	-149.764543243562	
3061250000	-17.1014157916795	87.8374365790851	16.7542156595626	60.0502153326797	-28.3511557190189	47.5497522078225	-22.6104565170181	-155.563715850863	
3082500000	-18.0728915601847	83.331270220631	16.8064638459058	56.2180136524297	-29.1514388412523	33.3248979300791	-21.7079300177437	-150.173945009811	
3103750000	-19.0167044508064	78.7457724586116	16.729744205959	51.5299529756301	-28.9985028909362	33.0142603623227	-23.4137015937668	-150.725232817351	
3125000000	-18.397266044637	77.0761789105191	16.645025406534	47.3226728011877	-28.859926507895	25.6759311647863	-25.1051725395242	-158.905804446279	
3146250000	-18.3800462057132	78.6537696739598	16.530935768638	43.8142680778165	-29.5846208903525	30.9479494049702	-28.1461244221372	175.23928545056	
3167500000	-20.4340992758558	87.8217118043721	16.5092846125147	39.6726323347291	-29.0723658081062	29.128797802168	-25.6438717204067	-173.998230354989	
3188750000	-20.0908015810703	77.5988741257764	16.4184973887159	35.7338530782178	-28.4847055538743	17.8634096816851	-29.0912982694859	-165.334320027522	
3210000000	-19.5275475230342	75.6128702024463	16.3833747414039	31.5646693798712	-28.8709430637315	17.0913818973753	-31.6442702121286	177.648952892428	
3231250000	-18.4555350752066	77.5675666997509	16.2821501134304	27.8784355505475	-28.0696748523109	24.9948750590579	-34.8511140269079	154.06202782891	
3252500000	-20.1209308403753	85.9228015295285	16.3050380227001	23.0490215464118	-28.9598198185393	11.833295434824	-32.278137949744	151.604842350593	
3273750000	-21.8909161884166	90.3386817000008	16.1160424604095	19.4974152386688	-28.8211494997927	6.08512371844218	-32.276038516163	158.037225426796	
3295000000	-20.3939622634863	78.3988293082143	16.1778824323985	15.4365780188764	-28.8554207804882	-1.99374336266177	-45.4742353583762	79.7407477003733	
3316250000	-19.1911588516416	81.9538791480617	16.0742481307604	11.611929893796	-26.961140723064	-5.14638037543758	-33.8271480655246	58.7480994409238	
3337500000	-18.6996745055417	81.6153805265069	15.9655584957438	6.65328174558653	-27.4584416964328	-9.45935887558794	-33.43133099783	58.3363347911443	
3358750000	-19.7265081869326	84.5875187158097	15.9130523899699	2.46088641936792	-27.5961247555628	-8.81834757045742	-35.3552821736233	54.3987635505674	
3380000000	-21.6817088384491	77.5672241011069	15.8638707424421	-0.935475084639823	-27.4780555622418	-6.31280603051983	-32.8010677166997	-20.4270536898291	
3401250000	-19.1542897019731	70.746070068864	15.7628034228768	-4.98839817023674	-28.8346541729683	-17.0499263416815	-26.1260461017809	-0.776716244850506	
3422500000	-19.2853993444733	81.9147626348191	15.7137871339414	-8.45511937045125	-28.6650472609416	-13.3045305066474	-28.5129522929149	4.85710202053079	
3443750000	-19.3480863905501	74.7013376651581	15.6380680191154	-12.9131327207791	-26.9532393598334	-26.2976316794279	-28.5631712015714	8.43113596433684	
3465000000	-22.496046909231	86.3332154226108	15.6140516985699	-17.3482754339559	-29.1838425114059	-33.1344888964203	-29.5752190036256	-25.9419911618646	
3486250000	-22.5255475051186	73.4172788246236	15.5795356576617	-20.7990727206181	-28.5630044019738	-23.1718626350993	-22.0699725064478	-24.9005289229629	
3507500000	-18.8402331402689	73.7699891116398	15.4291355993056	-24.5228913652758	-26.9249799966974	-36.66146488673	-24.7032859468624	-17.2342102763497	
3528750000	-19.2296395245781	92.9964741512559	15.3069325348778	-28.2464242422201	-28.8794134764877	-27.0415466761697	-25.4703480063318	-25.4902315207923	
3550000000	-20.1693261269808	87.4863196927783	15.3030572818078	-31.915098859863	-28.3387508678992	-43.1112021057798	-24.1085038989713	-31.9188715404148	
3571250000	-19.955381272969	66.6586703359209	15.3544469734044	-35.9048180020246	-28.772458838524	-46.400043434011	-21.0230162842447	-40.8205264385998	
3592500000	-19.3626170660766	69.9493589184663	15.2000086271079	-39.6507703170166	-27.5566760055435	-57.2773757160412	-20.970992290878	-35.3096807950898	
3613750000	-18.9036945079224	77.7434581047169	15.0999525260527	-43.6622667000787	-28.2452033585072	-51.7459360326914	-21.3330744343024	-43.1338138745188	
3635000000	-18.9551704176179	85.654852860184	15.1154787879885	-47.4061515598224	-30.1927212222781	-56.1990345230879	-21.6279398537684	-52.8794598540477	
3656250000	-19.6625783875255	71.1426223505043	15.0122063077101	-51.0665673211034	-30.1088834645608	-62.1393924013864	-19.7390645643341	-58.0579370985388	
3677500000	-19.0091786987339	66.2149801008814	14.9403710462043	-54.768244907651	-28.9811296714777	-62.2532965868712	-18.7721718753087	-60.0849201601906	
