!Keysight Technologies N9917A: A.08.15
!Date: Friday, 27 October 2017 10:01:24
!Timezone: (GMT-08:00) Pacific Time (US & Canada)
!Model: N9917A
!Serial: MY53102735
!GPS Latitude: 
!GPS Longitude: 
!GPS TimeStamp: 0001-01-01 00:00:00Z
!GPS Seconds Since Last Read: 0
!CHECKSUM:1210729977
!Correction: S11(ON U)S21(ON U)S12(ON U)S22(ON U)
!S2P File: Measurements:S11,S21,S12,S22:
# Hz S DB R 50
100000000	-45.0125896478259	23.7245465119477	-0.0382362316337351	-14.7161244382601	-0.0421592298515637	-14.6938317381006	-43.9832653065377	34.6636347353488	
122375000	-42.1176555211089	12.0274334401927	-0.0584403064516167	-17.9772046390659	-0.0704581218759559	-17.9438405853815	-42.3263466071983	76.0653873656766	
144750000	-42.066352298	24.1220117506629	-0.0753877791861601	-21.2764900735553	-0.085384358433115	-21.2850755311782	-43.7291809676182	86.8605147752239	
167125000	-43.0889473485898	29.3005290792509	-0.0587318563846244	-24.5781384820797	-0.0624035502839021	-24.5265806866531	-44.1166673846011	41.3612111973285	
189500000	-43.7258250837264	18.8031916843211	-0.0447519377642176	-27.7475768681442	-0.0585683192476497	-27.7736281740383	-40.156664295491	7.50740730782869	
211875000	-41.5585305433787	8.0554824635566	-0.0620535621257175	-30.9938707417407	-0.0785903011776003	-31.0035131700646	-40.6888659734454	28.9033702116043	
234250000	-40.349471905297	6.77512296386808	-0.0866442397062836	-34.3483962224306	-0.094825517613967	-34.335427813657	-41.8824231422399	53.1770335156181	
256625000	-41.439936496112	16.1429398845221	-0.0742256087168993	-37.5329849362006	-0.0766537097902969	-37.5926385221499	-43.0599119592241	21.4416417412778	
279000000	-41.8719421969474	6.74943164246442	-0.0577369601348619	-40.7860618963355	-0.0665725337892721	-40.8142392700849	-40.0038756383447	-4.96490811284444	
301375000	-40.0231020089616	-3.90606137769083	-0.0720117159762381	-44.0227088601199	-0.0844321166934368	-44.0171050502563	-38.7013092473814	10.1364352052566	
323750000	-39.7953150563001	-0.114150108885214	-0.0975854414695809	-47.265523377678	-0.101938247853841	-47.2922720723924	-38.305109386404	27.0674637614967	
346125000	-41.1488594940274	0.247276425256243	-0.0837852915028094	-50.5306328588631	-0.0979651400184075	-50.5786191964486	-40.4113997917018	4.05690354820744	
368500000	-41.2272337678098	0.375705609456798	-0.0684400205777447	-53.8544630431055	-0.0783843536416183	-53.8277348787255	-38.8898870947288	-19.3153833280697	
390875000	-39.682028885389	-10.5962552327664	-0.0757974671357066	-57.0890339291006	-0.0929557831733761	-57.038882069273	-38.12602125123	-12.2262560950099	
413250000	-39.0725457873347	-11.8449093323896	-0.102645387209445	-60.3064350424174	-0.10674027821363	-60.3005711100477	-37.2575555738539	2.57039324770079	
435625000	-39.1173102430252	-10.6334811728581	-0.10314207616272	-63.6452404236073	-0.106084740763167	-63.6231569395102	-38.2590579765143	-1.91807506075469	
458000000	-39.7564806268686	-8.59387691767054	-0.0820724585156333	-66.8830099507342	-0.0920454500020925	-66.8851025822657	-37.6296330228208	-24.5629818182373	
480375000	-38.9512661865087	-15.1373503306004	-0.0824564619080109	-70.1168111958666	-0.0947132740633781	-70.1159090477491	-35.702267028303	-27.0570581023642	
502750000	-38.8285746432987	-18.5889403171602	-0.110686313820577	-73.3071426824713	-0.115785499090957	-73.3146812552751	-35.7601374567094	-13.1416741075222	
525125000	-39.8544069810558	-9.86161475778748	-0.112905549320397	-76.6852967129742	-0.122562903670357	-76.6250295134434	-35.9059106003302	-12.7579002592485	
547500000	-39.1796544347554	-12.7968843558948	-0.0982617127937622	-79.8146131385431	-0.101593184737608	-79.8599458090062	-36.1658090668584	-36.0238088557583	
569875000	-38.7259738886569	-19.79815180136	-0.0999671693525846	-83.0826630976798	-0.106623178302977	-83.0513747972815	-34.6205535293359	-41.8871307239205	
592250000	-38.271941522646	-19.6721290059786	-0.123368358093764	-86.2351449208857	-0.127592505070157	-86.2485788195047	-33.9665655475954	-33.2961244769814	
614625000	-38.341588221097	-13.5519200439313	-0.127856970569341	-89.6061750242811	-0.136685114495406	-89.6212223808098	-33.9223528068207	-27.648847299355	
637000000	-37.8991787750281	-13.6685914569458	-0.11384017187937	-92.9358833971699	-0.119670955458265	-92.903266426133	-34.8368048088579	-43.3826746665572	
659375000	-37.6472803905288	-16.0972479286858	-0.0992914945545908	-96.0329091459135	-0.112881539331588	-96.0462546449874	-34.3687404425783	-52.8828179458654	
681750000	-37.584670582917	-20.0119790752171	-0.126790993009159	-99.3829450992215	-0.129809218220675	-99.3141240687698	-32.940743463533	-49.4014052855699	
704125000	-36.9494832216636	-19.5053217229411	-0.139471368578751	-102.644877473198	-0.147947565074565	-102.649955295565	-32.0745470980696	-44.0929623821877	
726500000	-36.5473960118621	-16.9539658247977	-0.124114597607459	-105.927620598893	-0.135643463673474	-105.930802610275	-32.9298485238179	-51.5029397569637	
748875000	-36.1404855527005	-21.9816187812513	-0.108523123510099	-109.137285117801	-0.117039298671174	-109.136454314937	-33.2525593347123	-65.3540036677697	
771250000	-36.0399761454426	-22.5329874391823	-0.127776312513542	-112.363944400084	-0.134589277317486	-112.328976772291	-31.7525244398727	-63.4354001310419	
793625000	-35.4125045587775	-20.2111035273355	-0.145837241367942	-115.650672783206	-0.154479479807612	-115.649013309004	-30.5769582555612	-57.1079302112892	
816000000	-34.9741104699739	-19.2615781289893	-0.12864970744152	-118.995813430409	-0.143560849007674	-118.92755404916	-31.4873755498624	-62.7188134047858	
838375000	-34.6937201798156	-25.0581224097982	-0.116909001161617	-122.152483992181	-0.119781288031908	-122.100093267592	-31.7200788171498	-76.8215191523881	
860750000	-34.5567373613549	-28.0139922454475	-0.132261579573249	-125.443796201756	-0.135349389293107	-125.364635693132	-30.8554888314835	-75.7562168145536	
883125000	-33.8732462306451	-25.6143180650074	-0.149934411203041	-128.673825155981	-0.158107690758235	-128.654091361647	-29.556605450198	-74.3128938301042	
905500000	-33.169963947724	-26.0866763274721	-0.15115377860199	-131.922321408069	-0.15236778187513	-131.963858403435	-29.6267446222014	-76.4463550098379	
927875000	-32.8111310418569	-31.2868195489548	-0.13064630675358	-135.199538987862	-0.137635971281892	-135.208986355943	-30.3509810589461	-83.9684324381008	
950250000	-32.38791507725	-34.0950512150626	-0.128282045377514	-138.468853038248	-0.135320188564675	-138.402845433294	-29.8678038505157	-89.6563134815979	
972625000	-32.1805368899868	-32.1265279648154	-0.153020173228728	-141.693282242154	-0.162665055260433	-141.70321618851	-28.4433741353684	-89.5937685968669	
995000000	-31.1690613984195	-30.9192152612035	-0.159244232162816	-145.045987645227	-0.161455239070623	-145.021670366619	-27.9848352568469	-90.1009464867768	
1017375000	-30.6156432086903	-36.3583872196132	-0.139308845658997	-148.327498241277	-0.152678642460542	-148.273180481332	-28.6046056408308	-94.7344761611707	
1039750000	-30.4817326130798	-38.2880742507477	-0.129240258466269	-151.548488794685	-0.132383431451902	-151.530802403148	-28.723853930567	-100.077986494156	
1062125000	-30.361144206663	-38.5107906143689	-0.158783875221303	-154.660111453563	-0.167458060252238	-154.751718402522	-27.4788269539673	-103.848964894632	
1084500000	-29.2710864352686	-38.1024355112476	-0.168198262752988	-158.092712186399	-0.176404417967753	-158.05857647022	-26.5696273285872	-103.931288943039	
1106875000	-28.9298372576522	-44.2628205936643	-0.153326379178284	-161.290544744957	-0.158710383305689	-161.250273486256	-27.2432457696751	-106.615727860655	
1129250000	-28.6719157994387	-46.3556529350954	-0.135461941018673	-164.584228153695	-0.152810884224469	-164.506681329299	-27.6087593739196	-113.181453383958	
1151625000	-28.0998022629316	-46.3917834146406	-0.166580941077119	-167.775856116139	-0.167281498625616	-167.763104482735	-26.4276841675463	-118.146984139388	
1174000000	-27.6456470619184	-47.8839384427918	-0.174800237618289	-171.153144879003	-0.190886508877287	-171.138489771965	-25.330550842852	-118.998253087071	
1196375000	-27.2971048731612	-52.5882776627526	-0.166112184267339	-174.394535975168	-0.177094414875715	-174.379629162558	-25.7647385413287	-122.0133531967	
1218750000	-26.9646647070636	-55.9035447399425	-0.152255997052666	-177.658259155238	-0.156126247967318	-177.647188314762	-26.0489543840944	-125.642718711523	
1241125000	-26.6400457612926	-56.9164119494434	-0.167536413232374	179.137651417239	-0.171966382904937	179.099248642251	-25.44051941507	-131.479072028249	
1263500000	-26.1530830623377	-59.9660474689546	-0.187751522251091	175.887012171535	-0.195606091947359	175.858137523467	-24.5168429525662	-134.907608584408	
1285875000	-25.7472186688088	-62.6608865311203	-0.17722333596864	172.417744875334	-0.185251882902279	172.511154785847	-24.3828177215612	-136.128535516773	
1308250000	-25.4633629954734	-66.3107286351075	-0.154271259153711	169.304221404184	-0.164495566976903	169.313983937687	-25.0007971003569	-138.883608225812	
1330625000	-25.0871747297344	-67.4142983847214	-0.16474824522364	166.011966614646	-0.171831576905739	166.031986860691	-24.5966722524302	-144.74343564113	
1353000000	-24.5011630494105	-68.5663943536235	-0.19634925346984	162.649984789617	-0.202403235657158	162.683471568482	-23.6666348301939	-148.869491274932	
1375375000	-24.2839280248353	-72.3403152508668	-0.193989011415283	159.36140161692	-0.201246276119723	159.33706356926	-23.1229374880664	-151.284394641477	
1397750000	-23.9907186979751	-75.294253995403	-0.174669998280966	156.114519951926	-0.182128175672692	156.136286631958	-23.6262996321642	-153.180379200042	
1420125000	-23.663204792201	-77.2638509638231	-0.174698729936324	152.842274485461	-0.179911083954753	152.877762464127	-23.6651248620554	-158.899561110448	
1442500000	-23.4049423142062	-80.8872801392078	-0.208009849925618	149.65059480124	-0.21008536324327	149.624321407666	-22.7949619672318	-163.682227053296	
1464875000	-23.1132189368701	-83.6352008207867	-0.20841285298497	146.218714549637	-0.213110692417493	146.279636701675	-22.3212815775898	-166.247191496754	
1487250000	-22.8999049235233	-86.5938117846297	-0.187157442466822	143.017995338014	-0.192538925082506	143.024857023604	-22.6678168465447	-168.416796482788	
1509625000	-22.5504746508121	-87.7550650648277	-0.185285179887674	139.870114094772	-0.193968230510712	139.856631374771	-22.8774085482171	-172.070777794772	
1532000000	-22.2305414643446	-90.5515655702219	-0.216657906760181	136.570093527945	-0.215451918729885	136.588126037871	-22.0996259540111	-178.591053294485	
1554375000	-22.0158114124075	-93.5703325295583	-0.22629367835476	133.133361778207	-0.232734926499471	133.19027225694	-21.5066580283913	176.942596291381	
1576750000	-21.9165851741186	-97.0268118686456	-0.199884673966222	129.826421891321	-0.216261140161545	129.872991886356	-21.6552414087949	176.018216323857	
1599125000	-21.5643771141729	-98.7334731167436	-0.191467102390109	126.59838247252	-0.198865522630412	126.599428079754	-21.7641204122684	173.494793895025	
1621500000	-21.2673220069894	-101.207723969724	-0.211729563283307	123.417495175111	-0.22619303520104	123.39375700457	-21.4923064709084	166.905331095505	
1643875000	-21.0404272421628	-104.10257535011	-0.232792032409263	120.050194540546	-0.239813443906518	120.050180675705	-20.8941914297163	161.376563160622	
1666250000	-20.9207277785741	-107.56562028897	-0.228795946368175	116.654540725669	-0.236117974351383	116.732615549107	-20.7103225301015	159.711285818232	
1688625000	-20.5453055070759	-109.511171711091	-0.211635065737219	113.515604905203	-0.216072335531449	113.438712755162	-20.7619768279395	158.201098187916	
1711000000	-20.3691342570084	-112.087105528269	-0.220906338145286	110.31602307614	-0.229872405530678	110.329059680503	-20.8682883949215	151.515694574234	
1733375000	-20.0613413082214	-114.430865250572	-0.253965133484952	106.900688180397	-0.251354001887161	106.928158241275	-20.2728097477913	145.675530505562	
1755750000	-20.0515243857394	-118.052665672178	-0.239390998264466	103.550124604856	-0.245385840264085	103.585725587295	-20.1204163526454	143.06543373263	
1778125000	-19.7493159519143	-119.976576857194	-0.221289788252357	100.366248186626	-0.227580001076122	100.360037407121	-20.2547427980283	141.829580124018	
1800500000	-19.5380084861918	-122.434674956204	-0.233253170940866	97.1085584599149	-0.238714292753381	97.1127151657808	-20.1180382135742	136.783486688578	
1822875000	-19.343682010598	-124.704115517076	-0.257026458877471	93.7850436667583	-0.259192825805737	93.8122837381876	-19.7570060174281	129.481555969034	
1845250000	-19.2589890426283	-127.531656547425	-0.259302256059411	90.3912421932582	-0.266324001953809	90.4564560066981	-19.4617480900196	126.225395529297	
1867625000	-19.0471021007449	-130.085049642954	-0.238818527076297	87.095912329754	-0.24544497551018	87.1588519411105	-19.4986909885646	124.117537347896	
1890000000	-18.7516669251234	-132.270741319378	-0.229191599758853	83.9240904896875	-0.248592492516656	83.9875242371691	-19.5063688344657	119.91813507963	
1912375000	-18.7059248193684	-135.494649753871	-0.259731513953591	80.619968274747	-0.263977907807839	80.6388121685288	-19.2382197543627	114.340671114068	
1934750000	-18.5105158135528	-138.000941106125	-0.265752172780447	77.3112297758866	-0.279144519365876	77.2904640855509	-18.9220209350564	109.772223801937	
1957125000	-18.4035370549266	-140.311845641017	-0.255258750689503	73.9593640381654	-0.269730721442928	73.9736927365794	-18.8439406502217	106.504782423188	
1979500000	-18.1110160133129	-142.656367324685	-0.250618750338034	70.6935435649251	-0.25640478853666	70.7717572463651	-19.0189038759872	103.801696209142	
2001875000	-18.0671279255635	-145.719501284808	-0.273568258459669	67.4769923907446	-0.277254191096473	67.4672747185651	-18.744539549622	97.5269660500206	
2024250000	-18.0342253508592	-148.131865821694	-0.287383788618122	64.1732828736047	-0.294367935739101	64.1349298481134	-18.4755433728022	91.942813391229	
2046625000	-17.8494732619452	-150.837728136179	-0.285981343587244	60.7349615829139	-0.28974191760637	60.7624296153734	-18.1857600428678	88.5723351204329	
2069000000	-17.6233818187826	-152.823853959101	-0.265740290155289	57.6001594858581	-0.269232446338121	57.6064359048095	-18.4098396147417	86.5906321883979	
2091375000	-17.5279417306292	-155.52422508659	-0.279351151813477	54.2456215912783	-0.291230566749216	54.2887078538281	-18.3025395132903	81.4797444287225	
2113750000	-17.4368048469852	-158.401623201529	-0.29626142504253	50.9357853167355	-0.306942895631535	50.971179122485	-18.0590710511129	75.6146227295796	
2136125000	-17.3175773058127	-161.189970838497	-0.288946608427817	47.5613985364697	-0.294949625419686	47.5855858300407	-17.8028249245389	72.6611964829775	
2158500000	-17.1685868996042	-163.009086483549	-0.2825385837406	44.2182454151751	-0.284055121234985	44.2315094010731	-17.7283934071448	69.4138864884353	
2180875000	-17.0287271502614	-165.947098217373	-0.291843469465023	41.1208125842993	-0.301035428058091	41.0939358226206	-17.7268379868605	64.7290673104246	
2203250000	-17.008986287962	-168.660917218147	-0.31207930957172	37.7572817064306	-0.316287196377324	37.7564660964679	-17.583523095009	58.9727762735406	
2225625000	-16.860160084823	-171.365111014705	-0.30946907472501	34.3798572068319	-0.316399142434738	34.419522502816	-17.3806288172738	55.314759017751	
2248000000	-16.7698521313076	-173.774011896605	-0.297174938160752	31.1221467760612	-0.29961239543833	31.1084497211123	-17.2894672531749	52.8011600860662	
2270375000	-16.6176728306973	-176.104635540124	-0.304096734753073	27.8530594237937	-0.302664734737089	27.8801373871275	-17.377876282165	48.1679503556426	
2292750000	-16.5847724837831	-179.077936825892	-0.330499728720697	24.5037278670788	-0.329446163207037	24.5541885703289	-17.1567033955094	42.4909191624605	
2315125000	-16.5902238520975	178.630102171628	-0.325275495061688	21.1940721724392	-0.331092902230691	21.1380074087396	-16.9454115657473	37.7530809812874	
2337500000	-16.4393082172686	175.943640379693	-0.316639478958894	17.8047852373995	-0.322084769216507	17.7840663339975	-16.8500176269124	35.1160525352602	
2359875000	-16.3677032589745	173.64104402277	-0.311329036474029	14.6709338914234	-0.312925743538917	14.6552051535364	-16.8437960577289	31.3496757584552	
2382250000	-16.3157487799627	170.879254724441	-0.323135099693267	11.350299984906	-0.333487058847412	11.389391274208	-16.8424460695668	26.0325227669945	
2404625000	-16.2383406734733	168.46679671902	-0.342350601484716	7.95460889754148	-0.339929548365031	7.95861471093529	-16.7263029492162	21.2640102429064	
2427000000	-16.1694938663823	166.005009134294	-0.326894177474374	4.70703914138798	-0.340200992670495	4.6818819869472	-16.52220331627	18.3215520215804	
2449375000	-16.0870475731283	163.745451614466	-0.323164717457823	1.32346902215443	-0.327604193163919	1.34664993095203	-16.5581252765019	14.9843529216988	
2471750000	-16.0762928390999	161.381711089071	-0.336738449293063	-1.96674871112346	-0.344755269274809	-1.94421671309679	-16.6375775164448	9.58942100836617	
2494125000	-16.0442722972085	158.893077948905	-0.348571044142042	-5.33992039558512	-0.358252828181253	-5.30358759204341	-16.4220927077434	4.06394648491169	
2516500000	-15.8921343446642	156.172641881929	-0.337106691824116	-8.72742308621844	-0.358436746025253	-8.60650097838345	-16.2528009661047	0.301092711968583	
2538875000	-15.8980180410396	153.831827331493	-0.339246590801492	-12.004289687995	-0.344644287668512	-12.0138210947945	-16.1497439322915	-2.52915392229095	
2561250000	-15.9174711114814	151.476147082366	-0.349519724206246	-15.1972692841865	-0.335200149530877	-15.2491607525364	-16.1422178931177	-7.04144886619534	
2583625000	-15.8672006064203	148.811916612229	-0.356374585098905	-18.6049122243207	-0.361391802471623	-18.6148048741047	-16.2016070093081	-12.4613638401587	
2606000000	-15.7933855785389	146.494650212623	-0.344176025943215	-21.8984318636743	-0.351263588528669	-21.8598325864613	-16.059057303745	-15.5607125620093	
2628375000	-15.752198623655	144.073129962016	-0.341500553488022	-25.2136909742072	-0.345697946579357	-25.2026618537853	-15.922600742254	-18.5302685368747	
2650750000	-15.7664521561354	141.342566754519	-0.339415088406229	-28.618557762009	-0.357375880901205	-28.4763153706958	-16.0162568337136	-23.4294173633137	
2673125000	-15.7975489950146	139.064347923153	-0.370374662813498	-31.9117820567926	-0.354902617344271	-31.8617476157033	-16.0729964265235	-28.5020018138366	
2695500000	-15.6652602319886	136.491239797856	-0.357937447954142	-35.2620569415903	-0.357232129635424	-35.3243730038646	-15.8213007152972	-31.9619300453229	
2717875000	-15.5922190158824	133.747691519976	-0.353773784741879	-38.631797103395	-0.360289701028613	-38.6017265980307	-15.6490639661854	-36.5079718339853	
2740250000	-15.6750593835484	131.001809714041	-0.344794988299891	-41.8925508855661	-0.342927393494629	-41.8893584990888	-15.6582417713673	-39.843098054708	
2762625000	-15.7039333615334	128.675290167082	-0.356271648007223	-45.1734795190462	-0.377881726650349	-45.218644937806	-15.7957924225357	-44.6919577082717	
2785000000	-15.6171493472582	125.87213451829	-0.369883619728462	-48.6782764454694	-0.375414224196496	-48.6387253649124	-15.7518970055647	-49.8503104709668	
2807375000	-15.5824937003607	123.316978720772	-0.35471194698101	-51.8612158960084	-0.369576424839653	-51.8775887230215	-15.547194483525	-52.9597446708554	
2829750000	-15.594895758921	121.411332904245	-0.354562697289948	-55.3000432822819	-0.373723948913652	-55.2586395130173	-15.5481335268996	-55.7342915332861	
2852125000	-15.7010134915164	118.2355170767	-0.363712374666467	-58.5070967242411	-0.378472229666412	-58.5564997802688	-15.7728038437828	-59.8830937511976	
2874500000	-15.6091031873855	115.899762677618	-0.359329184306153	-61.9398097172444	-0.370496665182914	-61.981096030466	-15.7153462879195	-64.9699646744628	
