! Filename:  P:\Prog\Test\Noise\ATS_data\Testdata_Net\Split files Spar\BFU730_2W_B1_Bias9_1.5V_1mA_30mA_D.s2p
! Date/Time: Fri 29/Apr/2011 14:17:02
! BFU730_2W_B1_Bias9_1.5V_1mA_30mA_R.s2p
! MDIF S-parameter v. bias file
! BFU730_2W_B1_1.5V_1mA_30mA
! Date/time Thu Mar 17 13:45:32 2011
! VAR V_out= 1.5003
! VAR I_out= 24.9850
! VAR V_in= 0.8256
! VAR I_in= 0.0895
! Device data file deembeded for feedlines and parallel
! Original file: \Split files Spar\BFU730_2W_B1_Bias9_1.5V_1mA_30mA_R.s2p
! Feed-files: PR003V01_101208_Feed1.s2p, PR003V01_101208_Feed2.s2p
! Parallel-file: PR003V01_101208_Par.s2p
# MHz S MA R 50
!  Freq-MHz   S11-mag  S11-arg   S21-mag  S21-arg   S12-mag  S12-arg   S22-mag  S22-arg
         40   0.76495    -5.49    53.167   176.87 0.0014356    87.56   0.98463    -1.20
         50   0.76498    -7.12    53.237   175.38  0.001883    98.48   0.98542    -2.35
         60   0.75966    -8.25    52.175   174.59 0.0022578    88.27   0.98854    -3.12
         70   0.76016    -9.51    52.419   173.99 0.0024367    86.21   0.98856    -4.06
         80   0.76134   -10.85    53.071   172.95 0.0027753    85.76   0.98814    -4.91
         90   0.75975   -12.23    53.015   171.84 0.0031055    85.14   0.98708    -5.76
        100   0.75813   -13.43    52.736   171.03 0.0034083    84.58   0.98577    -6.56
        120   0.75704   -16.21     52.75   169.11 0.0040972    83.23   0.98248    -8.20
        140   0.75526   -18.76    52.592   167.32 0.0047581    81.96   0.97898    -9.77
        160   0.75158   -21.37    52.061   165.44 0.0054131    80.74   0.97365   -11.27
        180   0.75117   -23.84    52.133   163.79 0.0060457    79.82    0.9676   -12.74
        200   0.74729   -26.46    51.751   161.93  0.006681    78.85   0.96164   -14.21
        220   0.74365   -28.98    51.541   160.22  0.007311    77.55   0.95403   -15.66
        240   0.73805   -31.47    51.221   158.44 0.0079057    76.55   0.94691   -17.04
        260   0.73548   -33.88    50.606   156.75 0.0085026    75.38   0.93901   -18.43
        280   0.72992   -36.42    50.185   155.15 0.0091188    74.53   0.93082   -19.76
        300   0.72544   -38.89    49.541   153.46 0.0096937    73.44   0.92238   -21.12
        320   0.71803   -41.38    48.858   151.96  0.010241    72.26    0.9122   -22.42
        340   0.71483   -43.46     48.64   150.42   0.01078    71.36   0.90212   -23.66
        360   0.71022   -45.86    48.016   148.98  0.011291    70.40   0.89162   -24.87
        380   0.70338   -48.26    47.534   147.44  0.011849    69.39   0.88131   -26.05
        400   0.69727   -50.23    47.208   146.05   0.01231    68.57    0.8705   -27.13
        420   0.69106   -52.36    46.686   144.64  0.012795    67.62   0.86108   -28.22
        440   0.68712   -54.47    46.036   143.33  0.013284    66.70   0.85055   -29.38
        460    0.6801   -56.65    45.561   141.98  0.013718    65.85   0.83985   -30.43
        480   0.67541   -58.55    44.925   140.68  0.014147    65.07   0.82977   -31.54
        500   0.66744   -60.70    44.211   139.34  0.014554    64.35   0.81759   -32.58
        550   0.65382   -65.34    42.929   136.24  0.015544    62.59   0.78821   -34.75
        600    0.6396   -69.84    41.553   133.41  0.016475    60.92   0.76272   -36.89
        650   0.62585   -74.15    40.043   130.78  0.017321    59.42   0.73708   -38.94
        700   0.61329   -78.40    38.559   128.25  0.018111    58.19   0.71156   -40.79
        750   0.60152   -82.32    37.288   125.91  0.018846    57.05   0.68763   -42.40
        800   0.59028   -86.16    36.001   123.72  0.019568    55.94   0.66606   -43.89
        850   0.57926   -89.97    34.721   121.52  0.020159    54.98   0.64381   -45.42
        900   0.56811   -93.24    33.525   119.56  0.020768    54.18   0.62183   -46.66
        950   0.55916   -96.47    32.419   117.72  0.021344    53.48   0.60227   -47.80
       1000   0.55009   -99.58    31.322   115.95  0.021897    52.75   0.58412   -48.93
       1050   0.54084  -102.64    30.275   114.27  0.022423    52.17   0.56637   -49.95
       1100   0.53358  -105.43    29.315   112.68  0.022928    51.69   0.54963   -50.91
       1150   0.52604  -108.22    28.409   111.12  0.023428    51.26   0.53388   -51.73
       1200   0.51892  -110.79    27.522   109.71  0.023903    50.81   0.51906   -52.54
       1250   0.51273  -113.42    26.664   108.30  0.024363    50.46   0.50476   -53.37
       1300   0.50695  -115.80    25.882   106.95   0.02479    50.18   0.49085   -54.04
       1350   0.50175  -118.06    25.139   105.68  0.025223    49.89   0.47804   -54.67
       1400   0.49666  -120.40    24.421   104.43  0.025641    49.69   0.46594   -55.30
       1450   0.49175  -122.55    23.738   103.26  0.026056    49.43   0.45408   -55.86
       1500   0.48727  -124.55    23.084   102.12  0.026451    49.26    0.4433   -56.34
       1550   0.48345  -126.50    22.456   101.01  0.026906    49.09   0.43334   -56.78
       1600   0.47956  -128.40    21.868    99.97  0.027321    48.97   0.42368   -57.25
       1650   0.47579  -130.35    21.297    98.90  0.027716    48.84   0.41413   -57.71
       1700   0.47207  -132.06    20.769    97.87  0.028096    48.74   0.40525   -58.10
       1750   0.46863  -133.74    20.252    96.91  0.028489    48.63   0.39692   -58.56
       1800   0.46619  -135.50    19.747    95.94   0.02892    48.50   0.38886   -58.97
       1850   0.46345  -137.16    19.273    95.01   0.02928    48.45   0.38067   -59.33
       1900   0.46091  -138.66    18.828    94.09  0.029683    48.35   0.37393   -59.68
       1950   0.45759  -140.13     18.38    93.20  0.030032    48.35   0.36736   -60.09
       2000   0.45539  -141.57    17.946    92.36  0.030418    48.36   0.35965   -60.61
       2050   0.45368  -142.91    17.533    91.60  0.030767    48.34   0.35194   -60.89
       2100   0.45249  -144.32    17.157    90.78  0.031216    48.34   0.34599   -61.09
       2150   0.45109  -145.62    16.786    90.04  0.031586    48.43   0.33962   -61.44
       2200   0.44918  -146.94    16.441    89.31  0.032037    48.42   0.33382   -61.51
       2250   0.44736  -148.28    16.095    88.51  0.032422    48.22    0.3294   -61.91
       2300   0.44581  -149.43    15.753    87.79  0.032798    48.20   0.32386   -62.42
       2350   0.44599  -150.60    15.424    87.13  0.033126    48.34     0.317   -62.88
       2400   0.44562  -151.81    15.126    86.49  0.033545    48.36   0.31061   -63.00
       2450   0.44433  -153.07    14.831    85.87  0.033984    48.48    0.3053   -63.17
       2500    0.4425  -154.50    14.568    85.21  0.034459    48.43   0.29999   -63.30
       2600   0.43967  -156.42     14.05    83.96  0.035294    48.31   0.29075   -63.49
       2700   0.43809  -158.67     13.56    82.67  0.036091    48.22   0.28221   -63.62
       2800   0.43657  -160.55    13.107    81.45  0.036905    48.16   0.27465   -63.76
       2900   0.43549  -162.51    12.677    80.31  0.037744    48.20   0.26797   -63.70
       3000   0.43417  -164.31    12.299    79.18  0.038608    48.19   0.26227   -63.97
       3100   0.43346  -166.08    11.939    77.94  0.039437    48.10   0.25734   -64.19
       3200   0.43247  -167.79    11.586    76.81  0.040283    47.99   0.25142   -64.57
       3300   0.43276  -169.43    11.262    75.71  0.041132    47.92   0.24617   -65.10
       3400   0.43166  -171.10    10.954    74.57  0.042019    47.88   0.24122   -65.56
       3500   0.43151  -172.73    10.665    73.44  0.042864    47.78   0.23598   -65.87
       3600   0.43167  -174.41     10.38    72.34  0.043723    47.68   0.23064   -66.19
       3700   0.43075  -175.75    10.112    71.24  0.044605    47.64   0.22579   -66.38
       3800   0.43125  -177.47    9.8612    70.15  0.045542    47.47    0.2212   -66.82
       3900   0.43037  -178.67    9.6162    69.13  0.046469    47.37   0.21752   -67.15
       4000   0.43109   179.68    9.3796    68.06  0.047355    47.16   0.21295   -67.58
       4100   0.43053   178.42    9.1589    67.08  0.048262    47.06   0.20841   -67.71
       4200   0.43058   176.98    8.9481    66.05  0.049214    46.86   0.20473   -68.07
       4300   0.43031   175.80    8.7504    65.06  0.050168    46.68   0.20167   -68.57
       4400   0.43073   174.38    8.5539    64.05  0.051146    46.38    0.1986   -68.90
       4500   0.43063   173.21    8.3703    63.08  0.052064    46.15   0.19532   -69.23
       4600   0.43145   171.91    8.1923    62.13  0.052968    45.90   0.19139   -69.68
       4700   0.43206   170.75    8.0271    61.15  0.053863    45.67   0.18778   -70.26
       4800   0.43268   169.32    7.8582    60.18   0.05478    45.38   0.18515   -70.90
       4900   0.43267   168.10    7.7045    59.20   0.05572    45.15    0.1816   -71.23
       5000   0.43243   166.91    7.5505    58.27  0.056697    44.90   0.17815   -71.43
       5200   0.43347   164.69    7.2594    56.40  0.058591    44.34   0.17245   -72.58
       5400   0.43421   162.39    7.0004    54.59  0.060448    43.71   0.16709   -73.14
       5600   0.43549   160.20    6.7494    52.75  0.062283    43.11    0.1612   -74.40
       5800   0.43595   158.09    6.5184    51.00  0.064155    42.49   0.15594   -74.93
       6000   0.43739   156.14    6.3066    49.21  0.066027    41.85     0.151   -76.27
       6200   0.43955   154.28    6.1086    47.50  0.067938    41.25   0.14622   -77.05
       6400   0.44137   152.28    5.9196    45.76  0.069853    40.58   0.14093   -78.24
       6600   0.44343   150.18    5.7446    44.04  0.071814    39.85   0.13681   -79.06
       6800   0.44511   148.36    5.5876    42.34  0.073759    39.02   0.13236   -80.71
       7000   0.44689   146.55    5.4261    40.67  0.075726    38.47   0.12765   -81.60
       7200   0.44893   144.95    5.2913    38.99   0.07793    37.64   0.12448   -83.04
       7400    0.4521   142.99    5.1554    37.15  0.079835    36.66   0.11969   -85.16
       7600   0.45536   141.52    5.0361    35.44  0.081997    35.95   0.11658   -86.62
       7800   0.45725   139.06    4.8882    33.52  0.083616    34.87   0.10803   -89.73
       8000   0.45658   137.84    4.7777    32.40  0.085794    34.53   0.10733   -88.01
       8200   0.46245   135.83    4.6715    30.22  0.087995    33.25   0.10127   -92.77
       8400   0.46481   134.10    4.5615    28.71  0.090154    32.59   0.10022   -93.38
       8600   0.46544   132.17    4.4335    26.95  0.091577    31.27   0.08983   -97.41
       8800    0.4659   130.71    4.3353    25.33  0.093741    30.59  0.086664   -98.69
       9000   0.46893   129.84    4.2564    23.96  0.095845    29.94  0.084268  -100.95
       9200   0.47124   128.12    4.1632    22.27  0.097698    28.86  0.078428  -104.62
       9400   0.47593   126.55     4.078    20.58  0.099595    27.92  0.074967  -107.46
       9600   0.48182   125.09    3.9997    19.07   0.10169    27.15  0.068069  -111.12
       9800   0.48532   123.49    3.9365    17.46   0.10372    26.37  0.064944  -112.40
      10000   0.49213   121.97    3.8675    15.71    0.1068    25.35  0.065335  -116.25
      10200   0.49629   120.03    3.7892    13.93   0.10865    24.00  0.058803  -124.95
      10400   0.49847   118.48    3.7099    12.25   0.11058    22.91  0.057101  -129.86
      10600   0.50052   116.84     3.636    10.66   0.11249    21.84  0.050997  -137.75
      10800   0.50224   115.47    3.5814     9.14   0.11454    20.92  0.049169  -141.74
      11000   0.50892   113.90    3.5113     7.55   0.11672    19.91  0.046529  -148.06
      11200   0.51425   112.42    3.4818     5.94   0.11892    18.91  0.048189  -156.00
      11400   0.51835   110.75    3.4076     4.10    0.1211    17.60  0.045935  -165.92
      11600   0.52219   109.00     3.347     2.66   0.12266    16.53  0.047311  -176.85
      11800   0.52791   107.70    3.3001     0.95   0.12505    15.41  0.045859   176.47
      12000   0.52905   106.41    3.2565    -0.36   0.12634    14.39  0.047421   166.02
      12200   0.53779   104.48    3.2205    -2.40    0.1291    13.41   0.04803   161.55
      12400    0.5389   102.69    3.1593    -4.24   0.13139    12.09  0.053423   151.52
      12600   0.54039   101.19    3.0965    -5.49   0.13241    11.08  0.053349   141.55
      12800   0.54914   100.22    3.0744    -7.01    0.1356    10.20  0.053002   138.90
      13000   0.54732    98.25    3.0278    -8.75   0.13659     8.69  0.059624   133.15
      13200   0.55344    97.26    2.9665   -10.48   0.13871     7.56  0.063664   127.89
      13400   0.55867    96.03    2.9393   -12.18   0.14116     6.25  0.072757   127.95
      13600   0.56558    94.41    2.9074   -13.96   0.14254     5.17  0.079628   124.46
      13800   0.56702    92.90    2.8534   -15.64   0.14495     3.98  0.088119   120.36
      14000   0.57522    91.33    2.8242   -16.87   0.14604     2.75   0.09839   116.14
      14200   0.58212    90.07     2.791   -18.70   0.14809     1.85   0.10353   111.76
      14400   0.58602    87.79    2.7484   -20.39   0.14986     0.64   0.11777   109.08
      14600   0.59082    86.46    2.7228   -21.99   0.15236    -0.27    0.1185   104.46
      14800   0.59337    84.75    2.6899   -23.60   0.15453    -1.55   0.12924   102.23
      15000   0.60032    83.52    2.6557   -25.30   0.15668    -2.81   0.13303    99.14
      15200   0.60344    82.20    2.6313   -26.90    0.1588    -4.21   0.13854    98.69
      15400   0.61687    80.87    2.6059   -28.59   0.16018    -5.33   0.14811    96.11
      15600   0.61997    79.87    2.5775   -30.41   0.16262    -6.67   0.15345    94.86
      15800   0.62825    78.18    2.5554   -31.97   0.16357    -8.05   0.16277    92.86
      16000    0.6408    76.89    2.5328   -34.16   0.16562    -9.09   0.17143    91.26
      16200   0.64873    75.07    2.5085   -36.10   0.16755   -10.23   0.17619    88.61
      16400   0.65722    73.44    2.4615   -38.13   0.16937   -11.16    0.1814    86.89
      16600   0.65861    71.80    2.4232   -39.62   0.17234   -12.59   0.18879    86.97
      16800   0.66462    70.21    2.3914   -41.01   0.17346   -13.67   0.19714    83.90
      17000   0.66624    68.49    2.3789   -42.64   0.17609   -15.06   0.20906    83.98
      17200   0.66932    66.77    2.3594   -44.54   0.17811   -16.16   0.21696    80.62
      17400   0.67575    64.56    2.3438   -46.77   0.17946   -17.45   0.22795    79.80
      17600    0.6743    63.05    2.3003   -48.46   0.18267   -18.38   0.23551    76.31
      17800   0.67558    61.62    2.2835   -50.35   0.18544   -20.04   0.24017    75.01
      18000   0.68626    60.69    2.2405   -52.37   0.18729   -21.57   0.24352    74.32
      18200   0.69303    58.50    2.2235   -54.57   0.18904   -22.90   0.25405    73.00
      18400   0.69933    57.11    2.1754   -56.77   0.19105   -24.24    0.2556    72.22
      18600   0.69271    55.82    2.1134   -58.10   0.19174   -25.46   0.27061    72.18
      18800   0.70203    53.75    2.0858   -59.69   0.19439   -26.68    0.2796    70.56
      19000   0.69809    52.63     2.057   -60.97   0.19792   -27.93   0.28853    69.15
      19200   0.70417    51.22    2.0317   -62.71   0.20053   -29.72   0.29423    67.40
      19400   0.70868    50.28     2.004   -63.80   0.20237   -31.16   0.29631    66.65
      19600   0.71501    49.19     1.975   -65.34   0.20319   -33.55   0.30861    68.10
      19800   0.74134    48.53    1.9805   -66.53   0.20182   -34.10   0.32752    65.44
      20000   0.75546    45.81    1.9741   -68.69    0.2037   -34.80    0.3332    63.96