! Filename:  P:\Prog\Test\Noise\ATS_data\Testdata_Net\Split files Spar\BFU730_2W_B1_1V_1mA_30mA_Bias10_D.s2p
! Date/Time: Fri 29/Apr/2011 14:16:29
! BFU730_2W_B1_1V_1mA_30mA_Bias10_R.s2p
! MDIF S-parameter v. bias file
! BFU730_2W_B1_1V_1mA_30mA
! Date/time Thu Mar 17 14:34:31 2011
! VAR V_out= 1.0000
! VAR I_out= 30.0000
! VAR V_in= 0.8383
! VAR I_in= 0.1101
! Device data file deembeded for feedlines and parallel
! Original file: \Split files Spar\BFU730_2W_B1_1V_1mA_30mA_Bias10_R.s2p
! Feed-files: PR003V01_101208_Feed1.s2p, PR003V01_101208_Feed2.s2p
! Parallel-file: PR003V01_101208_Par.s2p
# MHz S MA R 50
!  Freq-MHz   S11-mag  S11-arg   S21-mag  S21-arg   S12-mag  S12-arg   S22-mag  S22-arg
         40   0.63205    -8.11     43.67   176.64 0.0021214    63.34   0.87756    -2.08
         50    0.6232   -10.44    43.608   174.69 0.0024761    76.24   0.88234    -3.73
         60   0.62678   -11.69    42.373   173.88 0.0030862    70.01   0.88019    -4.90
         70   0.62552   -13.73    42.666   173.30 0.0033735    68.64   0.87534    -6.17
         80   0.62532   -15.73    43.364   172.11 0.0037609    70.30   0.87737    -7.25
         90   0.62313   -17.82    43.195   170.77 0.0041808    70.81   0.87705    -8.42
        100   0.62308   -19.41    43.065   170.07 0.0045867    70.51    0.8729    -9.57
        120   0.62271   -23.51    43.159   167.51 0.0054139    70.65   0.86659   -11.85
        140   0.62009   -27.16    42.977   165.60 0.0062119    70.07   0.85958   -13.89
        160   0.61928   -30.77    42.627   163.42 0.0070232    69.67   0.85456   -16.26
        180   0.61911   -34.58    42.838   161.36  0.007786    68.77    0.8411   -18.07
        200   0.61758   -38.49    42.315   158.88 0.0085428    68.22   0.83464   -20.10
        220   0.61427   -42.11    42.099   156.96 0.0092428    66.92   0.81997   -21.85
        240   0.60772   -45.70    41.552   155.09 0.0099307    66.18   0.81438   -23.57
        260   0.61071   -49.07     41.01   152.80   0.01061    65.20   0.80179   -25.66
        280   0.60798   -52.63    40.626   151.10  0.011287    64.31   0.79112   -27.27
        300   0.60632   -56.01    39.731   148.98  0.011954    63.06   0.77936   -29.37
        320   0.60143   -59.24    39.137   147.65  0.012505    62.01   0.76048   -31.01
        340   0.60012   -62.40    39.087   145.68  0.013027    61.12   0.74897   -32.41
        360   0.60097   -65.69    38.405   143.87   0.01356    60.26   0.73229   -33.91
        380   0.59779   -69.10    37.825   142.15  0.014089    59.33   0.71844   -35.15
        400    0.5928   -72.12    37.587   140.47  0.014593    58.53   0.70594   -36.17
        420   0.58862   -74.98     36.98   139.05  0.015052    57.80    0.6989   -37.45
        440   0.59066   -77.47     36.47   137.42  0.015542    56.99   0.68411   -39.09
        460   0.58783   -80.50    36.036   136.02  0.015928    56.23    0.6733   -40.10
        480   0.58872   -82.84    35.537   134.27  0.016348    55.55   0.66251   -41.81
        500   0.58181   -85.70    34.702   133.23  0.016697    54.78    0.6429   -42.97
        550   0.57946   -91.72    33.626   129.42  0.017515    53.39   0.61013   -44.72
        600   0.57553   -97.29    32.408   126.18  0.018356    52.03     0.587   -46.87
        650   0.57012  -101.99    31.151   123.63  0.019092    50.95   0.56024   -49.34
        700   0.56838  -106.83    29.738   120.97  0.019798    49.98   0.53109   -51.51
        750    0.5651  -111.20    28.707   118.51  0.020421    49.17   0.50855   -52.75
        800   0.56208  -115.21    27.494   116.45  0.020987    48.48   0.49334   -54.03
        850   0.56179  -118.88    26.339   114.26  0.021514    47.93   0.47388   -55.99
        900   0.55633  -122.23    25.533   112.31  0.022046    47.55   0.44924   -57.17
        950   0.55551  -125.30    24.658   110.37  0.022569    47.15    0.4311   -57.91
       1000   0.55289  -128.19    23.681   108.80  0.023016    46.76   0.41905   -58.85
       1050    0.5494  -131.15    22.799   107.37  0.023476    46.55   0.40437   -60.03
       1100   0.54839  -133.57    22.104   105.77  0.023946    46.31   0.38761   -60.86
       1150   0.54554  -135.96    21.459   104.30  0.024388    46.11   0.37369   -61.32
       1200   0.54295  -138.17    20.778   103.06  0.024819    46.05   0.36344   -62.11
       1250   0.54177  -140.42    20.062   101.81  0.025253    46.00   0.35247   -63.33
       1300   0.53987  -142.36    19.523   100.53  0.025695    45.94   0.33967   -63.91
       1350   0.53802  -144.19    18.984    99.40  0.026104    45.88   0.32928   -64.22
       1400   0.53708  -146.07    18.422    98.25  0.026507    45.83   0.32021   -64.74
       1450   0.53508  -147.81    17.916    97.25  0.026897    45.90   0.31093   -65.32
       1500   0.53397  -149.43     17.41    96.17  0.027337    45.93   0.30215   -65.77
       1550   0.53322  -151.03    16.887    95.23  0.027747    45.95   0.29482   -66.00
       1600   0.53182  -152.52    16.451    94.30  0.028157    46.00   0.28819   -66.39
       1650   0.53091  -153.98    16.054    93.27  0.028607    46.03   0.28022   -66.91
       1700   0.52934  -155.31    15.674    92.32  0.029032    46.09   0.27246   -67.27
       1750   0.52743  -156.62    15.293    91.50  0.029431    46.13   0.26652   -67.71
       1800   0.52739  -158.01    14.877    90.65  0.029838    46.17   0.26108   -68.20
       1850   0.52667  -159.32    14.523    89.82  0.030262    46.23   0.25454   -68.53
       1900   0.52496  -160.46     14.21    89.01  0.030669    46.25   0.24939   -68.79
       1950   0.52368  -161.58    13.873    88.18  0.031083    46.32   0.24444   -69.27
       2000   0.52267  -162.69    13.551    87.44  0.031444    46.46     0.239   -69.93
       2050   0.52192  -163.70    13.252    86.76  0.031849    46.62   0.23342   -70.18
       2100   0.52232  -164.80    12.964    85.99  0.032311    46.61   0.22912   -70.27
       2150   0.52151  -165.69    12.707    85.30  0.032705    46.78   0.22414   -70.68
       2200   0.52083  -166.70     12.45    84.61  0.033202    46.88   0.21954   -70.75
       2250   0.52035  -167.75    12.182    83.91  0.033641    46.80   0.21666   -71.14
       2300   0.51959  -168.66    11.924    83.30  0.034002    46.82   0.21306   -71.78
       2350   0.52044  -169.49    11.683    82.66  0.034376    46.96   0.20774   -72.45
       2400   0.52088  -170.35    11.469    82.05  0.034831    47.14   0.20226   -72.58
       2450   0.52072  -171.33    11.251    81.49  0.035327    47.33   0.19849   -72.69
       2500   0.52119  -172.46    11.035    80.85  0.035857    47.35   0.19476   -73.01
       2600    0.5195  -173.99    10.666    79.67  0.036776    47.39   0.18766   -73.24
       2700   0.51978  -175.74    10.275    78.49  0.037639    47.37   0.18154   -73.43
       2800   0.51891  -177.18     9.958    77.32  0.038586    47.42   0.17519   -73.65
       2900   0.51903  -178.68    9.6278    76.24  0.039483    47.53   0.17032   -73.66
       3000   0.51854   179.88    9.3468    75.18  0.040467    47.51   0.16573   -73.94
       3100   0.51919   178.46     9.067    74.00  0.041416    47.47   0.16203   -74.28
       3200   0.51893   177.05    8.7984    72.92  0.042332    47.40   0.15754   -74.77
       3300   0.51939   175.79    8.5678    71.87  0.043293    47.31   0.15307   -75.54
       3400   0.51887   174.41     8.332    70.78  0.044257    47.27    0.1492   -76.14
       3500   0.51947   173.10    8.1137    69.70  0.045218    47.20   0.14522   -76.56
       3600   0.52036   171.74    7.8894    68.64  0.046175    47.14   0.14125   -77.07
       3700   0.51926   170.63    7.6987    67.60  0.047175    47.08   0.13718   -77.47
       3800   0.52035   169.25    7.5004    66.54  0.048155    46.93   0.13358   -78.02
       3900   0.51952   168.23    7.3211    65.56  0.049165    46.82   0.13066   -78.49
       4000   0.52148   166.86    7.1333    64.53  0.050142    46.62   0.12723   -79.14
       4100   0.52099   165.85    6.9718    63.58  0.051171    46.53   0.12349   -79.43
       4200   0.52146   164.61    6.8104    62.58  0.052218    46.32   0.12044   -80.03
       4300   0.52142   163.59    6.6634    61.61  0.053297    46.10   0.11803   -80.78
       4400   0.52245   162.36    6.5084    60.63  0.054336    45.77    0.1156   -81.27
       4500   0.52211   161.37    6.3739    59.66  0.055367    45.55   0.11303   -81.79
       4600   0.52331   160.23    6.2363    58.74  0.056352    45.25   0.10971   -82.67
       4700   0.52361   159.26    6.1159    57.78  0.057327    45.02   0.10683   -83.56
       4800   0.52471   158.07    5.9847    56.82  0.058335    44.70   0.10496   -84.55
       4900   0.52534   156.98    5.8654    55.86  0.059334    44.47   0.10188   -85.12
       5000   0.52513   155.95    5.7502    54.94    0.0604    44.20  0.098923   -85.62
       5200   0.52608   153.96    5.5306    53.10   0.06248    43.60  0.094623   -87.60
       5400   0.52717   151.97    5.3346    51.31  0.064537    42.89  0.089741   -88.67
       5600   0.52848   150.03    5.1426    49.50  0.066562    42.26  0.085421   -91.28
       5800   0.52944   148.13     4.968    47.75  0.068615    41.59  0.080684   -92.36
       6000    0.5311   146.36    4.8054    45.95  0.070656    40.89   0.07666   -95.35
       6200   0.53264   144.65    4.6576    44.24  0.072722    40.19  0.072749   -97.05
       6400   0.53428   142.82    4.5122    42.49    0.0748    39.48  0.068244   -99.85
       6600   0.53661   140.93     4.379    40.75  0.076944    38.69  0.064755  -102.09
       6800   0.53842   139.23    4.2578    39.05  0.079019    37.78  0.061277  -105.67
       7000   0.54018   137.49    4.1344    37.35  0.081181    37.15  0.057284  -108.91
       7200   0.54207   135.96    4.0319    35.65  0.083529    36.23  0.055011  -112.08
       7400   0.54477   134.12    3.9234    33.81  0.085567    35.17  0.051526  -117.87
       7600    0.5475   132.65    3.8321    32.09  0.087789    34.37  0.049658  -121.63
       7800   0.54879   130.52     3.722    30.21  0.089531    33.31  0.045229  -130.97
       8000   0.54954   129.26    3.6385    28.95  0.091989    32.82  0.042204  -129.88
       8200   0.55428   127.36    3.5538    26.86  0.094186    31.51  0.041782  -141.52
       8400   0.55643   125.75     3.472    25.30  0.096503    30.79  0.040356  -143.70
       8600   0.55689   123.98    3.3764    23.56   0.09803    29.47  0.039125  -159.43
       8800   0.55727   122.50    3.3025    21.90   0.10033    28.66  0.037704  -165.15
       9000   0.56004   121.48      3.24    20.44   0.10254    27.93  0.039033  -171.08
       9200   0.56208   119.79    3.1689    18.73    0.1045    26.78  0.040519   178.82
       9400   0.56614   118.30    3.1052    17.03   0.10649    25.78  0.042118   172.40
       9600   0.57084   116.84    3.0434    15.45   0.10863    24.91  0.044682   161.65
       9800   0.57466   115.24    2.9924    13.80   0.11078    24.09  0.045524   156.36
      10000   0.57979   113.80    2.9395    12.04    0.1139    22.97   0.04861   154.30
      10200   0.58311   112.00    2.8782    10.27   0.11575    21.62  0.055851   146.16
      10400   0.58509   110.52    2.8185     8.59   0.11778    20.52  0.059377   143.12
      10600    0.5864   108.91     2.762     6.97   0.11981    19.38  0.065404   136.31
      10800   0.58891   107.54    2.7191     5.42   0.12199    18.42  0.068244   133.40
      11000   0.59446   105.98    2.6658     3.79   0.12424    17.31  0.072765   129.24
      11200   0.59987   104.51    2.6379     2.15   0.12644    16.23  0.079033   127.80
      11400   0.60294   102.91    2.5843     0.35   0.12864    14.90  0.084188   123.49
      11600   0.60618   101.33    2.5381    -1.15    0.1302    13.81  0.091803   121.00
      11800   0.61177    99.99     2.499    -2.88   0.13275    12.62  0.095502   117.71
      12000   0.61298    98.59    2.4652    -4.29   0.13408    11.52   0.10244   114.70
      12200   0.62066    96.73    2.4328    -6.25   0.13674    10.49     0.106   112.38
      12400   0.62008    95.06    2.3886    -8.02   0.13906     9.18   0.11386   109.92
      12600   0.62201    93.66    2.3418    -9.36   0.14019     8.12   0.11916   106.10
      12800   0.62984    92.56    2.3223   -10.95   0.14346     7.17   0.12123   104.29
      13000   0.62891    90.64    2.2819   -12.69    0.1446     5.59   0.12947   102.30
      13200   0.63326    89.65    2.2398   -14.34   0.14669     4.45   0.13461   100.41
      13400   0.63714    88.20    2.2153   -16.08   0.14906     2.93   0.14241   100.42
      13600    0.6433    86.64    2.1875   -17.86   0.15026     1.78   0.15048    99.00
      13800   0.64334    85.13     2.151   -19.51    0.1526     0.54   0.15867    97.46
      14000   0.65171    83.64    2.1254   -20.85   0.15346    -0.79      0.17    95.66
      14200   0.65682    82.36    2.0998   -22.68   0.15532    -1.68    0.1759    93.26
      14400   0.66007    80.24    2.0652   -24.39   0.15686    -2.88   0.18881    92.30
      14600   0.66401    78.95    2.0438   -25.99   0.15947    -3.72   0.19248    89.42
      14800   0.66652    77.28    2.0164   -27.65   0.16164    -5.05   0.20315    88.34
      15000   0.67254    76.12    1.9887   -29.26   0.16391    -6.31   0.20856    86.08
      15200   0.67593    74.67    1.9693   -30.95   0.16604    -7.84   0.21473    85.53
      15400   0.68697    73.36    1.9454   -32.60   0.16713    -8.99   0.22414    83.73
      15600   0.68918    72.29    1.9247   -34.38   0.16968   -10.36   0.23034    82.53
      15800    0.6963    70.57    1.9043   -36.05   0.17032   -11.86   0.23953    81.14
      16000   0.70573    69.37    1.8842   -38.11   0.17198   -12.89    0.2481    79.62
      16200   0.71194    67.63    1.8623   -39.98   0.17381   -14.01   0.25342    77.47
      16400   0.71823    66.17    1.8291   -41.81   0.17547   -14.93   0.25764    75.90
      16600   0.71927    64.57    1.8007   -43.38   0.17828   -16.34   0.26368    75.73
      16800   0.72418    63.06    1.7777   -44.83   0.17915   -17.44   0.27279    73.69
      17000   0.72522    61.38    1.7633   -46.52   0.18171   -18.81   0.28378    73.54
      17200   0.72763    59.66    1.7463   -48.32   0.18354   -19.91   0.29311    70.83
      17400   0.73259    57.59    1.7274   -50.43   0.18458   -21.19   0.30263    70.09
      17600   0.73136    56.18     1.699   -51.98   0.18815   -22.07   0.31147    67.37
      17800   0.73225    54.71     1.683   -53.89   0.19069   -23.84   0.31669    65.96
      18000   0.74109    53.76     1.653   -55.82   0.19251   -25.35   0.31797    65.00
      18200   0.74583    51.64    1.6329   -57.94   0.19383   -26.65   0.32802    63.82
      18400   0.75055    50.39    1.5969   -59.84   0.19587   -27.93   0.32805    62.96
      18600   0.74255    49.19    1.5574   -61.07   0.19652   -29.19   0.34085    62.97
      18800   0.75141    47.31    1.5355   -62.59   0.19893   -30.37    0.3495    61.61
      19000   0.74775    46.17    1.5176   -63.80   0.20276   -31.64    0.3581    60.49
      19200   0.75403    44.74    1.5001   -65.60   0.20514   -33.52    0.3639    58.66
      19400   0.75773    43.73    1.4793   -66.73   0.20684   -34.96   0.36514    58.08
      19600   0.76235    42.64    1.4598   -68.31    0.2074   -37.50    0.3742    58.91
      19800   0.78434    41.97    1.4539   -69.62   0.20494   -37.95   0.39348    57.00
      20000   0.79623    39.47    1.4443   -71.59   0.20644   -38.52   0.39793    55.77