! Filename:  P:\Prog\Test\Noise\ATS_data\Testdata_Net\Split files Spar\BFU730_2W_B1_1V_1mA_30mA_Bias9_D.s2p
! Date/Time: Fri 29/Apr/2011 14:16:26
! BFU730_2W_B1_1V_1mA_30mA_Bias9_R.s2p
! MDIF S-parameter v. bias file
! BFU730_2W_B1_1V_1mA_30mA
! Date/time Thu Mar 17 14:34:31 2011
! VAR V_out= 1.0002
! VAR I_out= 25.0350
! VAR V_in= 0.8334
! VAR I_in= 0.0880
! Device data file deembeded for feedlines and parallel
! Original file: \Split files Spar\BFU730_2W_B1_1V_1mA_30mA_Bias9_R.s2p
! Feed-files: PR003V01_101208_Feed1.s2p, PR003V01_101208_Feed2.s2p
! Parallel-file: PR003V01_101208_Par.s2p
# MHz S MA R 50
!  Freq-MHz   S11-mag  S11-arg   S21-mag  S21-arg   S12-mag  S12-arg   S22-mag  S22-arg
         40   0.71814    -6.52     45.43   177.00 0.0017091    82.21   0.96767    -1.64
         50   0.71629    -8.37    45.383   175.10 0.0022445    71.11    0.9702    -2.91
         60   0.71098    -9.86    43.829   174.31 0.0022701    80.27   0.97166    -3.88
         70   0.71015   -11.23    44.185   173.89 0.0028184    82.61   0.96989    -4.92
         80   0.71185   -12.84    45.134   172.75 0.0031868    81.90   0.96968    -5.83
         90   0.70959   -14.52    45.042   171.54 0.0035669    81.47    0.9693    -6.76
        100   0.70819   -15.82    44.869   170.87 0.0039506    80.74   0.96814    -7.72
        120    0.7089   -19.20    45.058   168.55 0.0047091    80.21   0.96295    -9.64
        140   0.70585   -22.18    44.984   166.77 0.0054797    79.46   0.95877   -11.36
        160   0.70335   -25.20    44.572   164.74 0.0062163    78.45   0.95306   -13.22
        180   0.70395   -28.21    45.059   162.89 0.0069796    77.21   0.94386   -14.81
        200   0.70138   -31.45     44.64   160.70 0.0076757    76.11   0.93838   -16.50
        220   0.69791   -34.42    44.573   158.85 0.0083861    75.09   0.92736   -18.11
        240   0.69049   -37.46    44.174   157.01 0.0090519    73.90   0.92168   -19.56
        260   0.69157   -40.24    43.684   155.01 0.0096904    72.81   0.91255   -21.28
        280   0.68557   -43.21    43.315   153.48  0.010337    71.85    0.9035   -22.70
        300   0.68387   -46.18    42.558   151.41  0.010994    70.87   0.89598   -24.41
        320   0.67345   -49.06    41.717   150.18  0.011663    69.65   0.88114   -26.02
        340   0.67349   -51.41    42.033   148.33  0.012224    68.60   0.86964   -27.34
        360   0.67084   -54.34    41.344   146.72  0.012817    67.59   0.85593   -28.77
        380   0.66426   -57.28    40.809   145.13  0.013375    66.60   0.84256   -30.01
        400   0.65854   -59.56    40.913   143.60  0.013918    65.58   0.83028   -31.01
        420   0.65257   -61.96    40.436   142.18  0.014385    64.76   0.82316   -32.12
        440   0.65207   -64.21     39.93   140.69  0.014906    63.89   0.81143   -33.60
        460   0.64502   -66.76    39.549   139.45  0.015352    62.95   0.80027   -34.61
        480   0.64567   -68.68    39.218   137.88  0.015822    62.35   0.79223   -36.08
        500   0.63476   -71.37    38.238   136.71  0.016302    61.49   0.77466   -37.42
        550   0.62867   -76.35    37.556   133.19  0.017283    59.59   0.74031   -39.53
        600   0.61816   -80.97    36.663   130.24  0.018176    57.96   0.71581   -41.64
        650   0.60696   -85.24    35.415   127.76  0.019065    56.57   0.68986   -44.09
        700   0.59861   -90.00    33.927   125.11  0.019947    55.39   0.66107   -46.47
        750   0.58962   -93.77    33.068   122.81  0.020642    54.18   0.63521   -47.98
        800   0.58103   -97.60    31.936   120.68  0.021293    53.16   0.61666   -49.28
        850   0.57582  -101.61    30.655   118.38  0.021896    52.45   0.59675   -51.18
        900   0.56574  -104.41     29.89   116.58  0.022594    51.65   0.56991   -52.81
        950   0.55979  -107.31    29.057   114.76   0.02316    50.85   0.54852   -53.89
       1000    0.5532  -110.38    28.027   113.03  0.023652    50.29   0.53298   -54.91
       1050   0.54495  -113.42    27.059   111.53  0.024178    49.84   0.51635   -56.19
       1100   0.54021  -115.84    26.329   109.98  0.024742    49.29    0.4972   -57.33
       1150   0.53366  -118.10     25.68   108.53   0.02522    48.81   0.48034   -58.13
       1200   0.52729  -120.50    24.907   107.26  0.025654    48.53    0.4672   -59.00
       1250   0.52325  -123.09    24.087   105.88  0.026154    48.29   0.45439   -60.18
       1300   0.51848  -125.06    23.484   104.62   0.02662    48.01   0.43936   -60.99
       1350   0.51394  -126.99    22.891   103.44  0.027052    47.74   0.42623   -61.59
       1400   0.51018  -129.13     22.25   102.25  0.027469    47.56   0.41464   -62.27
       1450    0.5058  -131.05    21.668   101.17  0.027883    47.41   0.40309   -62.97
       1500   0.50226  -132.88    21.084   100.08  0.028317    47.31   0.39235   -63.58
       1550   0.49968  -134.80    20.481    99.00   0.02873    47.17   0.38263   -64.02
       1600   0.49658  -136.46    19.979    98.02  0.029133    47.07   0.37359   -64.54
       1650   0.49345  -138.16    19.494    96.99  0.029587    46.98   0.36391   -65.17
       1700   0.49071  -139.70    19.029    96.00  0.030017    46.89   0.35473   -65.68
       1750   0.48737  -141.21    18.579    95.10  0.030428    46.87   0.34686   -66.21
       1800   0.48572  -142.92    18.092    94.17  0.030817    46.77   0.33938   -66.74
       1850   0.48383  -144.46    17.667    93.28  0.031226    46.71   0.33124   -67.20
       1900   0.48091  -145.77    17.289    92.42  0.031627    46.65   0.32452   -67.61
       1950   0.47843  -147.10    16.882    91.57  0.032004    46.65   0.31822   -68.14
       2000    0.4764  -148.41    16.493    90.76  0.032388    46.67   0.31107   -68.81
       2050   0.47531  -149.61    16.126    90.03  0.032756    46.75   0.30373   -69.18
       2100   0.47446  -150.93    15.782    89.23  0.033242    46.73   0.29795   -69.42
       2150   0.47306  -152.05    15.457    88.51  0.033619    46.76   0.29163   -69.90
       2200   0.47181  -153.26    15.149    87.80   0.03412    46.75    0.2858   -70.07
       2250   0.47027  -154.50    14.829    87.03  0.034522    46.68   0.28164   -70.52
       2300   0.46915  -155.58    14.515    86.35  0.034896    46.63   0.27667   -71.14
       2350   0.46936  -156.67    14.214    85.70  0.035232    46.70   0.27017   -71.82
       2400   0.46914  -157.73    13.951    85.08   0.03568    46.83   0.26362   -72.04
       2450   0.46832  -158.87    13.683    84.48  0.036138    46.94   0.25852   -72.28
       2500   0.46713  -160.23    13.435    83.82  0.036661    46.91   0.25352   -72.58
       2600   0.46498  -162.04    12.969    82.60  0.037534    46.83   0.24429   -72.97
       2700   0.46391  -164.09    12.511    81.34  0.038378    46.73   0.23586   -73.23
       2800   0.46254  -165.83    12.107    80.14  0.039253    46.70   0.22804   -73.57
       2900   0.46177  -167.62    11.709    79.01  0.040104    46.79   0.22127   -73.66
       3000   0.46082  -169.28    11.366    77.92  0.041033    46.72   0.21545   -74.05
       3100   0.46065  -170.98     11.03    76.69  0.041932    46.65   0.21031   -74.37
       3200   0.45989  -172.62    10.704    75.56  0.042792    46.56   0.20445   -74.94
       3300   0.46014  -174.08    10.413    74.49  0.043718    46.44   0.19908   -75.69
       3400   0.45928  -175.67    10.129    73.36  0.044639    46.41   0.19412   -76.31
       3500   0.45977  -177.18    9.8619    72.24  0.045548    46.33   0.18889   -76.78
       3600   0.45974  -178.77    9.5966    71.16  0.046461    46.19   0.18363   -77.30
       3700   0.45875   179.96    9.3524    70.08  0.047397    46.12    0.1786   -77.65
       3800   0.45947   178.36    9.1191    68.99  0.048315    45.96   0.17401   -78.21
       3900   0.45853   177.21    8.8967    67.98  0.049334    45.86   0.17022   -78.71
       4000   0.45986   175.66    8.6745    66.92  0.050271    45.65   0.16573   -79.33
       4100    0.4596   174.49     8.473    65.95  0.051208    45.54   0.16106   -79.58
       4200   0.45971   173.10    8.2754    64.92  0.052233    45.32   0.15728   -80.13
       4300   0.45964   171.95    8.0952    63.94   0.05325    45.15   0.15422   -80.77
       4400   0.46023   170.57    7.9108    62.93  0.054268    44.80   0.15097   -81.22
       4500   0.46014   169.49    7.7425    61.96  0.055226    44.60   0.14772   -81.70
       4600   0.46124   168.23    7.5771    61.02   0.05617    44.33   0.14377   -82.41
       4700   0.46161   167.13    7.4257    60.03  0.057124    44.09   0.14029   -83.22
       4800   0.46227   165.79    7.2684    59.07  0.058122    43.78   0.13769   -84.06
       4900   0.46266   164.64    7.1275    58.09   0.05904    43.54     0.134   -84.56
       5000   0.46257   163.48    6.9848    57.17  0.060096    43.28   0.13036   -84.99
       5200   0.46345   161.32    6.7152    55.29  0.062056    42.69   0.12502   -86.60
       5400   0.46456   159.12    6.4768    53.48   0.06403    42.02   0.11915   -87.49
       5600   0.46579   156.99     6.242    51.64  0.065957    41.39   0.11371   -89.49
       5800   0.46627   154.96    6.0299    49.90  0.067933    40.77   0.10818   -90.28
       6000   0.46808   153.05    5.8336    48.10  0.069885    40.09   0.10337   -92.49
       6200   0.46988   151.26    5.6508    46.38  0.071908    39.43  0.098689   -93.72
       6400   0.47216   149.30    5.4751    44.63  0.073895    38.74  0.093301   -95.72
       6600   0.47408   147.30    5.3121    42.90  0.075939    37.97  0.089115   -97.22
       6800   0.47603   145.52     5.166    41.19  0.077965    37.11  0.084939   -99.80
       7000   0.47733   143.70    5.0159    39.51  0.080015    36.49  0.080106  -101.78
       7200      0.48   142.11    4.8916    37.82  0.082282    35.64  0.077312  -104.01
       7400   0.48256   140.18    4.7635    35.97   0.08427    34.60  0.072923  -107.85
       7600   0.48615   138.71     4.652    34.25  0.086466    33.84  0.070357  -110.51
       7800   0.48758   136.37    4.5161    32.35    0.0881    32.74  0.063768  -116.80
       8000   0.48746   135.12    4.4136    31.18  0.090419    32.35  0.060945  -114.57
       8200   0.49339   133.19    4.3134    29.03  0.092621    31.06  0.058152  -123.31
       8400    0.4956   131.48    4.2117    27.50  0.094839    30.38  0.056196  -124.17
       8600   0.49633   129.57    4.0943    25.75  0.096325    29.06  0.050537  -135.31
       8800    0.4965   128.12    4.0036    24.11  0.098557    28.31  0.047754  -138.63
       9000   0.49977   127.16    3.9297    22.71   0.10069    27.60  0.047063  -143.80
       9200   0.50177   125.44    3.8425    21.00   0.10264    26.48  0.045263  -152.73
       9400   0.50636   123.90    3.7638    19.31   0.10453    25.52  0.044279  -159.27
       9600   0.51208   122.47    3.6906    17.77   0.10662    24.66  0.042872  -170.34
       9800   0.51591   120.84    3.6303    16.13   0.10868    23.86  0.041433  -175.69
      10000    0.5219   119.34    3.5658    14.38   0.11173    22.81  0.043812  -178.92
      10200   0.52609   117.43    3.4927    12.60   0.11358    21.47  0.047794   168.34
      10400   0.52823   115.90    3.4197    10.93   0.11555    20.38  0.050106   163.44
      10600    0.5299   114.26    3.3502     9.32    0.1175    19.27  0.053545   153.39
      10800   0.53205   112.91    3.2993     7.80   0.11958    18.33  0.055217   149.26
      11000   0.53854   111.31    3.2325     6.17   0.12175    17.26  0.058227   143.48
      11200   0.54428   109.83    3.2033     4.57   0.12394    16.23  0.064219   140.91
      11400    0.5477   108.17    3.1359     2.74    0.1261    14.91  0.068472   134.86
      11600   0.55126   106.48    3.0798     1.29   0.12762    13.83   0.07562   130.76
      11800   0.55684   105.18    3.0353    -0.43    0.1301    12.68  0.078274   126.67
      12000   0.55843   103.83    2.9943    -1.78   0.13137    11.60  0.084506   122.32
      12200   0.56686   101.94    2.9586    -3.80   0.13404    10.61  0.087368   119.65
      12400   0.56729   100.16    2.9027    -5.60   0.13629     9.30  0.095187   116.33
      12600   0.56872    98.69    2.8445    -6.88   0.13732     8.27  0.099774   111.16
      12800   0.57774    97.71    2.8235    -8.42   0.14051     7.37   0.10044   109.17
      13000   0.57602    95.72    2.7778   -10.17   0.14157     5.82   0.10844   106.83
      13200   0.58125    94.70    2.7231   -11.87   0.14361     4.67   0.11362   104.57
      13400   0.58571    93.38    2.6965   -13.59   0.14601     3.28   0.12111   105.09
      13600   0.59306    91.78    2.6645   -15.36   0.14725     2.15   0.12916   103.42
      13800   0.59393    90.25    2.6165   -17.02    0.1496     0.95   0.13741   101.70
      14000    0.6019    88.69    2.5883   -18.28    0.1506    -0.32    0.1489    99.56
      14200   0.60897    87.45    2.5571   -20.12    0.1524    -1.24   0.15487    96.78
      14400   0.61178    85.20    2.5172   -21.80   0.15405    -2.42   0.16842    95.60
      14600   0.61726    83.89    2.4919   -23.40   0.15646    -3.28   0.17114    92.15
      14800   0.61913    82.19    2.4606   -25.03   0.15862    -4.58   0.18177    90.90
      15000   0.62587    80.97    2.4277   -26.70   0.16076    -5.83   0.18641    88.37
      15200   0.62958    79.59    2.4045   -28.34   0.16282    -7.30   0.19207    87.94
      15400   0.64192    78.25    2.3786   -30.02   0.16408    -8.43    0.2014    86.07
      15600   0.64432    77.19    2.3529   -31.81   0.16652    -9.78   0.20725    84.81
      15800   0.65262    75.56    2.3304   -33.41   0.16726   -11.24   0.21642    83.44
      16000   0.66428    74.29    2.3081   -35.55   0.16898   -12.27   0.22488    81.89
      16200   0.67155    72.45    2.2834   -37.45   0.17078   -13.38   0.23015    79.58
      16400   0.67896    70.86     2.241   -39.39   0.17238   -14.29   0.23433    78.00
      16600   0.68046    69.27    2.2062   -40.91   0.17525   -15.68   0.24052    77.94
      16800   0.68559    67.69    2.1775   -42.30   0.17619   -16.76   0.24961    75.68
      17000    0.6875    65.94    2.1637   -43.98   0.17873   -18.12   0.26046    75.64
      17200   0.69008    64.22    2.1444   -45.82   0.18055   -19.21   0.26965    72.76
      17400    0.6961    62.04    2.1264   -48.00   0.18172   -20.48   0.27951    72.06
      17600   0.69481    60.64    2.0888   -49.63   0.18506   -21.35   0.28759    69.04
      17800   0.69547    59.18    2.0719   -51.54   0.18769   -23.05   0.29257    67.71
      18000   0.70586    58.18    2.0334   -53.53   0.18948   -24.58   0.29368    66.84
      18200   0.71188    56.07    2.0137   -55.70   0.19088   -25.87   0.30425    65.64
      18400   0.71747    54.66    1.9693   -57.77   0.19289   -27.14   0.30392    64.80
      18600   0.71028    53.41    1.9156   -59.04   0.19354   -28.36   0.31726    64.89
      18800   0.71916    51.40      1.89   -60.60   0.19607   -29.56   0.32606    63.50
      19000   0.71548    50.29    1.8651   -61.86   0.19963   -30.78    0.3342    62.31
      19200   0.72136    48.86    1.8432   -63.60    0.2022   -32.61   0.33987    60.57
      19400   0.72636    47.90    1.8166   -64.71   0.20388   -34.03   0.34111    59.98
      19600   0.73123    46.84    1.7916   -66.24   0.20464   -36.49   0.35074    61.14
      19800   0.75628    46.14    1.7922   -67.48   0.20253   -37.02   0.37086    59.00
      20000   0.76959    43.49    1.7841   -69.54   0.20406   -37.60   0.37538    57.67