! Filename:  P:\Prog\Test\Noise\ATS_data\Testdata_Net\Split files Spar\BFU730_2W_B1_Bias10_1.5V_1mA_30mA_D.s2p
! Date/Time: Fri 29/Apr/2011 14:17:05
! BFU730_2W_B1_Bias10_1.5V_1mA_30mA_R.s2p
! MDIF S-parameter v. bias file
! BFU730_2W_B1_1.5V_1mA_30mA
! Date/time Thu Mar 17 13:45:32 2011
! VAR V_out= 1.5002
! VAR I_out= 30.0350
! VAR V_in= 0.8289
! VAR I_in= 0.1116
! Device data file deembeded for feedlines and parallel
! Original file: \Split files Spar\BFU730_2W_B1_Bias10_1.5V_1mA_30mA_R.s2p
! Feed-files: PR003V01_101208_Feed1.s2p, PR003V01_101208_Feed2.s2p
! Parallel-file: PR003V01_101208_Par.s2p
# MHz S MA R 50
!  Freq-MHz   S11-mag  S11-arg   S21-mag  S21-arg   S12-mag  S12-arg   S22-mag  S22-arg
         40   0.69763    -6.69    54.056   176.71 0.0015277    85.83   0.97543    -1.03
         50   0.69628    -9.00    54.058   174.94 0.0014348    83.39   0.97743    -2.39
         60   0.68754   -10.01    52.699   174.07 0.0020503    89.95   0.97999    -3.32
         70   0.69009   -11.56    53.007   173.48 0.0024386    84.28   0.97957    -4.37
         80   0.69195   -13.19    53.854   172.32 0.0027669    83.80   0.97891    -5.31
         90   0.69033   -14.85    53.751   171.08 0.0030868    83.31   0.97799    -6.25
        100   0.68881   -16.20    53.495   170.27 0.0033705    82.40    0.9769    -7.18
        120   0.68854   -19.62    53.587   168.00  0.004059    81.86   0.97189    -9.04
        140    0.6863   -22.65    53.423   166.07 0.0047395    80.56   0.96755   -10.75
        160   0.68318   -25.72    52.886   163.99 0.0053659    79.36   0.96094   -12.48
        180   0.68383   -28.69    53.167   162.10 0.0059987    78.12   0.95259   -14.05
        200   0.68048   -31.90    52.655   159.95 0.0065847    77.06   0.94575   -15.67
        220   0.67731   -34.86    52.464   158.06 0.0072345    75.90   0.93573   -17.23
        240   0.67083   -37.83    52.017   156.14 0.0077899    74.69   0.92813   -18.67
        260   0.67011   -40.72    51.342   154.19 0.0083277    73.83   0.91867   -20.23
        280   0.66467   -43.62    50.854   152.52 0.0089039    72.62   0.90893   -21.61
        300   0.66165   -46.58    50.007   150.56 0.0094693    71.68   0.90001   -23.15
        320   0.65265   -49.42     49.15   149.11  0.010008    70.51   0.88665   -24.59
        340   0.65163   -51.73    49.162   147.36  0.010507    69.47   0.87483   -25.87
        360   0.64834   -54.56     48.39   145.75  0.010989    68.57   0.86189   -27.17
        380   0.64162   -57.34    47.789   144.13  0.011476    67.45   0.84908   -28.37
        400   0.63656   -59.47    47.617   142.65  0.011968    66.44   0.83674   -29.40
        420   0.63089   -61.83    47.019   141.18  0.012354    65.71   0.82739   -30.45
        440   0.62878   -64.17    46.327   139.75  0.012833    64.91    0.8156   -31.73
        460   0.62205   -66.53    45.831   138.41  0.013187    64.07   0.80386   -32.72
        480   0.61993   -68.56    45.227   136.96  0.013586    63.41   0.79396   -33.95
        500   0.61126   -71.00    44.299   135.68  0.014003    62.58   0.77901   -35.08
        550   0.60192   -75.78    43.122   132.38  0.014841    60.97   0.74597   -37.11
        600   0.59046   -80.32    41.786   129.53   0.01565    59.40   0.71966   -39.10
        650   0.57913   -84.68    40.199   126.96  0.016424    58.16   0.69319   -41.16
        700   0.56932   -89.21    38.533   124.41  0.017162    57.05     0.666   -43.07
        750   0.55988   -92.90    37.325   122.16  0.017794    55.95   0.64114   -44.49
        800   0.55124   -96.72     35.96   120.04  0.018392    55.04   0.62058   -45.72
        850   0.54342  -100.70     34.53   117.83   0.01895    54.35   0.59929   -47.21
        900   0.53388  -103.61     33.43   116.00  0.019536    53.76   0.57578   -48.44
        950   0.52721  -106.59    32.342   114.26  0.020079    53.15   0.55603   -49.38
       1000   0.52015  -109.68     31.17   112.55  0.020527    52.60    0.5393   -50.31
       1050   0.51274  -112.65    30.084   111.00  0.021041    52.20   0.52255   -51.26
       1100   0.50733  -115.16    29.142   109.49  0.021512    51.82   0.50555   -52.12
       1150   0.50135  -117.66    28.273   108.04  0.021958    51.51   0.49009   -52.78
       1200   0.49559  -120.12    27.373   106.73   0.02241    51.21   0.47653   -53.45
       1250   0.49108  -122.67    26.472   105.38  0.022858    51.08   0.46346   -54.24
       1300   0.48681  -124.80    25.711   104.13  0.023272    50.84   0.44996   -54.80
       1350   0.48256  -126.84    24.977   102.94  0.023723    50.70   0.43777   -55.28
       1400   0.47884  -129.02    24.246   101.76  0.024108    50.60   0.42661   -55.78
       1450   0.47528  -130.98    23.566   100.67   0.02452    50.48   0.41562   -56.25
       1500   0.47152  -132.86    22.903    99.59  0.024933    50.41   0.40561   -56.63
       1550   0.46888  -134.71    22.254    98.53  0.025376    50.37   0.39652   -56.94
       1600    0.4661  -136.47    21.667    97.55  0.025778    50.26   0.38783   -57.29
       1650    0.4633  -138.30    21.097    96.54  0.026191    50.22   0.37898   -57.68
       1700   0.46048  -139.84    20.571    95.57   0.02659    50.19    0.3707   -58.00
       1750   0.45796  -141.33    20.056    94.67  0.027001    50.10   0.36319   -58.37
       1800   0.45624  -143.01    19.539    93.75   0.02741    50.13   0.35602   -58.71
       1850   0.45419  -144.57    19.066    92.87  0.027779    50.11   0.34854   -58.99
       1900   0.45208  -145.94    18.626    92.00    0.0282    50.10   0.34252   -59.26
       1950   0.44986  -147.25    18.177    91.16  0.028588    50.09   0.33661   -59.62
       2000   0.44821  -148.56    17.743    90.36  0.028951    50.13   0.32956   -60.09
       2050   0.44725  -149.80    17.331    89.63   0.02934    50.20   0.32261   -60.29
       2100   0.44643  -151.12    16.952    88.85  0.029787    50.26   0.31729   -60.40
       2150   0.44521  -152.24    16.586    88.15  0.030186    50.34   0.31152   -60.70
       2200    0.4441  -153.47    16.245    87.45  0.030656    50.37   0.30633   -60.71
       2250   0.44269  -154.67    15.898    86.70   0.03108    50.25   0.30252   -61.06
       2300   0.44183  -155.78    15.556    86.01  0.031435    50.22   0.29755   -61.53
       2350   0.44203  -156.80    15.229    85.38  0.031761    50.37   0.29122   -61.98
       2400   0.44239  -157.90    14.937    84.78   0.03222    50.51   0.28528   -62.01
       2450   0.44153  -159.05    14.642    84.19  0.032708    50.64   0.28051   -62.12
       2500   0.44027  -160.44    14.377    83.56  0.033212    50.55   0.27579   -62.20
       2600   0.43836  -162.26    13.865    82.36  0.034065    50.51   0.26748   -62.29
       2700   0.43754  -164.28    13.375    81.11  0.034922    50.46   0.25996   -62.29
       2800   0.43632  -165.99     12.93    79.94  0.035777    50.38   0.25325   -62.34
       2900   0.43597  -167.77    12.502    78.84  0.036637    50.44   0.24747   -62.20
       3000   0.43501  -169.45    12.127    77.76  0.037532    50.43   0.24246   -62.39
       3100   0.43485  -171.11     11.77    76.56   0.03843    50.32   0.23825   -62.54
       3200   0.43411  -172.69    11.418    75.45  0.039324    50.25   0.23303   -62.87
       3300     0.435  -174.16      11.1    74.39  0.040191    50.17   0.22831   -63.36
       3400    0.4341  -175.77    10.796    73.28  0.041105    50.12   0.22394   -63.77
       3500    0.4344  -177.25    10.507    72.18  0.042018    50.01   0.21925   -64.04
       3600   0.43486  -178.81    10.225    71.11  0.042916    49.89   0.21449   -64.30
       3700   0.43403   179.93    9.9609    70.04  0.043866    49.82   0.21017   -64.46
       3800   0.43466   178.34    9.7117    68.97   0.04479    49.65   0.20607   -64.84
       3900     0.434   177.22    9.4704    67.98  0.045774    49.52   0.20281   -65.16
       4000   0.43529   175.63    9.2351    66.94  0.046709    49.29   0.19869   -65.54
       4100   0.43481   174.50    9.0187    65.98  0.047653    49.20   0.19465   -65.63
       4200   0.43539   173.16    8.8093    64.96  0.048613    48.95   0.19133   -65.96
       4300   0.43509   172.04    8.6144    64.00  0.049626    48.73   0.18864   -66.44
       4400   0.43588   170.67    8.4192    63.00  0.050621    48.41   0.18596   -66.76
       4500   0.43567   169.58     8.238    62.05  0.051588    48.17   0.18306   -67.09
       4600   0.43672   168.35    8.0627    61.12   0.05252    47.87   0.17942   -67.51
       4700   0.43716   167.25    7.8995    60.16  0.053463    47.63   0.17614   -68.09
       4800   0.43814   165.98    7.7327    59.20  0.054429    47.32   0.17374   -68.74
       4900   0.43873   164.76    7.5816    58.23  0.055367    47.05   0.17057   -69.00
       5000   0.43868   163.64    7.4293    57.33  0.056372    46.80   0.16743   -69.19
       5200   0.43958   161.54    7.1422    55.48  0.058322    46.19   0.16216   -70.33
       5400   0.44096   159.39    6.8871    53.70  0.060257    45.50   0.15734   -70.86
       5600   0.44225   157.28    6.6395    51.88  0.062148    44.84   0.15178   -72.11
       5800   0.44269   155.25    6.4116    50.15  0.064096    44.18   0.14695   -72.61
       6000   0.44453   153.38    6.2038    48.38  0.066034    43.49    0.1423   -73.98
       6200   0.44646   151.65    6.0082    46.69  0.067994    42.82   0.13787   -74.74
       6400   0.44858   149.73    5.8222    44.97  0.069934    42.13    0.1329   -75.93
       6600   0.45071   147.72    5.6497    43.26  0.071962    41.36   0.12908   -76.74
       6800   0.45273   145.93    5.4947    41.58  0.073963    40.50   0.12485   -78.41
       7000   0.45425   144.21    5.3357    39.92  0.075977    39.89    0.1204   -79.29
       7200   0.45659   142.67    5.2033    38.25  0.078227    39.02   0.11737   -80.75
       7400   0.45964   140.76    5.0688    36.42  0.080199    37.98   0.11268   -82.90
       7600    0.4628   139.31    4.9508    34.72  0.082386    37.24   0.10974   -84.39
       7800   0.46502   136.97    4.8057    32.81  0.084053    36.14   0.10127   -87.45
       8000   0.46448   135.81    4.6975    31.70    0.0863    35.73   0.10095   -85.69
       8200   0.47045   133.86    4.5921    29.53  0.088525    34.44   0.09477   -90.57
       8400   0.47269   132.16    4.4838    28.03  0.090704    33.75  0.093903   -91.23
       8600    0.4737   130.25     4.358    26.28   0.09214    32.38  0.083562   -95.30
       8800   0.47403   128.82    4.2623    24.67  0.094382    31.67  0.080524   -96.59
       9000   0.47719   127.99    4.1848    23.30  0.096503    30.98  0.078187   -98.96
       9200   0.47965   126.31    4.0922    21.62    0.0984    29.89  0.072419  -102.72
       9400   0.48402   124.76    4.0093    19.94   0.10032    28.89  0.069009  -105.66
       9600   0.48981   123.38    3.9318    18.42   0.10247    28.12  0.062137  -109.39
       9800   0.49369   121.79    3.8692    16.82   0.10455    27.31  0.059055  -110.78
      10000   0.49987   120.31    3.8009    15.07   0.10765    26.24  0.059416  -114.96
      10200   0.50443   118.40    3.7235    13.30   0.10953    24.85  0.052854  -124.40
      10400   0.50649   116.88    3.6462    11.62   0.11147    23.75  0.051317  -129.80
      10600   0.50819   115.26    3.5727    10.04    0.1134    22.65  0.045438  -138.55
      10800   0.51008   113.99    3.5196     8.51   0.11548    21.70  0.043744  -142.94
      11000   0.51727   112.40    3.4505     6.92   0.11769    20.67  0.041355  -150.14
      11200   0.52292   110.92    3.4213     5.32   0.11996    19.64  0.043209  -158.79
      11400   0.52665   109.30    3.3485     3.49   0.12213    18.31  0.041492  -169.74
      11600   0.53018   107.60    3.2888     2.06    0.1237    17.24  0.043486   178.59
      11800   0.53606   106.29    3.2424     0.35   0.12618    16.07  0.042575   171.30
      12000    0.5377   105.00    3.1991    -0.97   0.12747    15.04  0.044903   160.45
      12200   0.54613   103.15    3.1633    -3.00   0.13026    14.05   0.04586   155.99
      12400   0.54677   101.34    3.1033    -4.82   0.13256    12.70  0.051949   146.29
      12600   0.54834    99.90    3.0419    -6.09    0.1336    11.68  0.052735   136.37
      12800   0.55742    98.95    3.0204    -7.61   0.13682    10.77  0.052688   133.78
      13000   0.55574    96.97    2.9736    -9.35   0.13784     9.22  0.059723   128.59
      13200   0.56141    95.99     2.914   -11.07   0.13999     8.08  0.064077   123.71
      13400   0.56658    94.74    2.8872   -12.77   0.14244     6.75  0.073089   124.18
      13600   0.57389    93.16    2.8551   -14.56   0.14382     5.66  0.080098   121.06
      13800   0.57496    91.67    2.8024   -16.21   0.14625     4.44  0.088814   117.26
      14000   0.58352    90.13    2.7738   -17.45   0.14737     3.21  0.099384   113.40
      14200   0.59012    88.88    2.7409   -19.29   0.14941     2.31   0.10473   109.25
      14400   0.59383    86.66    2.6988   -20.98   0.15114     1.05   0.11895   106.90
      14600   0.59931    85.29    2.6734   -22.59   0.15378     0.14   0.12011   102.41
      14800   0.60154    83.60    2.6408   -24.19   0.15589    -1.16   0.13086   100.38
      15000    0.6081    82.41    2.6068   -25.88   0.15809    -2.42   0.13485    97.45
      15200   0.61174    81.06    2.5828   -27.50   0.16015    -3.87   0.14031    97.01
      15400   0.62479    79.73    2.5576   -29.17    0.1616    -4.97   0.15008    94.55
      15600   0.62776    78.73    2.5296   -30.99    0.1641    -6.32   0.15547    93.37
      15800   0.63596    77.09    2.5071   -32.56   0.16499    -7.74   0.16484    91.45
      16000   0.64844    75.84    2.4853   -34.73   0.16705    -8.76   0.17353    89.90
      16200    0.6562    73.96      2.46   -36.67   0.16904    -9.91   0.17836    87.32
      16400   0.66421    72.39    2.4143   -38.69   0.17084   -10.87   0.18362    85.65
      16600   0.66622    70.75    2.3772   -40.20    0.1738   -12.31   0.19089    85.81
      16800   0.67162    69.16    2.3456   -41.59   0.17494   -13.41   0.19937    82.81
      17000   0.67364    67.47    2.3334   -43.22   0.17757   -14.79   0.21123    82.94
      17200   0.67694    65.75    2.3139   -45.12    0.1796   -15.91   0.21923    79.60
      17400   0.68303    63.54    2.2974   -47.32   0.18096   -17.20   0.23014    78.84
      17600    0.6815    62.05     2.255   -49.00    0.1842   -18.14   0.23788    75.41
      17800   0.68275    60.63    2.2379   -50.91   0.18698   -19.83   0.24254    74.11
      18000   0.69339    59.68    2.1962   -52.91   0.18882   -21.38    0.2459    73.44
      18200   0.69972    57.53    2.1786   -55.11   0.19058   -22.73   0.25638    72.16
      18400   0.70609    56.13    2.1312   -57.28   0.19259   -24.07   0.25794    71.40
      18600   0.69944    54.86     2.071   -58.61   0.19328   -25.31   0.27288    71.39
      18800   0.70866    52.80    2.0441   -60.17   0.19591   -26.53    0.2819    69.81
      19000   0.70505    51.72    2.0163   -61.46   0.19947   -27.80   0.29088    68.42
      19200   0.71081    50.29    1.9915   -63.19   0.20209   -29.61   0.29648    66.69
      19400   0.71553    49.37    1.9641   -64.30    0.2039   -31.05   0.29862    65.95
      19600   0.72146    48.29     1.936   -65.84   0.20467   -33.44   0.31069    67.39
      19800   0.74789    47.62    1.9407   -67.02   0.20327   -33.98   0.32979    64.78
      20000   0.76168    44.90    1.9338   -69.18   0.20516   -34.68   0.33531    63.33