! Filename:  P:\Prog\Test\Noise\ATS_data\Testdata_Net\BFU730\BFU730_2W_B1_2V5mA_D.s2p
! Date/Time: Fri 29/Apr/2011 14:13:59
! BFU730_2W_B1_2V5mA
! bias mode 1: Vout= 2.0003 V, Iout= 5.0100 mA, Vin= 0.7873 V, Iin= 0.0145 mA
! Date/time Thu Mar 17 09:05:06 2011
! Device data file deembeded for feedlines and parallel
! Original file: \BFU730\BFU730_2W_B1_2V5mA_R.s2p
! Feed-files: PR003V01_101208_Feed1.s2p, PR003V01_101208_Feed2.s2p
! Parallel-file: PR003V01_101208_Par.s2p
# MHz S MA R 50
!  Freq-MHz   S11-mag  S11-arg   S21-mag  S21-arg   S12-mag  S12-arg   S22-mag  S22-arg
         40   0.95158    -1.97    15.332   178.53 0.0014133    86.27   0.99812    -0.95
         50   0.95154    -2.49    15.377   177.67 0.0015504    75.32   0.99795    -1.29
         60   0.95151    -2.91    15.181   177.44 0.0019617    90.25   0.99859    -1.46
         70   0.95163    -3.38    15.215   177.43 0.0024615    88.17   0.99864    -1.76
         80   0.95117    -3.90    15.327   177.00 0.0028311    87.40   0.99866    -2.03
         90   0.95083    -4.42    15.327   176.44 0.0031827    87.02   0.99835    -2.31
        100   0.95049    -4.88    15.251   176.18 0.0035333    86.92   0.99817    -2.57
        120   0.95039    -5.92    15.279   175.44 0.0042725    86.75   0.99807    -3.12
        140   0.95017    -6.91    15.274   174.71 0.0050231    86.78    0.9978    -3.68
        160   0.94984    -7.89    15.205   173.89 0.0057342    86.01   0.99719    -4.22
        180   0.94975    -8.91    15.223   173.23 0.0064853    85.57   0.99661    -4.77
        200   0.94898    -9.90    15.212   172.39  0.007187    85.12   0.99587    -5.31
        220   0.94813   -10.92    15.232   171.67  0.007957    84.69   0.99507    -5.86
        240   0.94676   -11.95    15.282   170.83 0.0086789    84.16   0.99435    -6.40
        260   0.94657   -12.91    15.193   170.07 0.0094112    83.79   0.99335    -6.94
        280   0.94509   -13.95    15.198   169.30  0.010134    83.26   0.99243    -7.49
        300   0.94462   -14.93    15.151   168.56  0.010867    82.65   0.99161    -8.05
        320   0.94313   -15.89    15.078   167.82  0.011579    81.92   0.99014    -8.60
        340   0.94197   -16.89    15.084   167.02  0.012304    81.34   0.98858    -9.14
        360   0.94108   -17.86    15.016   166.37  0.013039    80.87   0.98677    -9.67
        380   0.93973   -18.87    15.016   165.63  0.013753    80.25   0.98512   -10.22
        400   0.93814   -19.88    15.053   164.89  0.014481    79.65   0.98308   -10.73
        420   0.93664   -20.92    15.072   164.10  0.015178    79.03   0.98207   -11.23
        440   0.93497   -21.84    14.978   163.37  0.015893    78.32    0.9803   -11.79
        460    0.9334   -22.87    14.986   162.65  0.016591    77.91   0.97839   -12.29
        480   0.93179   -23.84    14.913   161.94  0.017307    77.25   0.97744   -12.84
        500   0.92979   -24.76    14.828   161.19  0.017976    76.58   0.97435   -13.40
        550   0.92544   -27.24    14.809   159.34   0.01965    75.16    0.9675   -14.69
        600   0.91971   -29.72    14.775   157.58  0.021338    73.79   0.96225   -15.93
        650   0.91514   -32.03    14.591   155.77  0.023001    72.27    0.9559   -17.24
        700   0.90987   -34.29     14.39   154.11  0.024602    70.81   0.94873   -18.55
        750   0.90467   -36.74    14.341   152.43  0.026131    69.50   0.94095   -19.70
        800   0.89821   -39.21    14.316   150.75  0.027735    68.19   0.93498   -20.81
        850   0.89222   -41.43    14.134   149.05  0.029245    66.81   0.92846   -22.03
        900   0.88629   -43.61     13.94   147.42  0.030643    65.45   0.91851   -23.25
        950    0.8805   -45.95    13.847   145.91  0.032007    64.25   0.90984   -24.33
       1000   0.87354   -48.17    13.753   144.27   0.03346    63.01   0.90268   -25.41
       1050   0.86661   -50.38    13.612   142.70  0.034768    61.75   0.89408   -26.53
       1100   0.86059   -52.50    13.445   141.24  0.035969    60.57   0.88471   -27.59
       1150   0.85314   -54.80    13.359   139.65  0.037217    59.47   0.87581   -28.55
       1200   0.84623   -56.93    13.229   138.19  0.038451    58.31   0.86822   -29.55
       1250   0.83943   -58.94    13.036   136.70  0.039641    57.06   0.85982   -30.65
       1300   0.83332   -61.02    12.886   135.26  0.040699    56.00   0.84958   -31.62
       1350   0.82605   -63.17    12.787   133.80  0.041758    54.99   0.84047   -32.51
       1400   0.81894   -65.28    12.661   132.38  0.042791    53.94   0.83183   -33.44
       1450   0.81194   -67.32    12.518   130.98  0.043797    52.86   0.82274   -34.38
       1500   0.80515   -69.26    12.372   129.64  0.044722    51.90   0.81383   -35.24
       1550   0.79894   -71.16    12.228   128.30  0.045676    50.98   0.80577   -36.04
       1600   0.79203   -73.08    12.085   126.98  0.046623    50.03   0.79795   -36.89
       1650   0.78529   -75.00    11.919   125.69  0.047476    49.09    0.7885   -37.74
       1700   0.77939   -76.81    11.786   124.41  0.048204    48.26   0.77925   -38.51
       1750    0.7722   -78.68    11.655   123.11  0.049027    47.39    0.7709   -39.31
       1800   0.76604   -80.55    11.503   121.88  0.049826    46.47   0.76293   -40.10
       1850   0.75977   -82.45    11.366   120.63  0.050514    45.59   0.75411   -40.86
       1900   0.75327   -84.26    11.248   119.35  0.051219    44.85   0.74627   -41.58
       1950   0.74675   -85.92    11.093   118.20  0.051887    44.08   0.73895   -42.31
       2000   0.74079   -87.64    10.939   117.02  0.052535    43.31   0.73052   -43.12
       2050   0.73494   -89.32    10.798   115.91   0.05319    42.56   0.72161   -43.78
       2100   0.72961   -90.94    10.658   114.79  0.053834    41.83   0.71406   -44.45
       2150   0.72436   -92.60    10.531   113.72   0.05437    41.16   0.70541   -45.12
       2200   0.71819   -94.23      10.4   112.67  0.054987    40.47   0.69777   -45.63
       2250    0.7121   -95.87     10.27   111.55  0.055547    39.77   0.69141   -46.32
       2300   0.70689   -97.45    10.135   110.50  0.056123    39.05   0.68399   -47.02
       2350   0.70246   -98.99    9.9928   109.55  0.056534    38.44   0.67536   -47.70
       2400   0.69746  -100.59    9.8806   108.55  0.057024    37.86   0.66678   -48.18
       2450   0.69165  -102.11    9.7578   107.58  0.057551    37.31    0.6594   -48.68
       2500   0.68535  -103.61    9.6323   106.62  0.058105    36.53   0.65223   -49.28
       2600   0.67708  -106.44    9.4011   104.78  0.058893    35.35    0.6386   -50.24
       2700   0.66771  -109.35    9.1762   102.92  0.059675    34.15   0.62602   -51.16
       2800   0.65952  -112.02    8.9644   101.12  0.060273    33.08   0.61359   -52.01
       2900   0.65126  -114.75    8.7424    99.41  0.060839    32.09   0.60176   -52.84
       3000   0.64347  -117.27    8.5571    97.73  0.061441    31.23    0.5917   -53.71
       3100   0.63813  -119.83    8.3658    96.07   0.06196    30.31   0.58204   -54.54
       3200   0.63126  -122.24    8.1771    94.46  0.062504    29.48   0.57164   -55.38
       3300   0.62595  -124.78    8.0088    92.87  0.063009    28.59   0.56228   -56.36
       3400   0.61893  -127.14    7.8424    91.26   0.06351    27.88   0.55332   -57.25
       3500    0.6142  -129.44     7.677    89.73  0.063944    27.15   0.54382   -58.06
       3600   0.60876  -131.90    7.5151    88.21  0.064352    26.46   0.53411   -58.73
       3700   0.60443  -133.94    7.3586    86.74  0.064727    25.78   0.52607   -59.40
       3800   0.59886  -136.35    7.2169    85.23  0.065149    25.15    0.5169   -60.21
       3900   0.59462  -138.33    7.0698    83.83  0.065546    24.66   0.50953   -60.93
       4000   0.58987  -140.65    6.9266    82.39  0.065884    23.98   0.50124   -61.74
       4100   0.58629  -142.55    6.7886    81.06   0.06612    23.48   0.49323   -62.28
       4200   0.58204  -144.70    6.6638    79.65  0.066524    22.91   0.48626   -63.00
       4300   0.57947  -146.59    6.5398    78.32  0.066857    22.40   0.47979   -63.74
       4400   0.57512  -148.68    6.4166    76.94  0.067198    21.87   0.47301   -64.44
       4500   0.57261  -150.44    6.2973    75.69  0.067463    21.44   0.46679   -65.04
       4600   0.56962  -152.41    6.1813    74.42   0.06769    20.96   0.45998   -65.67
       4700    0.5674  -154.24    6.0752    73.13  0.067948    20.50   0.45324   -66.42
       4800    0.5644  -156.22    5.9647    71.82  0.068209    20.03   0.44783   -67.18
       4900   0.56202  -158.05     5.863    70.56  0.068472    19.61   0.44242   -67.75
       5000   0.55908  -159.80    5.7607    69.38  0.068722    19.26   0.43593   -68.26
       5200    0.5544  -163.21    5.5657    66.90  0.069149    18.55    0.4254   -69.73
       5400   0.55091  -166.57    5.3877    64.63  0.069569    17.84   0.41529   -70.77
       5600   0.54699  -169.82    5.2141    62.26  0.069913    17.20   0.40503   -72.26
       5800   0.54341  -172.97    5.0518    60.04  0.070217    16.67   0.39636   -73.26
       6000   0.54178  -175.92    4.9022    57.79  0.070559    16.16   0.38745   -74.69
       6200   0.54036  -178.76    4.7608    55.67  0.070947    15.82   0.38039   -75.80
       6400   0.53927   178.31    4.6252    53.51  0.071279    15.44   0.37167   -77.14
       6600   0.53763   175.40    4.5001    51.37  0.071735    15.09   0.36459   -78.38
       6800   0.53715   172.71    4.3839    49.36  0.072276    14.79   0.35765   -79.66
       7000   0.53571   170.16    4.2666    47.25  0.072583    14.64   0.35045   -81.09
       7200   0.53661   167.79    4.1703    45.32  0.073437    14.59   0.34556   -82.29
       7400   0.53696   165.10    4.0693    43.08  0.073991    14.12     0.338   -84.10
       7600   0.53854   162.84    3.9825    41.12  0.074945    14.12   0.33397   -85.36
       7800   0.53685   159.73    3.8735    38.88  0.075307    13.40   0.32343   -87.39
       8000   0.53495   157.94    3.7893    37.40  0.075511    14.08   0.31979   -87.66
       8200   0.53973   155.15    3.7116    35.00   0.07708    13.46   0.31294   -90.31
       8400   0.54046   152.92    3.6287    33.19  0.077743    13.64   0.30843   -91.37
       8600   0.53861   150.42    3.5344    31.15  0.078206    12.63   0.29815   -93.48
       8800   0.53822   148.34    3.4606    29.24  0.079036    12.89   0.29321   -94.92
       9000   0.54066   146.82     3.398    27.62  0.079962    13.19    0.2902   -96.35
       9200   0.54209   144.53    3.3291    25.72  0.080913    12.83   0.28165   -98.23
       9400   0.54455   142.48    3.2645    23.73  0.081752    12.61   0.27804  -100.06
       9600   0.54854   140.41    3.2045    21.97   0.08294    12.72   0.27023  -101.85
       9800   0.55168   138.27    3.1555    20.08  0.083967    12.76   0.26697  -103.43
      10000   0.55655   136.41    3.1022    18.17  0.086421    12.67   0.26614  -105.36
      10200   0.55972   133.96    3.0417    16.14  0.087621    11.84   0.25666  -108.50
      10400   0.56144   132.15    2.9811    14.28  0.088755    11.41   0.25444  -110.39
      10600   0.56169   130.11    2.9246    12.48   0.08989    11.00    0.2444  -112.90
      10800   0.56253   128.61    2.8825    10.71  0.091185    10.84   0.24387  -114.87
      11000   0.56662   126.46    2.8348     8.96  0.092863    10.64   0.23716  -116.64
      11200   0.57182   124.67    2.8053     7.05  0.094549    10.36   0.23805  -119.94
      11400   0.57493   122.72    2.7501     5.08  0.096169     9.60   0.23116  -122.44
      11600    0.5778   120.69    2.7014     3.38   0.09714     9.17   0.22503  -125.55
      11800   0.58359   119.15    2.6623     1.53  0.099175     8.80   0.22242  -127.52
      12000   0.58372   117.44     2.631     0.02   0.10007     8.49   0.21485  -130.29
      12200   0.59089   115.29    2.6002    -2.16   0.10272     8.15   0.21595  -132.77
      12400    0.5904   113.22    2.5563    -4.14   0.10478     7.23   0.20878  -136.36
      12600    0.5918   111.30    2.5037    -5.70   0.10523     6.93    0.2022  -138.92
      12800   0.60152   110.21    2.4877    -7.29   0.10854     6.79   0.19947  -140.23
      13000   0.59859   107.93    2.4484    -9.26   0.10935     5.72   0.19687  -144.03
      13200   0.60462   106.83    2.3999   -11.10   0.11121     5.05   0.19211  -147.69
      13400    0.6079   105.09    2.3812   -12.98   0.11435     4.28   0.19575  -151.49
      13600   0.61488   103.19    2.3554   -14.99   0.11579     3.65   0.19405  -155.80
      13800   0.61332   101.56    2.3159   -16.75   0.11836     2.85   0.19162  -160.25
      14000    0.6212    99.60    2.2926   -18.36   0.11964     1.98   0.19005  -165.02
      14200   0.62699    98.42     2.264   -20.25   0.12186     1.49   0.18625  -168.72
      14400   0.62852    95.81    2.2323   -22.22   0.12364     0.51   0.18949  -175.06
      14600   0.63496    94.39    2.2051   -23.97   0.12613     0.08   0.18239  -177.91
      14800   0.63668    92.41    2.1784   -25.76   0.12848    -0.81   0.18632   176.89
      15000   0.64612    91.06    2.1475   -27.61   0.13068    -1.74    0.1829   173.65
      15200   0.64862    89.63    2.1277   -29.31   0.13336    -2.74   0.18849   169.87
      15400    0.6605    87.91    2.1077   -31.18   0.13513    -3.66   0.18947   165.83
      15600   0.66271    86.94    2.0826   -33.08   0.13783    -4.59   0.19437   162.15
      15800   0.67054    84.77    2.0667   -34.86   0.13956    -5.78   0.19839   158.23
      16000   0.68206    83.51     2.048   -37.07    0.1422    -6.60   0.20236   154.15
      16200   0.68849    81.54    2.0294   -39.27   0.14449    -7.61   0.20711   150.64
      16400    0.6972    79.87    1.9901   -41.40   0.14667    -8.39   0.20787   146.82
      16600   0.69648    78.28    1.9616   -43.08   0.15005    -9.62   0.21874   144.08
      16800   0.70029    76.40    1.9334   -44.69    0.1517   -10.50   0.21735   139.48
      17000   0.70029    74.70    1.9236   -46.47   0.15482   -11.78   0.23225   136.62
      17200    0.7029    72.82    1.9047   -48.49   0.15726   -12.80    0.2318   131.98
      17400   0.70884    70.47    1.8885   -50.95   0.15911   -14.10   0.24712   128.84
      17600   0.70757    69.02    1.8527   -52.67   0.16239   -14.72   0.24524   124.23
      17800   0.70948    67.15    1.8373   -54.76    0.1659   -16.30   0.25448   121.26
      18000   0.72076    66.05    1.8031   -56.79    0.1683   -17.75   0.25934   119.38
      18200   0.72699    63.73    1.7877   -59.17   0.17083   -19.05   0.27146   115.75
      18400   0.73528    62.41     1.744   -61.43   0.17284   -20.40   0.27765   113.53
      18600   0.72689    61.02    1.6976   -62.93   0.17436   -21.47   0.29078   110.25
      18800   0.73544    58.83     1.672   -64.68   0.17703   -22.78   0.30077   107.57
      19000    0.7307    57.63    1.6517   -66.06   0.18119   -23.83   0.30824   104.77
      19200   0.73717    55.80     1.629   -67.89   0.18451   -25.47   0.31514   102.16
      19400   0.74341    54.80    1.6052   -69.17   0.18714   -26.81   0.32086   100.24
      19600   0.75018    53.45    1.5814   -70.93   0.18892   -29.22   0.33678    99.41
      19800   0.77442    52.85    1.5812   -72.28   0.18881   -29.97   0.35167    95.23
      20000   0.78332    50.19    1.5723   -74.74   0.19093   -30.89   0.35702    93.91

!  
! Device Noise Parameters
!  Freq-MHz   Fmin-dB  Gopt-mag  Gopt-arg   rn_normalized
	400	0.4613	0.52447	6.22	0.1491
	420	0.4621	0.52247	6.62	0.1491
	440	0.4630	0.52048	7.03	0.1491
	460	0.4638	0.51852	7.44	0.1491
	480	0.4646	0.51657	7.84	0.1491
	500	0.4655	0.51465	8.25	0.1491
	550	0.4676	0.50992	9.27	0.1492
	600	0.4697	0.50532	10.30	0.1491
	650	0.4719	0.50084	11.33	0.1491
	700	0.4741	0.49648	12.35	0.1491
	750	0.4763	0.49223	13.38	0.1490
	800	0.4785	0.48810	14.41	0.1489
	850	0.4807	0.48407	15.44	0.1488
	900	0.4829	0.48015	16.48	0.1486
	950	0.4852	0.47633	17.51	0.1485
	1000	0.4875	0.47261	18.54	0.1483
	1050	0.4898	0.46899	19.57	0.1481
	1100	0.4921	0.46546	20.60	0.1479
	1150	0.4944	0.46203	21.63	0.1477
	1200	0.4967	0.45868	22.66	0.1475
	1250	0.4991	0.45542	23.69	0.1472
	1300	0.5014	0.45224	24.72	0.1470
	1350	0.5038	0.44914	25.75	0.1467
	1400	0.5062	0.44612	26.77	0.1464
	1450	0.5086	0.44318	27.80	0.1461
	1500	0.5111	0.44030	28.82	0.1457
	1550	0.5135	0.43750	29.84	0.1454
	1600	0.5160	0.43476	30.86	0.1450
	1650	0.5185	0.43209	31.87	0.1446
	1700	0.5210	0.42947	32.89	0.1442
	1750	0.5235	0.42692	33.90	0.1438
	1800	0.5260	0.42442	34.91	0.1434
	1850	0.5286	0.42198	35.91	0.1430
	1900	0.5312	0.41958	36.92	0.1425
	1950	0.5337	0.41724	37.92	0.1421
	2000	0.5363	0.41494	38.92	0.1416
	2050	0.5390	0.41269	39.91	0.1411
	2100	0.5416	0.41048	40.90	0.1406
	2150	0.5442	0.40831	41.89	0.1401
	2200	0.5469	0.40619	42.88	0.1396
	2250	0.5496	0.40409	43.87	0.1390
	2300	0.5523	0.40203	44.85	0.1385
	2350	0.5550	0.40001	45.83	0.1379
	2400	0.5577	0.39801	46.80	0.1373
	2450	0.5605	0.39605	47.78	0.1368
	2500	0.5632	0.39411	48.75	0.1362
	2600	0.5688	0.39031	50.69	0.1350
	2700	0.5744	0.38660	52.61	0.1337
	2800	0.5801	0.38298	54.53	0.1324
	2900	0.5859	0.37942	56.45	0.1311
	3000	0.5917	0.37593	58.35	0.1298
	3100	0.5976	0.37250	60.25	0.1284
	3200	0.6036	0.36912	62.15	0.1270
	3300	0.6096	0.36578	64.05	0.1255
	3400	0.6157	0.36248	65.94	0.1241
	3500	0.6219	0.35921	67.83	0.1226
	3600	0.6281	0.35598	69.73	0.1211
	3700	0.6344	0.35278	71.62	0.1196
	3800	0.6408	0.34961	73.53	0.1181
	3900	0.6472	0.34647	75.43	0.1165
	4000	0.6537	0.34336	77.35	0.1150
	4100	0.6603	0.34029	79.27	0.1134
	4200	0.6669	0.33725	81.20	0.1118
	4300	0.6736	0.33425	83.15	0.1103
	4400	0.6803	0.33129	85.10	0.1087
	4500	0.6871	0.32837	87.07	0.1071
	4600	0.6940	0.32552	89.06	0.1055
	4700	0.7010	0.32271	91.06	0.1039
	4800	0.7080	0.31998	93.08	0.1024
	4900	0.7150	0.31731	95.11	0.1008
	5000	0.7222	0.31472	97.17	0.0993
	5200	0.7367	0.30981	101.34	0.0962
	5400	0.7514	0.30531	105.60	0.0932
	5600	0.7664	0.30129	109.94	0.0903
	5800	0.7817	0.29782	114.35	0.0875
	6000	0.7972	0.29497	118.84	0.0848
	6200	0.8130	0.29280	123.40	0.0822
	6400	0.8290	0.29137	128.00	0.0798
	6600	0.8454	0.29073	132.64	0.0775
	6800	0.8619	0.29092	137.30	0.0755
	7000	0.8788	0.29195	141.94	0.0736
	7200	0.8959	0.29384	146.55	0.0719
	7400	0.9132	0.29658	151.12	0.0705
	7600	0.9308	0.30014	155.61	0.0693
	7800	0.9487	0.30449	160.01	0.0684
	8000	0.9669	0.30958	164.31	0.0678
	8200	0.9853	0.31534	168.49	0.0675
	8400	1.0039	0.32170	172.55	0.0674
	8600	1.0229	0.32860	176.48	0.0678
	8800	1.0421	0.33595	180.29	0.0684
	9000	1.0615	0.34367	183.96	0.0695
	9200	1.0812	0.35169	187.52	0.0709
	9400	1.1012	0.35991	190.96	0.0727
	9600	1.1214	0.36827	194.29	0.0749
	9800	1.1419	0.37669	197.52	0.0776
	10000	1.1627	0.38511	200.66	0.0807
	10200	1.1837	0.39345	203.72	0.0843
	10400	1.2050	0.40166	206.71	0.0883
	10600	1.2265	0.40968	209.64	0.0929
	10800	1.2483	0.41746	212.52	0.0980
	11000	1.2704	0.42497	215.36	0.1036
	11200	1.2927	0.43217	218.18	0.1098
	11400	1.3153	0.43902	220.98	0.1165
	11600	1.3382	0.44552	223.78	0.1238
	11800	1.3613	0.45165	226.59	0.1317
	12000	1.3847	0.45741	229.42	0.1403
	12200	1.4083	0.46280	232.27	0.1494
	12400	1.4322	0.46787	235.17	0.1592
	12600	1.4563	0.47262	238.12	0.1697
	12800	1.4808	0.47713	241.13	0.1809
	13000	1.5054	0.48145	244.22	0.1927
	13200	1.5304	0.48567	247.39	0.2053
	13400	1.5556	0.48989	250.66	0.2186
	13600	1.5811	0.49422	254.02	0.2327
	13800	1.6068	0.49883	257.50	0.2475
	14000	1.6328	0.50387	261.09	0.2632