! Filename:  P:\Prog\Test\Noise\ATS_data\Testdata_Net\Split files Spar\BFU730_2W_B1_Bias9_2.5V_1mA_25mA_D.s2p
! Date/Time: Fri 29/Apr/2011 15:08:53
! BFU730_2W_B1_Bias9_2.5V_1mA_25mA_R.s2p
! MDIF S-parameter v. bias file
! BFU730_2W_B1_2.5V_1mA_25mA
! Date/time Thu Mar 17 13:38:09 2011
! VAR V_out= 2.5000
! VAR I_out= 24.9850
! VAR V_in= 0.8095
! VAR I_in= 0.0936
! Device data file deembeded for feedlines and parallel
! Original file: \Split files Spar\BFU730_2W_B1_Bias9_2.5V_1mA_25mA_R.s2p
! Feed-files: PR003V01_101208_Feed1.s2p, PR003V01_101208_Feed2.s2p
! Parallel-file: PR003V01_101208_Par.s2p
# MHz S MA R 50
!  Freq-MHz   S11-mag  S11-arg   S21-mag  S21-arg   S12-mag  S12-arg   S22-mag  S22-arg
         40   0.76439    -4.71     53.48   176.56 0.0013495    80.30   0.98413    -0.96
         50   0.76579    -6.28    53.603   175.28 0.0013417    89.75   0.98488    -2.04
         60   0.76089    -7.20    53.149   174.65 0.0019678    87.90   0.98748    -2.70
         70    0.7627    -8.34    53.228   174.13 0.0022066    82.45   0.98784    -3.55
         80   0.76221    -9.62    53.418   173.21 0.0024954    82.36   0.98752    -4.32
         90   0.76031   -10.85      53.3   172.18 0.0028159    81.99   0.98648    -5.10
        100   0.75942   -11.95    53.032   171.43 0.0030787    82.31   0.98517    -5.81
        120   0.75854   -14.51    53.028   169.73 0.0037173    81.70   0.98255    -7.26
        140   0.75662   -16.87    52.711   168.06 0.0043272    80.84   0.97947    -8.69
        160   0.75352   -19.25    52.334   166.32 0.0049124    79.71   0.97474   -10.00
        180   0.75194   -21.62    52.048   164.77 0.0055243    79.07   0.96987   -11.34
        200    0.7482   -24.02    51.737   163.04 0.0060887    78.25   0.96442   -12.65
        220   0.74467   -26.37    51.446   161.44 0.0066786    77.39   0.95815   -13.97
        240   0.73928   -28.74     51.11   159.75  0.007243    76.37   0.95155   -15.22
        260   0.73662   -30.97    50.598   158.16  0.007829    75.45   0.94453   -16.44
        280    0.7318   -33.30    50.188   156.60 0.0083342    74.74   0.93734   -17.67
        300   0.72725   -35.60    49.684   155.05 0.0088985    73.76   0.92934   -18.87
        320   0.72134   -37.78    49.201   153.59  0.009405    72.74   0.92074   -20.02
        340   0.71729   -39.96    48.716   152.08 0.0099133    71.84   0.91191   -21.14
        360   0.71263   -42.15    48.193   150.71  0.010393    70.95   0.90272   -22.22
        380   0.70609   -44.40    47.749   149.22  0.010899    70.12   0.89389   -23.30
        400   0.70015   -46.46     47.22   147.82   0.01137    69.17   0.88424   -24.32
        420    0.6941   -48.55    46.717   146.43  0.011793    68.39   0.87547   -25.32
        440   0.68954   -50.56    46.118   145.17  0.012252    67.55    0.8657   -26.36
        460   0.68286   -52.67    45.637   143.81  0.012664    66.80   0.85601   -27.33
        480   0.67796   -54.55    45.002   142.53  0.013113    65.92   0.84638   -28.32
        500   0.67097   -56.47    44.418   141.25  0.013508    65.21   0.83579   -29.23
        550    0.6565   -61.15    43.046   138.14  0.014425    63.65   0.80908   -31.25
        600   0.64235   -65.72    41.649   135.30  0.015325    62.06   0.78537   -33.22
        650   0.62923   -69.94    40.208   132.66  0.016159    60.53   0.76131   -35.08
        700   0.61629   -74.01    38.827   130.16  0.016927    59.26   0.73753   -36.73
        750   0.60441   -77.97    37.545   127.79  0.017651    58.09   0.71518   -38.22
        800   0.59276   -81.79    36.289   125.57  0.018342    57.03   0.69428   -39.61
        850   0.58088   -85.51     35.08   123.37  0.018953    56.00   0.67276   -40.98
        900   0.56979   -88.81    33.877   121.36   0.01952    55.25   0.65233   -42.07
        950   0.56061   -92.10    32.774   119.49  0.020106    54.54   0.63377   -43.12
       1000   0.55088   -95.20    31.709   117.69  0.020658    53.78   0.61603   -44.16
       1050   0.54125   -98.26    30.685   115.97  0.021155    53.19   0.59876   -45.07
       1100   0.53366  -101.10     29.73   114.35  0.021649    52.63   0.58286   -45.91
       1150   0.52587  -103.92    28.817   112.76  0.022109    52.17   0.56773   -46.64
       1200   0.51831  -106.52     27.94   111.31  0.022594    51.72   0.55322   -47.36
       1250   0.51155  -109.16    27.096   109.87  0.023024    51.28    0.5392   -48.07
       1300   0.50556  -111.58    26.307   108.49  0.023461    50.96   0.52586   -48.65
       1350   0.49968  -113.89    25.561   107.19  0.023874    50.70   0.51336   -49.21
       1400   0.49398  -116.26    24.845   105.90  0.024263    50.39   0.50154   -49.75
       1450   0.48886  -118.47    24.163   104.70  0.024668    50.16   0.48996   -50.23
       1500   0.48398  -120.51    23.508   103.53  0.025053    49.99   0.47949   -50.63
       1550   0.47984  -122.51    22.884   102.40  0.025458    49.84   0.46982   -51.00
       1600   0.47546  -124.43    22.291   101.33  0.025863    49.65   0.46034   -51.39
       1650   0.47131  -126.45    21.717   100.24   0.02626    49.54   0.45105   -51.77
       1700   0.46736  -128.21    21.184    99.19   0.02662    49.41   0.44244   -52.10
       1750   0.46368  -129.91    20.661    98.20  0.026993    49.32   0.43425   -52.47
       1800    0.4606  -131.69    20.157    97.21  0.027363    49.16   0.42629   -52.82
       1850   0.45763  -133.41    19.678    96.25  0.027736    49.04   0.41826   -53.11
       1900   0.45478  -134.99    19.226    95.31  0.028119    48.99   0.41179   -53.40
       1950   0.45152  -136.49    18.774    94.40   0.02846    48.91   0.40526   -53.75
       2000   0.44885  -137.96    18.335    93.53  0.028775    48.89   0.39756   -54.19
       2050   0.44745  -139.36    17.916    92.75  0.029136    48.90   0.38988   -54.39
       2100   0.44547  -140.82    17.536    91.93  0.029536    48.94   0.38416   -54.52
       2150   0.44406  -142.15    17.158    91.17  0.029887    48.98   0.37786   -54.81
       2200   0.44205  -143.49    16.809    90.42   0.03034    48.92   0.37229   -54.84
       2250   0.43981  -144.89    16.459    89.60  0.030736    48.81   0.36803   -55.19
       2300   0.43813  -146.08     16.11    88.86  0.031022    48.77    0.3624   -55.63
       2350   0.43789  -147.29    15.777    88.19  0.031331    48.85   0.35543   -55.98
       2400   0.43742  -148.56    15.474    87.53  0.031721    49.00   0.34917   -56.01
       2450   0.43597  -149.87    15.173    86.91  0.032182    49.07     0.344   -56.13
       2500   0.43378  -151.36    14.908    86.23  0.032627    49.00   0.33885   -56.18
       2600   0.43089  -153.38     14.38    84.96  0.033373    48.90   0.32997   -56.28
       2700   0.42915  -155.66    13.883    83.65  0.034162    48.79   0.32187   -56.34
       2800   0.42693  -157.58    13.422    82.40  0.034874    48.73   0.31478   -56.40
       2900   0.42536  -159.62    12.984    81.25  0.035651    48.78   0.30854   -56.31
       3000   0.42393  -161.48      12.6    80.11  0.036473    48.80   0.30328   -56.50
       3100   0.42332  -163.30    12.235    78.86  0.037252    48.74   0.29885   -56.71
       3200   0.42169  -165.08    11.873    77.70   0.03803    48.64   0.29315   -57.02
       3300   0.42168  -166.78    11.542    76.59   0.03881    48.61   0.28818   -57.44
       3400   0.42064  -168.49    11.231    75.43   0.03964    48.60    0.2835   -57.83
       3500   0.42046  -170.18    10.937    74.30   0.04047    48.52   0.27858   -58.11
       3600   0.42034  -171.92    10.643    73.19  0.041294    48.44   0.27344   -58.34
       3700   0.41921  -173.27     10.37    72.07  0.042079    48.39   0.26896   -58.50
       3800   0.41945  -175.06    10.115    70.97  0.042941    48.26   0.26461   -58.87
       3900   0.41836  -176.29    9.8655    69.94  0.043822    48.20   0.26116   -59.17
       4000   0.41911  -178.00    9.6245    68.87  0.044666    48.00   0.25682   -59.53
       4100   0.41851  -179.25     9.398    67.88  0.045507    47.97   0.25256   -59.63
       4200   0.41822   179.23    9.1832    66.84  0.046445    47.78   0.24909   -59.96
       4300   0.41814   177.99    8.9812    65.84  0.047334    47.61    0.2463   -60.41
       4400   0.41865   176.55    8.7813    64.82  0.048249    47.34   0.24351   -60.75
       4500   0.41829   175.34    8.5929    63.85  0.049124    47.16   0.24047   -61.05
       4600   0.41885   174.01    8.4112    62.89  0.049964    46.92   0.23669   -61.44
       4700   0.41922   172.80    8.2416    61.91  0.050815    46.71   0.23309   -61.92
       4800   0.41993   171.36    8.0691    60.92   0.05169    46.46   0.23068   -62.50
       4900   0.42012   170.11    7.9134    59.94  0.052579    46.23   0.22751   -62.80
       5000   0.41969   168.94    7.7557    59.02  0.053484    46.01   0.22427   -62.96
       5200   0.42041   166.56    7.4568    57.12  0.055261    45.50   0.21862   -64.00
       5400   0.42135   164.30    7.1934    55.32  0.057057    44.92   0.21397   -64.53
       5600   0.42215   162.02    6.9362    53.46   0.05878    44.40   0.20799   -65.61
       5800   0.42261   159.89    6.6997    51.71  0.060541    43.83   0.20332   -66.14
       6000   0.42402   157.89    6.4833    49.92  0.062312    43.25   0.19842   -67.28
       6200   0.42607   156.00    6.2807    48.20  0.064147    42.71   0.19398   -68.01
       6400   0.42778   153.97     6.087    46.46  0.065958    42.10   0.18906   -69.03
       6600   0.42976   151.85     5.909    44.73  0.067836    41.44   0.18524   -69.81
       6800   0.43146   150.01    5.7484    43.05  0.069744    40.67   0.18108   -71.21
       7000    0.4328   148.18     5.583    41.36  0.071583    40.15   0.17655   -71.98
       7200   0.43531   146.57    5.4465    39.69  0.073743    39.41   0.17368   -73.22
       7400   0.43786   144.62    5.3078    37.84  0.075588    38.46   0.16894   -74.95
       7600   0.44131   143.08    5.1858    36.13  0.077683    37.82   0.16606   -76.13
       7800   0.44313   140.63    5.0339    34.20   0.07925    36.75   0.15691   -78.35
       8000   0.44231   139.43    4.9211    33.09  0.081329    36.52   0.15742   -77.36
       8200   0.44844   137.40    4.8136    30.91  0.083524    35.31   0.15063   -80.77
       8400   0.45071   135.58       4.7    29.39  0.085603    34.66   0.14989   -81.62
       8600   0.45171   133.63    4.5693    27.63  0.086984    33.34   0.13877   -83.87
       8800   0.45158   132.18    4.4687    26.01  0.089048    32.74   0.13563   -84.95
       9000   0.45503   131.34    4.3888    24.65  0.091149    32.20   0.13342   -86.53
       9200   0.45707   129.60    4.2922    22.96   0.09292    31.16    0.1267   -88.66
       9400   0.46159   128.05    4.2064    21.27  0.094805    30.25   0.12317   -90.59
       9600   0.46768   126.63    4.1261    19.76  0.096922    29.57   0.11583   -92.16
       9800   0.47143   124.95    4.0622    18.14  0.098924    28.84    0.1131   -93.02
      10000    0.4779   123.46    3.9922    16.40   0.10204    27.82   0.11316   -95.93
      10200   0.48215   121.48     3.912    14.61   0.10384    26.47   0.10392  -100.02
      10400   0.48424   119.92    3.8315    12.92   0.10582    25.43   0.10117  -103.03
      10600    0.4861   118.27    3.7552    11.35   0.10767    24.39  0.092716  -105.79
      10800   0.48823   116.95    3.7002     9.81    0.1097    23.49   0.09014  -107.74
      11000    0.4945   115.39    3.6291     8.23   0.11187    22.55  0.085706  -110.27
      11200   0.50037   113.87    3.6003     6.61   0.11412    21.59  0.084239  -115.13
      11400   0.50428   112.26    3.5234     4.77   0.11627    20.30  0.077861  -119.54
      11600   0.50795   110.47    3.4616     3.33   0.11783    19.26  0.072881  -125.53
      11800   0.51409   109.12    3.4134     1.61   0.12029    18.14  0.068851  -128.21
      12000    0.5144   107.87    3.3697     0.32    0.1215    17.23  0.063563  -133.93
      12200     0.524   105.96    3.3342    -1.74   0.12443    16.24  0.062479  -136.96
      12400   0.52506   104.21    3.2722    -3.58   0.12676    14.92  0.058582  -146.77
      12600   0.52625   102.67    3.2073    -4.85   0.12773    13.97  0.051401  -151.84
      12800   0.53545   101.73    3.1861    -6.35   0.13102    13.09  0.050063  -152.82
      13000   0.53371    99.77    3.1387    -8.10   0.13197    11.62  0.049617  -163.23
      13200   0.53993    98.77    3.0746    -9.85   0.13405    10.52  0.047935  -171.71
      13400    0.5449    97.57     3.048   -11.56   0.13669     9.27  0.055238   179.85
      13600   0.55278    95.99    3.0169   -13.35   0.13819     8.24  0.058095   171.70
      13800   0.55388    94.46    2.9602   -15.04   0.14069     7.07   0.06172   161.51
      14000   0.56203    92.87    2.9326   -16.27   0.14191     5.87   0.06751   151.46
      14200   0.57029    91.65    2.8976   -18.12   0.14413     4.97  0.068799   144.16
      14400   0.57279    89.33    2.8552   -19.81   0.14606     3.76  0.081122   135.70
      14600   0.57895    87.99    2.8296   -21.42   0.14863     2.84   0.07846   129.83
      14800   0.58117    86.25    2.7958   -23.03   0.15081     1.55  0.087894   124.40
      15000    0.5883    85.02     2.761   -24.76   0.15295     0.30  0.090287   119.95
      15200   0.59152    83.70     2.735   -26.34   0.15513    -1.06    0.0961   118.94
      15400   0.60506    82.35    2.7119   -28.04   0.15673    -2.14   0.10472   114.22
      15600   0.60841    81.37    2.6821   -29.90    0.1592    -3.48   0.11013   112.54
      15800   0.61674    79.75    2.6603   -31.43   0.16027    -4.80   0.11849   109.08
      16000   0.63029    78.49    2.6394   -33.64   0.16269    -5.83   0.12726   106.85
      16200   0.63841    76.64    2.6158   -35.63   0.16482    -7.00   0.13135   103.69
      16400   0.64678    74.98    2.5676   -37.71   0.16685    -7.96   0.13731   101.29
      16600   0.64875    73.36    2.5277   -39.21   0.16992    -9.41   0.14622   101.20
      16800   0.65422    71.71    2.4942   -40.60    0.1712   -10.48    0.1528    96.66
      17000   0.65684    70.03    2.4827   -42.24    0.1739   -11.90   0.16614    96.50
      17200   0.65985    68.24    2.4631   -44.17   0.17607   -13.04   0.17225    92.31
      17400   0.66704    66.06    2.4488   -46.43   0.17765   -14.35   0.18455    91.23
      17600   0.66535    64.58    2.4021   -48.17   0.18083   -15.30   0.19101    86.86
      17800   0.66677    63.11    2.3863   -50.09   0.18374   -16.98    0.1961    85.58
      18000   0.67794    62.17    2.3418   -52.11   0.18574   -18.51   0.20142    84.96
      18200   0.68514    60.01    2.3262   -54.34    0.1878   -19.88   0.21214    83.34
      18400   0.69243    58.55    2.2764   -56.60   0.18982   -21.26   0.21567    82.55
      18600   0.68582    57.31    2.2107   -57.99   0.19065   -22.48   0.23246    81.86
      18800   0.69547    55.20    2.1821   -59.61    0.1934   -23.78   0.24154    79.93
      19000   0.69139    54.07    2.1514   -60.92   0.19674   -25.02    0.2512    78.05
      19200   0.69763    52.63    2.1235   -62.65   0.19962   -26.78   0.25709    76.26
      19400   0.70277    51.73    2.0954   -63.76   0.20153   -28.21    0.2602    75.23
      19600   0.70896    50.59    2.0654   -65.31    0.2024   -30.56   0.27532    76.74
      19800   0.73635    49.98     2.074   -66.48   0.20174   -31.18   0.29265    73.38
      20000   0.75103    47.20    2.0691   -68.73   0.20389   -31.94   0.29881    71.86