! Filename:  P:\Prog\Test\Noise\ATS_data\Testdata_Net\Split files Spar\BFU730_2W_B1_1V_1mA_30mA_Bias5_D.s2p
! Date/Time: Fri 29/Apr/2011 14:16:12
! BFU730_2W_B1_1V_1mA_30mA_Bias5_R.s2p
! MDIF S-parameter v. bias file
! BFU730_2W_B1_1V_1mA_30mA
! Date/time Thu Mar 17 14:34:31 2011
! VAR V_out= 1.0001
! VAR I_out= 7.4800
! VAR V_in= 0.8022
! VAR I_in= 0.0227
! Device data file deembeded for feedlines and parallel
! Original file: \Split files Spar\BFU730_2W_B1_1V_1mA_30mA_Bias5_R.s2p
! Feed-files: PR003V01_101208_Feed1.s2p, PR003V01_101208_Feed2.s2p
! Parallel-file: PR003V01_101208_Par.s2p
# MHz S MA R 50
!  Freq-MHz   S11-mag  S11-arg   S21-mag  S21-arg   S12-mag  S12-arg   S22-mag  S22-arg
         40    0.9268    -2.62    22.262   178.28 0.0015825    88.27    0.9963    -1.32
         50   0.92689    -3.80    22.319   177.30 0.0025014    84.24   0.99615    -1.79
         60   0.92337    -3.77    22.052   176.97 0.0024429    84.03   0.99719    -2.11
         70   0.92682    -4.48    22.112   176.80 0.0028222    87.93   0.99707    -2.54
         80   0.92624    -5.17     22.27   176.23 0.0032617    87.59   0.99712    -2.94
         90    0.9259    -5.83    22.262   175.56  0.003693    87.08   0.99671    -3.36
        100   0.92555    -6.38     22.15   175.17 0.0040839    86.62   0.99638    -3.76
        120   0.92526    -7.79    22.183   174.19 0.0048932    86.15   0.99565    -4.57
        140   0.92444    -9.06    22.163   173.23 0.0057143    85.99    0.9951    -5.39
        160   0.92326   -10.36    22.046   172.15  0.006526    85.14   0.99376    -6.19
        180   0.92306   -11.68    22.059   171.28 0.0073778    84.41   0.99239    -6.98
        200   0.92153   -13.02    22.016   170.23 0.0082005    83.76   0.99086    -7.78
        220   0.92008   -14.32    22.022   169.28 0.0090009    83.09   0.98901    -8.59
        240   0.91775   -15.65    22.058   168.23 0.0098437    82.35   0.98735    -9.38
        260   0.91703   -16.89    21.897   167.27  0.010627    81.70   0.98533   -10.17
        280    0.9151   -18.21    21.874   166.30  0.011472    81.08   0.98329   -10.95
        300    0.9138   -19.52    21.774   165.34  0.012256    80.09   0.98119   -11.76
        320   0.91139   -20.75    21.651   164.42   0.01308    79.33   0.97822   -12.54
        340   0.90882   -22.06    21.628   163.41  0.013836    78.68   0.97503   -13.31
        360   0.90761   -23.29    21.506   162.60  0.014624    78.00   0.97165   -14.08
        380   0.90506   -24.62    21.478   161.67  0.015411    77.27   0.96834   -14.86
        400   0.90182   -25.91    21.488   160.73  0.016221    76.63   0.96471   -15.56
        420   0.89902   -27.24    21.472   159.76  0.016962    75.78   0.96218   -16.28
        440   0.89695   -28.42    21.294   158.88   0.01773    75.09   0.95858   -17.07
        460   0.89381   -29.74    21.278   157.99  0.018471    74.42   0.95497   -17.78
        480   0.89128   -30.95    21.126   157.08   0.01925    73.63   0.95227   -18.59
        500   0.88827   -32.14    20.992   156.18  0.019943    72.86   0.94694   -19.37
        550   0.88063   -35.24    20.837   153.94  0.021666    71.13   0.93431   -21.09
        600   0.87184   -38.37    20.676   151.80  0.023404    69.45   0.92417   -22.79
        650   0.86389   -41.23     20.32   149.69  0.025087    67.75   0.91278   -24.54
        700   0.85572   -44.07    19.959   147.73  0.026687    66.10   0.89974   -26.28
        750   0.84727   -47.10    19.781   145.73  0.028177    64.60   0.88656   -27.82
        800   0.83799   -50.07    19.589   143.74   0.02974    63.15   0.87589   -29.27
        850   0.82888   -52.75    19.219   141.83  0.031178    61.58   0.86389   -30.87
        900   0.81988   -55.40    18.885   139.97  0.032431    60.25   0.84832   -32.36
        950   0.81158   -58.18    18.653   138.22  0.033723    58.95   0.83475   -33.68
       1000   0.80189   -60.81     18.38   136.40   0.03499    57.61   0.82292   -35.07
       1050   0.79192   -63.43    18.089   134.65  0.036171    56.31   0.80952   -36.41
       1100   0.78408   -65.90    17.784   133.02  0.037245    55.16   0.79564   -37.69
       1150   0.77407   -68.54    17.549   131.28  0.038312    54.10   0.78254   -38.85
       1200   0.76503   -71.00    17.275   129.70  0.039375    52.92   0.77064   -40.05
       1250   0.75655   -73.32    16.934   128.12  0.040338    51.75   0.75796   -41.34
       1300   0.74813   -75.67    16.663   126.59  0.041221    50.73   0.74427   -42.42
       1350   0.73982   -78.04     16.42   125.05  0.042116    49.83   0.73198   -43.46
       1400   0.73121   -80.37    16.156   123.56  0.042979    48.82   0.72005   -44.53
       1450   0.72307   -82.62    15.887   122.12  0.043754    47.90   0.70777   -45.56
       1500   0.71518   -84.75    15.619   120.74  0.044497    47.03   0.69613   -46.51
       1550   0.70803   -86.80    15.351   119.37  0.045258    46.19    0.6851   -47.40
       1600   0.70058   -88.85    15.087   118.06   0.04599    45.39    0.6744   -48.33
       1650   0.69319   -90.91    14.814   116.77  0.046655    44.56   0.66298   -49.24
       1700   0.68627   -92.88    14.581   115.48  0.047248    43.86   0.65195   -50.06
       1750   0.67939   -94.83    14.344   114.21  0.047864    43.12   0.64168   -50.93
       1800   0.67282   -96.82    14.094   112.98  0.048465    42.38   0.63164   -51.78
       1850   0.66623   -98.77    13.865   111.76   0.04901    41.69   0.62113   -52.57
       1900   0.65986  -100.64    13.645   110.54  0.049524    41.06   0.61181   -53.32
       1950   0.65357  -102.38    13.407   109.40   0.05003    40.44   0.60274   -54.09
       2000     0.648  -104.12     13.17   108.28  0.050536    39.80   0.59292   -54.93
       2050   0.64226  -105.84    12.944   107.23  0.050989    39.29   0.58266   -55.63
       2100   0.63743  -107.47    12.733   106.19  0.051487    38.74   0.57421   -56.27
       2150   0.63244  -109.14     12.53   105.17  0.051931    38.25   0.56507   -56.98
       2200   0.62741  -110.78    12.335   104.18  0.052406    37.73   0.55635   -57.49
       2250     0.622  -112.41    12.135   103.13  0.052822    37.22    0.5493   -58.19
       2300   0.61746  -113.99    11.933   102.15  0.053243    36.67   0.54123   -58.94
       2350   0.61351  -115.52    11.734   101.24  0.053583    36.20   0.53212   -59.64
       2400   0.60968  -117.13     11.56   100.33  0.053973    35.85   0.52318   -60.14
       2450   0.60465  -118.66    11.379    99.46  0.054389    35.47    0.5151   -60.66
       2500   0.59944  -120.19    11.209    98.58  0.054848    34.96   0.50764   -61.20
       2600   0.59222  -122.89    10.883    96.89  0.055522    34.13   0.49344   -62.14
       2700   0.58506  -125.71    10.568    95.18  0.056149    33.29   0.47969   -63.05
       2800    0.5788  -128.32    10.274    93.53  0.056691    32.59   0.46724   -63.88
       2900   0.57226  -130.87    9.9802    92.00  0.057233    31.98   0.45544   -64.59
       3000   0.56694  -133.32    9.7272    90.49  0.057825    31.43   0.44511   -65.41
       3100   0.56265  -135.70    9.4806    88.95  0.058359    30.85   0.43564   -66.22
       3200   0.55782  -137.99     9.234    87.48  0.058883    30.34   0.42524   -67.06
       3300   0.55434  -140.35    9.0112    86.04  0.059402    29.73    0.4162   -68.06
       3400   0.54946  -142.57    8.7956    84.58  0.059951    29.32   0.40739   -68.90
       3500   0.54611  -144.76    8.5884    83.17   0.06045    28.87   0.39831   -69.71
       3600   0.54266  -146.99    8.3831    81.80  0.060922    28.50    0.3891   -70.40
       3700   0.53955  -148.92    8.1886    80.43   0.06139    28.10   0.38093   -71.06
       3800   0.53634  -151.15    8.0078    79.06   0.06188    27.75   0.37236   -71.88
       3900   0.53364  -152.92    7.8291    77.79  0.062449    27.45    0.3656   -72.54
       4000   0.53068  -155.07    7.6546    76.48  0.062915    27.04   0.35771   -73.36
       4100   0.52838  -156.83    7.4875    75.25  0.063335    26.76   0.34988   -73.90
       4200   0.52607  -158.76    7.3323    73.99  0.063887    26.43   0.34336   -74.60
       4300   0.52408  -160.46    7.1832    72.77  0.064407    26.13   0.33759   -75.37
       4400   0.52192  -162.38    7.0358    71.52  0.064948    25.81   0.33127   -76.02
       4500   0.52031  -163.98    6.8955    70.36  0.065453    25.56   0.32552   -76.63
       4600   0.51862  -165.76    6.7574    69.20  0.065892    25.24   0.31907   -77.33
       4700   0.51787  -167.40    6.6313    68.02  0.066319    24.99   0.31305   -78.07
       4800   0.51602  -169.20       6.5    66.85  0.066843    24.67   0.30818   -78.87
       4900   0.51467  -170.86     6.382    65.68  0.067294    24.42   0.30262   -79.46
       5000   0.51332  -172.44    6.2632    64.60  0.067829    24.20   0.29677   -79.99
       5200   0.51084  -175.51    6.0345    62.34  0.068763    23.76   0.28707   -81.45
       5400   0.50933  -178.51    5.8312    60.24  0.069771    23.26   0.27777   -82.54
       5600   0.50724   178.55    5.6298    58.06  0.070684    22.79   0.26864   -84.08
       5800   0.50584   175.73    5.4465    56.01  0.071635    22.41   0.26007   -85.14
       6000   0.50543   173.11    5.2774    53.93  0.072614    22.01   0.25212   -86.69
       6200   0.50555   170.54    5.1176    51.94  0.073631    21.67   0.24484   -87.85
       6400   0.50547   167.95    4.9664    49.94  0.074659    21.31   0.23709   -89.32
       6600   0.50567   165.30    4.8242    47.94  0.075756    20.93   0.23045   -90.61
       6800   0.50592   162.89    4.6969    46.04  0.076939    20.52   0.22418   -92.27
       7000   0.50594   160.58    4.5646    44.11  0.077994    20.29     0.217   -93.62
       7200   0.50779   158.42    4.4555    42.24  0.079445    19.97   0.21236   -95.15
       7400   0.50897   155.96    4.3436    40.17  0.080611    19.36   0.20568   -97.24
       7600   0.51168   153.93    4.2449    38.28   0.08213    19.10   0.20148   -98.70
       7800   0.51125   151.15    4.1254    36.19  0.082979    18.27   0.19207  -101.50
       8000   0.51058   149.51    4.0327    34.81  0.084153    18.54   0.18814  -101.32
       8200    0.5154   147.07    3.9459    32.52  0.085973    17.70   0.18254  -104.81
       8400   0.51628   144.98    3.8547    30.80  0.087317    17.51     0.179  -105.89
       8600   0.51624   142.65    3.7513    28.87  0.088287    16.44   0.16935  -109.29
       8800   0.51593   140.82     3.671    27.07  0.089769    16.28   0.16446  -110.69
       9000    0.5192   139.46    3.6039    25.52  0.091257    16.10   0.16192  -112.68
       9200   0.52083   137.40    3.5269    23.69  0.092683    15.39   0.15566  -115.47
       9400   0.52411   135.46    3.4565    21.81  0.093971    14.80   0.15189  -117.87
       9600   0.52912   133.64    3.3907    20.13  0.095532    14.46   0.14491  -120.81
       9800   0.53195   131.68    3.3369    18.35  0.096979    14.12   0.14127  -122.42
      10000   0.53764   129.91    3.2789    16.49  0.099684    13.58   0.14113  -125.17
      10200   0.54059   127.72    3.2132    14.57   0.10119    12.52   0.13465  -130.01
      10400   0.54255   125.91    3.1471    12.76   0.10266    11.80    0.1328  -133.05
      10600    0.5434   123.99    3.0864    11.03   0.10418    11.07   0.12609  -137.28
      10800   0.54557   122.44    3.0389     9.37   0.10578    10.51   0.12436  -139.90
      11000   0.55076   120.52    2.9833     7.64   0.10767     9.88   0.12053  -143.40
      11200   0.55556   118.82    2.9539     5.88   0.10949     9.22   0.12156  -147.61
      11400    0.5587   116.96    2.8932     3.96   0.11133     8.22   0.11747  -152.24
      11600   0.56156   115.05    2.8416     2.35   0.11246     7.46   0.11583  -157.60
      11800   0.56775   113.47    2.8005     0.54   0.11464     6.71   0.11317  -161.01
      12000    0.5686   111.94    2.7649    -0.90   0.11566     5.99   0.11094  -166.17
      12200   0.57638   109.86    2.7312    -3.02   0.11814     5.32   0.11078  -169.63
      12400   0.57606   107.92    2.6818    -4.94   0.12022     4.27   0.11077  -175.68
      12600   0.57699   106.25    2.6285    -6.36   0.12095     3.57    0.1065   179.14
      12800   0.58627   105.05     2.609    -7.99   0.12399     3.08   0.10594   176.97
      13000   0.58405   102.97    2.5679    -9.82   0.12493     1.79   0.10756   171.03
      13200   0.58963   101.76    2.5174   -11.64   0.12679     0.89   0.10868   166.41
      13400   0.59389   100.23    2.4948   -13.42   0.12947    -0.17   0.11585   162.45
      13600   0.60092    98.48     2.466   -15.33   0.13071    -1.06   0.12021   157.51
      13800   0.60058    96.87    2.4223   -17.06   0.13299    -2.02   0.12499   152.45
      14000   0.60879    95.09    2.3967   -18.50   0.13413    -3.10   0.13088   146.59
      14200    0.6153    93.77    2.3666   -20.41   0.13583    -3.79   0.13346   142.31
      14400    0.6175    91.42    2.3318   -22.23   0.13748    -4.82    0.1443   136.85
      14600   0.62288    89.95    2.3067   -23.93   0.13976    -5.42   0.14309   132.99
      14800   0.62468    88.16    2.2776   -25.62   0.14192    -6.48   0.15224   128.93
      15000   0.63164    86.78    2.2465   -27.40   0.14404    -7.53   0.15453   125.37
      15200   0.63529    85.31    2.2252   -29.09   0.14625    -8.74   0.16173   123.52
      15400   0.64757    83.74    2.2025   -30.89   0.14773    -9.74   0.16889   119.76
      15600   0.65066    82.66    2.1777   -32.75   0.15012   -10.88   0.17536   117.54
      15800   0.65814    80.80    2.1581   -34.45   0.15127   -12.17   0.18328   114.50
      16000   0.66969    79.41    2.1382   -36.65   0.15322   -13.11   0.19198   111.82
      16200   0.67628    77.50    2.1154   -38.69   0.15503   -14.09   0.19683   108.85
      16400   0.68313    75.77    2.0749   -40.74   0.15673   -14.87   0.20188   106.34
      16600   0.68418    74.12    2.0436   -42.35    0.1597   -16.13   0.21084   105.28
      16800   0.68925    72.48    2.0155   -43.86   0.16079   -17.09   0.21729   101.81
      17000    0.6911    70.69    2.0026   -45.62   0.16349   -18.34   0.23094   100.63
      17200   0.69341    68.94    1.9839   -47.56   0.16541   -19.34   0.23731    96.87
      17400    0.6992    66.74    1.9668   -49.85   0.16677   -20.54   0.24945    95.31
      17600   0.69835    65.23    1.9306   -51.54   0.16987   -21.22   0.25529    91.41
      17800   0.69958    63.67     1.914   -53.51   0.17285   -22.79   0.26196    89.71
      18000   0.71005    62.58    1.8795   -55.55   0.17489   -24.22   0.26644    88.49
      18200   0.71569    60.37    1.8617   -57.82   0.17667   -25.45   0.27801    86.35
      18400   0.72159    58.88     1.819   -59.98   0.17875   -26.66   0.28125    85.25
      18600   0.71452    57.61    1.7691   -61.33   0.17964   -27.75    0.2966    83.96
      18800   0.72292    55.50    1.7445   -63.00   0.18229   -28.93   0.30562    82.07
      19000   0.71978    54.34     1.721   -64.32   0.18582   -30.02   0.31502    80.23
      19200   0.72551    52.82    1.7001   -66.13   0.18889   -31.72   0.32146    78.09
      19400    0.7304    51.72    1.6757   -67.35   0.19102   -33.08   0.32469    77.13
      19600   0.73605    50.57    1.6519   -68.99   0.19235   -35.49   0.33889    77.52
      19800   0.75977    49.75    1.6518   -70.33   0.19106   -36.16   0.35673    74.53
      20000   0.77182    47.13    1.6418   -72.56   0.19256   -36.81   0.36275    73.05