! Filename:  P:\Prog\Test\Noise\ATS_data\Testdata_Net\Split files Spar\BFU730_2W_B1_Bias8_1.5V_1mA_30mA_D.s2p
! Date/Time: Fri 29/Apr/2011 14:16:59
! BFU730_2W_B1_Bias8_1.5V_1mA_30mA_R.s2p
! MDIF S-parameter v. bias file
! BFU730_2W_B1_1.5V_1mA_30mA
! Date/time Thu Mar 17 13:45:32 2011
! VAR V_out= 1.5001
! VAR I_out= 20.0850
! VAR V_in= 0.8212
! VAR I_in= 0.0688
! Device data file deembeded for feedlines and parallel
! Original file: \Split files Spar\BFU730_2W_B1_Bias8_1.5V_1mA_30mA_R.s2p
! Feed-files: PR003V01_101208_Feed1.s2p, PR003V01_101208_Feed2.s2p
! Parallel-file: PR003V01_101208_Par.s2p
# MHz S MA R 50
!  Freq-MHz   S11-mag  S11-arg   S21-mag  S21-arg   S12-mag  S12-arg   S22-mag  S22-arg
         40   0.81449    -4.53    47.475   177.12 0.0014547    87.53   0.98945    -1.35
         50   0.81155    -5.69    47.594   175.84 0.0014504    92.17   0.98992    -2.33
         60   0.81382    -6.68    47.081   175.19 0.0020862    91.75   0.99226    -2.95
         70   0.81311    -7.81    47.201   174.67 0.0024452    87.07   0.99253    -3.74
         80   0.81212    -8.98    47.458   173.77 0.0027841    86.48   0.99221    -4.47
         90   0.81057   -10.12    47.384   172.79 0.0031447    85.85   0.99134    -5.22
        100   0.80952   -11.17    47.149   172.07 0.0034269    85.05    0.9903    -5.90
        120   0.80849   -13.49    47.153   170.44 0.0041359    84.21   0.98784    -7.32
        140   0.80659   -15.67    46.938   168.85  0.004857    83.22   0.98529    -8.71
        160   0.80364   -17.85    46.584   167.20 0.0055108    82.12    0.9811   -10.02
        180   0.80189   -20.06    46.439   165.74 0.0061933    81.08   0.97679   -11.33
        200   0.79822   -22.25    46.172   164.11 0.0068378    80.08   0.97192   -12.64
        220   0.79478   -24.46     45.99   162.58 0.0075081    79.16   0.96632   -13.94
        240   0.78976   -26.65    45.766   160.97 0.0081623    77.99    0.9606   -15.20
        260   0.78736   -28.71    45.305   159.48 0.0087884    76.98   0.95436   -16.44
        280   0.78232   -30.94    45.005   158.00 0.0094341    76.06   0.94795   -17.66
        300    0.7784   -33.02    44.574   156.52  0.010039    74.99   0.94098   -18.90
        320   0.77333   -35.10    44.156   155.14  0.010615    74.01   0.93292   -20.07
        340   0.76844   -37.10    43.825   153.69  0.011204    73.12   0.92478   -21.22
        360   0.76452   -39.18    43.397   152.41  0.011764    72.16   0.91618   -22.34
        380    0.7583   -41.31    43.068   150.99  0.012341    71.28   0.90781   -23.46
        400   0.75207   -43.24    42.727   149.64  0.012862    70.30   0.89889   -24.49
        420    0.7459   -45.26    42.338   148.28  0.013427    69.49   0.89093   -25.53
        440   0.74169   -47.10    41.823   147.08  0.013956    68.60   0.88204   -26.62
        460   0.73523   -49.13    41.477   145.77  0.014439    67.82   0.87302   -27.64
        480   0.73015   -50.90    40.936   144.54  0.014949    66.87   0.86419   -28.70
        500   0.72321   -52.80    40.463   143.27  0.015385    66.02   0.85375   -29.68
        550   0.70898   -57.23    39.394   140.26  0.016486    64.32   0.82797   -31.85
        600   0.69364   -61.65    38.287   137.45   0.01757    62.52   0.80528   -33.99
        650   0.68041   -65.70    37.067   134.85  0.018549    60.94   0.78182   -36.05
        700   0.66705   -69.68    35.886   132.38   0.01942    59.51    0.7581   -37.93
        750   0.65412   -73.59    34.844   129.99  0.020299    58.16   0.73587   -39.61
        800   0.64166   -77.35    33.787   127.75  0.021095    56.89   0.71541   -41.20
        850   0.62934   -80.95    32.716   125.56  0.021822    55.72   0.69394   -42.81
        900   0.61732   -84.23    31.688   123.51  0.022494    54.80   0.67252   -44.13
        950    0.6069   -87.52     30.74   121.61  0.023165    53.93   0.65334   -45.38
       1000   0.59628   -90.57    29.799   119.78  0.023803    52.98   0.63522   -46.64
       1050   0.58567   -93.65    28.895   118.01  0.024384    52.27   0.61718   -47.78
       1100    0.5771   -96.48    28.044   116.36  0.024942    51.61   0.60033   -48.83
       1150   0.56789   -99.34    27.237   114.71  0.025467    51.00   0.58424   -49.77
       1200   0.55947  -101.99     26.45   113.22  0.025986    50.41   0.56904   -50.71
       1250    0.5517  -104.62    25.679   111.73  0.026492    49.86   0.55404   -51.65
       1300    0.5447  -107.08    24.972   110.31  0.026942    49.41   0.53957   -52.43
       1350     0.538  -109.45    24.299   108.96  0.027408    48.99   0.52621   -53.18
       1400   0.53132  -111.85    23.642   107.64  0.027852    48.56   0.51341   -53.93
       1450   0.52532  -114.07    23.017   106.39   0.02828    48.20    0.5008   -54.60
       1500   0.51941  -116.16    22.414   105.18  0.028689    47.94   0.48925   -55.19
       1550   0.51471  -118.19    21.835   104.01  0.029127    47.67   0.47858   -55.74
       1600   0.50959  -120.16    21.287   102.90  0.029565    47.39   0.46815   -56.31
       1650   0.50482  -122.23    20.755   101.78  0.029964    47.14    0.4578   -56.86
       1700   0.50025  -124.05    20.261   100.68  0.030347    46.95   0.44818   -57.35
       1750   0.49581  -125.78    19.775    99.66  0.030752    46.75   0.43914   -57.89
       1800   0.49192  -127.67    19.302    98.63  0.031145    46.55   0.43028   -58.39
       1850   0.48849  -129.43    18.856    97.63  0.031498    46.36   0.42133   -58.84
       1900    0.4849  -131.03    18.433    96.66  0.031904    46.23    0.4139   -59.27
       1950   0.48105  -132.59    18.008    95.72  0.032245    46.10   0.40661   -59.75
       2000   0.47809  -134.12    17.596    94.83  0.032592    45.99   0.39821   -60.33
       2050    0.4757  -135.59    17.201    94.01  0.032943    45.97    0.3897   -60.69
       2100   0.47337  -137.08    16.842    93.15  0.033344    45.89   0.38306   -60.96
       2150   0.47144  -138.47    16.487    92.36  0.033716    45.88   0.37605   -61.39
       2200    0.4691  -139.93    16.159    91.58  0.034149    45.78   0.36959   -61.53
       2250   0.46608  -141.34    15.827    90.74  0.034515    45.60   0.36457   -61.99
       2300   0.46403  -142.59    15.496    89.98  0.034863    45.48   0.35845   -62.53
       2350   0.46365  -143.88    15.181    89.27  0.035193    45.53   0.35101   -63.03
       2400   0.46259  -145.19    14.894    88.58  0.035553    45.60     0.344   -63.21
       2450   0.46035  -146.55    14.608    87.93  0.035994    45.66   0.33811   -63.44
       2500   0.45783  -148.02    14.353    87.23  0.036451    45.51   0.33227   -63.65
       2600   0.45451  -150.14    13.853    85.91  0.037207    45.37   0.32197   -63.98
       2700   0.45171  -152.51    13.377    84.56  0.037955    45.22   0.31236   -64.25
       2800   0.44946  -154.55    12.939    83.26  0.038688    45.10   0.30383   -64.49
       2900   0.44744  -156.66    12.519    82.06  0.039435    45.11   0.29612   -64.55
       3000   0.44533  -158.58     12.15    80.89   0.04027    45.07   0.28964   -64.90
       3100   0.44402  -160.49    11.801    79.60  0.041031    44.96   0.28388   -65.22
       3200   0.44258  -162.37    11.455    78.42  0.041798    44.88   0.27716   -65.66
       3300   0.44243  -164.12    11.138    77.27    0.0426    44.78   0.27122   -66.25
       3400   0.44074  -165.96    10.838    76.07  0.043389    44.71   0.26561   -66.76
       3500   0.44026  -167.68    10.556    74.91  0.044228    44.63   0.25974   -67.16
       3600   0.43963  -169.48    10.276    73.77  0.045019    44.57   0.25373   -67.52
       3700   0.43863  -170.95    10.014    72.63  0.045834    44.51   0.24832   -67.78
       3800   0.43818  -172.77    9.7673    71.50  0.046672    44.37   0.24313   -68.27
       3900   0.43731  -174.09     9.528    70.44  0.047542    44.28   0.23891   -68.64
       4000   0.43742  -175.86    9.2961    69.34  0.048401    44.13   0.23382   -69.13
       4100   0.43661  -177.18    9.0786    68.33   0.04923    44.07   0.22881   -69.31
       4200   0.43645  -178.73    8.8711    67.27  0.050134    43.87   0.22456   -69.70
       4300     0.436   179.98    8.6762    66.25  0.051052    43.72   0.22116   -70.22
       4400   0.43613   178.45    8.4835    65.20  0.051951    43.43   0.21757   -70.60
       4500   0.43572   177.22    8.3025    64.21  0.052831    43.25   0.21399   -70.96
       4600   0.43618   175.81    8.1269    63.24  0.053656    43.05   0.20961   -71.43
       4700   0.43665   174.54    7.9638    62.23  0.054522    42.85   0.20566   -72.03
       4800   0.43682   173.10    7.7971    61.23  0.055382    42.60    0.2027   -72.67
       4900   0.43689   171.77    7.6462    60.22  0.056254    42.37   0.19883   -73.04
       5000   0.43639   170.51    7.4946    59.28  0.057153    42.17   0.19503   -73.28
       5200   0.43706   168.12    7.2054    57.35  0.058949    41.67    0.1887   -74.46
       5400   0.43762   165.72    6.9514    55.51   0.06074    41.14    0.1828   -75.10
       5600   0.43826   163.42    6.7024    53.62  0.062458    40.60   0.17637   -76.37
       5800   0.43863   161.16    6.4742    51.84  0.064233    40.05   0.17063   -76.97
       6000   0.43993   159.09    6.2648    50.02  0.066008    39.49   0.16527   -78.32
       6200   0.44169   157.14    6.0691    48.27  0.067854    38.92   0.16015   -79.13
       6400   0.44322   155.04    5.8818    46.51  0.069662    38.34   0.15449   -80.32
       6600   0.44498   152.84    5.7079    44.75  0.071534    37.70   0.15002   -81.21
       6800   0.44667   150.94    5.5527    43.03  0.073433    36.95   0.14534   -82.83
       7000   0.44801   149.02    5.3921    41.33   0.07527    36.45   0.14027   -83.78
       7200   0.45066   147.35    5.2599    39.63  0.077417    35.71   0.13688   -85.18
       7400   0.45283   145.31    5.1245    37.76  0.079267    34.79   0.13188   -87.28
       7600   0.45651   143.73    5.0069    36.03  0.081331    34.13   0.12867   -88.69
       7800   0.45785   141.22    4.8602    34.08  0.082901    33.09   0.11991   -91.77
       8000   0.45731   139.95    4.7505    32.94  0.084978    32.85   0.11888   -90.24
       8200   0.46331   137.93    4.6451    30.75  0.087155    31.64   0.11289   -94.74
       8400   0.46516   136.08    4.5353    29.21  0.089238    31.04   0.11154   -95.39
       8600   0.46609   134.06     4.409    27.44  0.090638    29.74   0.10119   -99.26
       8800   0.46616   132.55    4.3117    25.80  0.092751    29.14  0.097778  -100.54
       9000   0.46964   131.62    4.2332    24.42  0.094773    28.56  0.095384  -102.67
       9200   0.47154   129.87      4.14    22.71   0.09662    27.51  0.089397  -106.13
       9400   0.47586   128.25    4.0562    21.01  0.098431    26.61  0.085935  -108.81
       9600   0.48187   126.73     3.978    19.47   0.10049    25.88  0.078952  -112.20
       9800   0.48586   125.05    3.9155    17.83   0.10246    25.16  0.075737  -113.52
      10000   0.49193   123.55    3.8473    16.08    0.1055    24.20  0.076162  -116.95
      10200    0.4957   121.51     3.769    14.28   0.10733    22.88  0.069441  -124.61
      10400   0.49804   119.89    3.6907    12.59   0.10921    21.85  0.067699  -128.93
      10600   0.50005   118.26    3.6166    10.99   0.11106    20.79   0.06121  -135.57
      10800   0.50182   116.90    3.5629     9.45   0.11307    19.92   0.05929  -139.01
      11000   0.50875   115.25    3.4935     7.84   0.11524    18.96  0.056273  -144.38
      11200   0.51416   113.73    3.4636     6.23   0.11743    17.99  0.057526  -151.27
      11400    0.5177   112.06    3.3904     4.38   0.11953    16.72  0.054561  -159.66
      11600   0.52125   110.26    3.3301     2.92   0.12107    15.68  0.054795  -169.24
      11800   0.52714   108.95    3.2832     1.20    0.1235    14.60  0.052808  -175.02
      12000   0.52796   107.58    3.2402    -0.12   0.12468    13.61  0.053047   175.43
      12200   0.53722   105.62    3.2043    -2.17   0.12746    12.65  0.053345   171.24
      12400   0.53799   103.83    3.1434    -4.01   0.12973    11.35  0.057257   160.94
      12600   0.53908   102.35    3.0814    -5.29   0.13067    10.40  0.055866   151.61
      12800   0.54847   101.30    3.0596    -6.82   0.13385     9.56  0.055229   149.00
      13000   0.54656    99.32    3.0132    -8.57   0.13486     8.06  0.061038   142.32
      13200   0.55228    98.32    2.9519   -10.31   0.13693     6.96  0.064393   136.48
      13400   0.55766    97.03    2.9257   -12.02   0.13946     5.70  0.073591   135.42
      13600   0.56504    95.40    2.8936   -13.81   0.14084     4.63  0.080131   131.33
      13800   0.56568    93.85    2.8401   -15.49    0.1432     3.47  0.088019   126.54
      14000     0.574    92.26    2.8112   -16.74   0.14435     2.26  0.097897   121.67
      14200   0.58127    91.00    2.7777   -18.57   0.14632     1.37   0.10236   117.01
      14400   0.58426    88.74    2.7362   -20.29   0.14812     0.18   0.11651   113.64
      14600   0.59039    87.33    2.7098   -21.90   0.15056    -0.70   0.11669   108.93
      14800   0.59189    85.63    2.6777   -23.50   0.15272    -1.95   0.12731   106.36
      15000   0.59912    84.42     2.643   -25.22   0.15485    -3.19   0.13091   103.07
      15200   0.60265    83.04    2.6184   -26.82   0.15696    -4.59   0.13649   102.50
      15400   0.61556    81.68    2.5938   -28.52   0.15838    -5.68   0.14594    99.62
      15600   0.61847    80.64    2.5652   -30.35   0.16085    -6.98   0.15134    98.29
      15800   0.62673    78.96    2.5435   -31.91   0.16181    -8.36   0.16056    96.06
      16000   0.64002    77.69    2.5216   -34.11   0.16384    -9.38   0.16925    94.29
      16200   0.64719    75.84    2.4972   -36.07   0.16579   -10.50   0.17395    91.60
      16400   0.65562    74.15    2.4503   -38.11   0.16759   -11.43   0.17919    89.73
      16600   0.65737    72.55    2.4125   -39.61   0.17056   -12.83   0.18689    89.76
      16800    0.6625    70.88    2.3803   -41.02    0.1717   -13.90    0.1949    86.47
      17000    0.6645    69.21     2.368   -42.66   0.17428   -15.27   0.20717    86.49
      17200   0.66775    67.45    2.3481   -44.55   0.17634   -16.37   0.21473    82.98
      17400   0.67439    65.25    2.3328   -46.79   0.17773   -17.65   0.22598    82.11
      17600   0.67294    63.77    2.2893   -48.49   0.18086   -18.55   0.23328    78.47
      17800   0.67381    62.31    2.2729   -50.41   0.18368   -20.20   0.23813    77.13
      18000    0.6849    61.34    2.2301   -52.42   0.18555   -21.71   0.24177    76.41
      18200   0.69162    59.17    2.2133   -54.64   0.18731   -23.03   0.25237    75.00
      18400   0.69833    57.72    2.1649   -56.82   0.18929   -24.37   0.25426    74.21
      18600   0.69159    56.42    2.1034   -58.18   0.19003   -25.56   0.26944    73.98
      18800   0.70061    54.34    2.0761   -59.77    0.1927   -26.79   0.27845    72.33
      19000   0.69697    53.25    2.0474   -61.08   0.19615   -28.03   0.28745    70.83
      19200   0.70286    51.80    2.0217   -62.80   0.19889   -29.79   0.29311    69.08
      19400   0.70781    50.85    1.9939   -63.91    0.2007   -31.21   0.29551    68.27
      19600   0.71375    49.76    1.9651   -65.45   0.20159   -33.60   0.30808    69.66
      19800   0.73978    49.12    1.9701   -66.64   0.20029   -34.18     0.327    66.89
      20000   0.75396    46.38    1.9642   -68.82   0.20212   -34.86   0.33245    65.43