! Filename:  P:\Prog\Test\Noise\ATS_data\Testdata_Net\Split files Spar\BFU730_2W_B1_Bias4_1.5V_1mA_30mA_D.s2p
! Date/Time: Fri 29/Apr/2011 14:16:45
! BFU730_2W_B1_Bias4_1.5V_1mA_30mA_R.s2p
! MDIF S-parameter v. bias file
! BFU730_2W_B1_1.5V_1mA_30mA
! Date/time Thu Mar 17 13:45:32 2011
! VAR V_out= 1.5003
! VAR I_out= 4.9950
! VAR V_in= 0.7890
! VAR I_in= 0.0146
! Device data file deembeded for feedlines and parallel
! Original file: \Split files Spar\BFU730_2W_B1_Bias4_1.5V_1mA_30mA_R.s2p
! Feed-files: PR003V01_101208_Feed1.s2p, PR003V01_101208_Feed2.s2p
! Parallel-file: PR003V01_101208_Par.s2p
# MHz S MA R 50
!  Freq-MHz   S11-mag  S11-arg   S21-mag  S21-arg   S12-mag  S12-arg   S22-mag  S22-arg
         40   0.95134    -2.06    15.479   178.56 0.0014624    87.77   0.99812    -1.01
         50   0.94678    -2.92    15.519   177.74  0.001515    91.57   0.99765    -1.36
         60    0.9495    -2.85     15.33   177.47 0.0022218    93.12   0.99855    -1.56
         70   0.95132    -3.48    15.369   177.41 0.0025915    88.88   0.99873    -1.86
         80   0.95078    -4.02    15.479   176.97 0.0029811    88.45   0.99874    -2.14
         90   0.95072    -4.56     15.48   176.41 0.0033525    88.19   0.99844    -2.44
        100   0.95111    -5.01    15.407   176.13 0.0037031    87.81   0.99824    -2.72
        120   0.95026    -6.09    15.426   175.38 0.0045024    87.34     0.998    -3.29
        140   0.95001    -7.07    15.427   174.62 0.0053033    86.90   0.99777    -3.88
        160   0.94949    -8.09    15.353   173.78 0.0060444    86.17   0.99704    -4.45
        180   0.94964    -9.13    15.375   173.11 0.0068156    85.76   0.99641    -5.01
        200   0.94837   -10.16    15.364   172.25 0.0075575    85.46   0.99552    -5.58
        220   0.94764   -11.19    15.381   171.50 0.0083675    84.66   0.99474    -6.17
        240   0.94636   -12.23    15.433   170.65 0.0090995    84.26     0.994    -6.74
        260    0.9461   -13.20    15.339   169.87  0.009892    83.75   0.99291    -7.30
        280    0.9447   -14.25    15.343   169.10  0.010615    83.15     0.992    -7.87
        300   0.94398   -15.28     15.29   168.34  0.011418    82.59   0.99102    -8.46
        320   0.94255   -16.23    15.218   167.59  0.012171    81.81    0.9895    -9.02
        340   0.94117   -17.26    15.225   166.78  0.012915    81.28   0.98782    -9.59
        360   0.94055   -18.25    15.152   166.12  0.013671    80.68   0.98588   -10.16
        380   0.93904   -19.27    15.149   165.37  0.014416    79.98   0.98418   -10.72
        400   0.93715   -20.30    15.184   164.61  0.015194    79.32   0.98208   -11.24
        420   0.93522   -21.36    15.204   163.82  0.015912    78.74   0.98089   -11.76
        440   0.93419   -22.31    15.108   163.08  0.016687    78.25   0.97898   -12.35
        460   0.93246   -23.34     15.12   162.34  0.017395    77.60   0.97702   -12.88
        480   0.93065   -24.32    15.043   161.60  0.018162    76.94   0.97587   -13.48
        500   0.92866   -25.30    14.958   160.86  0.018841    76.30   0.97285   -14.07
        550   0.92426   -27.79    14.929   158.98  0.020587    74.88   0.96552   -15.39
        600   0.91888   -30.33    14.896   157.19  0.022338    73.42   0.95983   -16.69
        650   0.91375   -32.66    14.704   155.36  0.024083    71.91   0.95333   -18.04
        700   0.90834   -34.96    14.498   153.69  0.025745    70.43   0.94571   -19.40
        750   0.90296   -37.44    14.446   151.98  0.027347    69.13   0.93745   -20.64
        800   0.89657   -39.96    14.416   150.27  0.029004    67.76   0.93124   -21.79
        850   0.89007   -42.22    14.225   148.56  0.030587    66.32   0.92423   -23.06
        900   0.88422   -44.42    14.026   146.91  0.032017    64.97   0.91408   -24.31
        950   0.87852   -46.78    13.933   145.38  0.033455    63.76   0.90487   -25.42
       1000   0.87112   -49.07    13.829   143.73  0.034921    62.50   0.89733   -26.56
       1050   0.86407   -51.31    13.682   142.15  0.036272    61.22   0.88841   -27.71
       1100   0.85812   -53.43     13.51   140.67  0.037587    60.01   0.87867   -28.83
       1150   0.85046   -55.76    13.419   139.06  0.038848    58.92   0.86924   -29.84
       1200   0.84349   -57.93    13.285   137.59  0.040115    57.75   0.86123   -30.87
       1250   0.83659   -59.97    13.086   136.09  0.041338    56.51    0.8525   -32.02
       1300   0.83015   -62.07    12.934   134.65   0.04244    55.40    0.8421   -33.02
       1350   0.82298   -64.25    12.833   133.18  0.043542    54.39    0.8326   -33.95
       1400   0.81602   -66.35      12.7   131.75  0.044618    53.33   0.82367   -34.92
       1450   0.80894   -68.41    12.554   130.34  0.045617    52.29   0.81418   -35.88
       1500   0.80222   -70.38    12.403   129.00  0.046606    51.31   0.80507   -36.77
       1550   0.79546   -72.31    12.251   127.64  0.047582    50.37   0.79647   -37.61
       1600   0.78877   -74.23    12.103   126.31  0.048531    49.41   0.78804   -38.48
       1650   0.78222   -76.16    11.934   125.02  0.049376    48.47   0.77854   -39.36
       1700   0.77613   -78.03      11.8   123.74  0.050177    47.62   0.76911   -40.17
       1750   0.76921   -79.91    11.668   122.43  0.051002    46.75   0.76058   -41.00
       1800   0.76272   -81.79    11.509   121.19  0.051823    45.84   0.75231   -41.82
       1850   0.75634   -83.67    11.371   119.95  0.052543    44.99   0.74318   -42.61
       1900   0.74966   -85.50    11.249   118.67   0.05328    44.21   0.73516   -43.36
       1950   0.74378   -87.19    11.091   117.51  0.053959    43.41   0.72723   -44.13
       2000    0.7379   -88.92    10.934   116.33  0.054607    42.63   0.71853   -44.95
       2050   0.73162   -90.58    10.788   115.21  0.055253    41.90   0.70934   -45.66
       2100    0.7264   -92.20    10.648   114.11  0.055917    41.18   0.70159   -46.31
       2150   0.72087   -93.90    10.519   113.03  0.056526    40.52   0.69298   -47.03
       2200   0.71548   -95.52    10.387   111.97  0.057103    39.81   0.68495   -47.57
       2250   0.70898   -97.16    10.255   110.86  0.057672    39.11   0.67841   -48.28
       2300   0.70392   -98.76    10.117   109.81  0.058228    38.40   0.67093   -49.02
       2350   0.69945  -100.28    9.9738   108.85  0.058732    37.77   0.66218   -49.70
       2400   0.69451  -101.92    9.8588   107.84  0.059212    37.21   0.65344   -50.22
       2450   0.68876  -103.46    9.7331   106.87  0.059749    36.64   0.64549   -50.76
       2500   0.68313  -104.95    9.6054   105.93  0.060283    35.88   0.63838   -51.34
       2600    0.6741  -107.75    9.3727   104.09  0.061113    34.70   0.62453   -52.35
       2700   0.66508  -110.67    9.1437   102.23  0.061884    33.50   0.61109   -53.34
       2800   0.65742  -113.37    8.9294   100.42  0.062515    32.45   0.59871   -54.26
       2900   0.64931  -116.06     8.705    98.73  0.063093    31.45   0.58666   -55.09
       3000   0.64143  -118.65    8.5175    97.06  0.063717    30.58   0.57593   -55.97
       3100    0.6361  -121.11    8.3267    95.39   0.06426    29.66   0.56629   -56.88
       3200   0.62953  -123.56    8.1361    93.79  0.064802    28.83   0.55549   -57.76
       3300   0.62417  -126.09    7.9668    92.20  0.065338    27.93   0.54617   -58.80
       3400    0.6175  -128.46     7.799    90.60  0.065877    27.22   0.53674   -59.66
       3500   0.61263  -130.75     7.632    89.07  0.066267    26.46   0.52704   -60.52
       3600   0.60764  -133.15    7.4699    87.56  0.066715    25.80   0.51726   -61.25
       3700   0.60313  -135.25    7.3138    86.08  0.067108    25.10   0.50891   -61.98
       3800   0.59814  -137.60    7.1678    84.58  0.067495    24.47    0.4994   -62.82
       3900   0.59349  -139.59    7.0218    83.19  0.067961    23.97   0.49214   -63.51
       4000   0.58943  -141.87    6.8783    81.75  0.068274    23.28   0.48354   -64.33
       4100    0.5855  -143.80    6.7411    80.41  0.068559    22.75   0.47521   -64.97
       4200   0.58188  -145.87    6.6144    79.03  0.068981    22.18    0.4681   -65.68
       4300   0.57865  -147.76    6.4904    77.70  0.069342    21.71   0.46179   -66.48
       4400   0.57516  -149.81    6.3679    76.33   0.06968    21.16   0.45473   -67.17
       4500   0.57222  -151.62    6.2488    75.06  0.069949    20.70   0.44829   -67.81
       4600   0.56959  -153.55    6.1329    73.80  0.070226    20.22   0.44131   -68.51
       4700   0.56755  -155.34    6.0268    72.52   0.07047    19.76   0.43464   -69.25
       4800   0.56459  -157.31    5.9158    71.22  0.070759    19.29   0.42916   -70.04
       4900   0.56195  -159.11    5.8147    69.97  0.071015    18.87   0.42324   -70.65
       5000   0.55931  -160.87    5.7134    68.79  0.071314    18.51   0.41692   -71.21
       5200   0.55497  -164.27    5.5185    66.32  0.071729    17.76   0.40587   -72.65
       5400   0.55129  -167.59     5.341    64.05  0.072207    17.03   0.39593   -73.80
       5600   0.54762  -170.83    5.1678    61.69  0.072612    16.36   0.38557   -75.23
       5800   0.54424  -173.93    5.0071    59.48  0.072949    15.81   0.37643   -76.38
       6000   0.54245  -176.88    4.8585    57.24  0.073355    15.28   0.36756   -77.77
       6200   0.54124  -179.73    4.7182    55.10  0.073727    14.85   0.35959   -78.98
       6400   0.53962   177.38    4.5842    52.95  0.074135    14.42   0.35128   -80.36
       6600   0.53845   174.46    4.4592    50.80  0.074608    14.05   0.34378   -81.56
       6800   0.53775   171.82    4.3444    48.78  0.075172    13.70   0.33673   -83.12
       7000   0.53682   169.22    4.2274    46.70  0.075513    13.52   0.32902   -84.33
       7200   0.53732   166.82    4.1293    44.73  0.076331    13.38   0.32367   -85.79
       7400   0.53765   164.14    4.0303    42.53   0.07693    12.86   0.31655   -87.56
       7600   0.53961   161.83    3.9424    40.54  0.077897    12.79   0.31207   -88.88
       7800   0.53793   158.89    3.8347    38.31  0.078245    12.03   0.30138   -91.11
       8000   0.53629   157.04    3.7511    36.82  0.078551    12.64   0.29747   -91.35
       8200   0.54059   154.35    3.6727    34.44  0.080035    11.98    0.2907   -94.03
       8400   0.54071   152.07    3.5911    32.61  0.080738    12.08   0.28684   -95.23
       8600   0.53973   149.55    3.4973    30.57  0.081203    11.08   0.27586   -97.57
       8800   0.53923   147.52    3.4243    28.67  0.082114    11.25   0.27051   -98.83
       9000   0.54183   145.95     3.363    27.04  0.083013    11.47   0.26786  -100.46
       9200   0.54288   143.72    3.2937    25.12  0.083997    11.02   0.26043  -102.46
       9400   0.54574   141.60    3.2303    23.13  0.084831    10.75   0.25643  -104.40
       9600   0.54957   139.60    3.1701    21.39  0.086008    10.78   0.24841  -106.34
       9800   0.55243   137.52    3.1214    19.51  0.087025    10.79   0.24486  -107.70
      10000   0.55736   135.54    3.0675    17.58  0.089443    10.61   0.24413  -109.99
      10200    0.5598   133.21    3.0092    15.56  0.090647     9.79   0.23551  -113.08
      10400   0.56126   131.29    2.9478    13.67  0.091741     9.31   0.23264  -115.39
      10600   0.56168   129.21     2.893    11.87  0.092941     8.87   0.22434  -117.92
      10800   0.56373   127.60    2.8492    10.12  0.094143     8.66   0.22191  -119.90
      11000    0.5681   125.46    2.8008     8.33   0.09581     8.34    0.2169  -122.22
      11200     0.573   123.70    2.7726     6.43  0.097423     8.04   0.21634  -125.24
      11400   0.57581   121.70    2.7171     4.46  0.099023     7.26   0.21039  -128.30
      11600   0.57798   119.70      2.67     2.75  0.099946     6.81   0.20531  -131.62
      11800   0.58357   117.99    2.6301     0.89   0.10196     6.37   0.20126  -133.86
      12000    0.5838   116.34    2.5977    -0.62   0.10272     6.02   0.19592  -136.95
      12200    0.5921   114.16    2.5668    -2.80   0.10536     5.60   0.19483  -139.50
      12400   0.59204   112.16    2.5229    -4.80   0.10732     4.73   0.19026  -143.64
      12600   0.59195   110.39    2.4717    -6.33   0.10779     4.38   0.18339  -146.26
      12800    0.6009   109.07    2.4536    -8.02   0.11092     4.19   0.18179  -148.23
      13000   0.59891   106.94    2.4162    -9.91   0.11181     3.10   0.17894  -152.26
      13200   0.60447   105.60    2.3688   -11.78    0.1136     2.41   0.17644  -155.71
      13400   0.60879   104.01    2.3488   -13.62   0.11653     1.62   0.17932  -160.14
      13600   0.61594   102.13    2.3236   -15.61   0.11794     0.96   0.17943  -164.23
      13800   0.61584   100.44    2.2817   -17.41   0.12024     0.17   0.17788  -169.07
      14000   0.62241    98.62    2.2594   -18.95   0.12157    -0.73   0.17734  -174.08
      14200   0.62933    97.17      2.23   -20.92   0.12352    -1.25   0.17574  -177.98
      14400   0.63105    94.82    2.1987   -22.83   0.12532    -2.17   0.17899   175.52
      14600    0.6362    93.31    2.1734   -24.61   0.12767    -2.61   0.17478   172.71
      14800   0.63846    91.43    2.1459   -26.37   0.12999    -3.49   0.17809   167.44
      15000    0.6452    89.97    2.1171   -28.22   0.13225    -4.39   0.17745   163.87
      15200   0.64871    88.44    2.0963   -29.91   0.13472    -5.44   0.18269   160.69
      15400   0.66053    86.75    2.0775   -31.79   0.13655    -6.33   0.18531   156.02
      15600   0.66408    85.59    2.0522   -33.72   0.13909    -7.34   0.19066   152.83
      15800   0.67166    83.68    2.0346   -35.47   0.14066    -8.48   0.19449   148.71
      16000   0.68209    82.18    2.0165   -37.75   0.14307    -9.40   0.20206   144.88
      16200   0.68933    80.24    1.9959   -39.88   0.14514   -10.33   0.20518   141.35
      16400   0.69585    78.49    1.9575   -42.02   0.14717   -11.09   0.20913   137.73
      16600   0.69736    76.72    1.9281   -43.72   0.15039   -12.32   0.21849   135.15
      16800   0.70182    75.04    1.9005   -45.30   0.15189   -13.23   0.22031   130.96
      17000     0.704    73.32    1.8888   -47.11   0.15482   -14.44   0.23432   128.06
      17200   0.70633    71.50    1.8704   -49.13   0.15705   -15.43   0.23682   123.92
      17400   0.71165    69.29    1.8533   -51.50   0.15879   -16.64   0.24929   120.92
      17600   0.71125    67.71    1.8175   -53.24   0.16187   -17.26   0.25191   116.40
      17800   0.71277    66.12    1.8018   -55.27   0.16528   -18.79   0.25877   114.01
      18000    0.7229    64.90    1.7692   -57.31   0.16766   -20.19   0.26604   111.91
      18200   0.72852    62.68    1.7531   -59.66   0.16998   -21.49   0.27675   108.78
      18400   0.73453    61.15    1.7124   -61.91   0.17223   -22.77    0.2826   106.87
      18600   0.72789    59.80    1.6648   -63.38   0.17338   -23.83   0.29732   104.13
      18800   0.73594    57.67    1.6411   -65.09   0.17626   -25.06   0.30568   101.59
      19000   0.73326    56.50    1.6182   -66.46   0.17995   -26.09   0.31506    98.91
      19200   0.73922    54.91     1.598   -68.30   0.18337   -27.74   0.32143    96.33
      19400   0.74346    53.79    1.5748   -69.61   0.18603   -29.09   0.32556    94.78
      19600    0.7495    52.53    1.5516   -71.33   0.18772   -31.50   0.34302    94.07
      19800   0.77288    51.62    1.5511   -72.75   0.18736   -32.29   0.35759    90.46
      20000   0.78455    49.03    1.5394   -75.12   0.18912   -33.09     0.365    88.53