! Filename:  P:\Prog\Test\Noise\ATS_data\Testdata_Net\Split files Spar\BFU730_2W_B1_Bias7_1.5V_1mA_30mA_D.s2p
! Date/Time: Fri 29/Apr/2011 14:16:56
! BFU730_2W_B1_Bias7_1.5V_1mA_30mA_R.s2p
! MDIF S-parameter v. bias file
! BFU730_2W_B1_1.5V_1mA_30mA
! Date/time Thu Mar 17 13:45:32 2011
! VAR V_out= 1.5002
! VAR I_out= 14.9650
! VAR V_in= 0.8153
! VAR I_in= 0.0494
! Device data file deembeded for feedlines and parallel
! Original file: \Split files Spar\BFU730_2W_B1_Bias7_1.5V_1mA_30mA_R.s2p
! Feed-files: PR003V01_101208_Feed1.s2p, PR003V01_101208_Feed2.s2p
! Parallel-file: PR003V01_101208_Par.s2p
# MHz S MA R 50
!  Freq-MHz   S11-mag  S11-arg   S21-mag  S21-arg   S12-mag  S12-arg   S22-mag  S22-arg
         40   0.85818    -3.72    38.774   177.43 0.0014335    88.38   0.99296    -1.40
         50   0.85721    -5.28    38.856   176.30 0.0020659    97.80    0.9928    -2.16
         60   0.85448    -5.45    38.463   175.79 0.0023048    87.34   0.99505    -2.66
         70   0.85726    -6.46    38.552   175.40  0.002484    87.44   0.99509    -3.32
         80   0.85639    -7.45     38.76   174.64 0.0028432    86.89   0.99486    -3.92
         90   0.85564    -8.41     38.72   173.78  0.003234    86.54   0.99425    -4.53
        100    0.8549    -9.23    38.539   173.19 0.0035456    86.15   0.99342    -5.10
        120   0.85386   -11.20     38.56   171.81 0.0042848    85.00   0.99192    -6.28
        140   0.85226   -13.03    38.435   170.45 0.0049659    84.35   0.99023    -7.44
        160      0.85   -14.85    38.186   169.03 0.0056488    83.17   0.98728    -8.55
        180   0.84906   -16.72    38.116   167.78  0.006371    82.37    0.9842    -9.66
        200   0.84609   -18.60    37.959   166.36 0.0070648    81.54   0.98096   -10.78
        220   0.84352   -20.45    37.874   165.04 0.0077551    80.65   0.97686   -11.89
        240   0.83917   -22.32    37.788   163.63 0.0084487    79.65   0.97293   -12.98
        260    0.8372   -24.06    37.447   162.34 0.0090838    78.81   0.96839   -14.05
        280   0.83396   -25.94    37.287   161.04 0.0097891    77.95   0.96392   -15.12
        300   0.83089   -27.72    37.011   159.75  0.010443    76.91   0.95906   -16.20
        320   0.82666   -29.47    36.747   158.54  0.011099    76.06   0.95296   -17.23
        340   0.82237   -31.24    36.546   157.22  0.011717    75.23   0.94694   -18.25
        360   0.81938   -32.98    36.267   156.10  0.012336    74.29   0.94036   -19.25
        380   0.81459   -34.84    36.094   154.86  0.012963    73.42   0.93403   -20.25
        400   0.80884   -36.57    35.909   153.62  0.013543    72.63   0.92721   -21.18
        420    0.8041   -38.33    35.694   152.38  0.014156    71.66   0.92127   -22.12
        440   0.80043   -39.95    35.319   151.29  0.014746    70.88   0.91447   -23.11
        460   0.79519   -41.74    35.141   150.10  0.015318    70.10   0.90747   -24.04
        480   0.79039   -43.31    34.749   148.97  0.015878    69.19   0.90094   -25.02
        500   0.78512   -44.94    34.449   147.82  0.016402    68.40   0.89219   -25.95
        550   0.77244   -48.97    33.778   145.02  0.017645    66.54   0.87107   -28.00
        600   0.75852   -53.00    33.074   142.35    0.0189    64.78   0.85261   -30.04
        650   0.74612   -56.67    32.211   139.87  0.020061    63.07   0.83306   -32.04
        700   0.73359   -60.32    31.373   137.51  0.021115    61.47   0.81239   -33.92
        750   0.72117   -64.01    30.674   135.16  0.022138    60.06   0.79271   -35.60
        800   0.70837   -67.56    29.937   132.93  0.023149    58.64   0.77499   -37.20
        850   0.69641   -70.88    29.124   130.79  0.024042    57.28   0.75587   -38.86
        900   0.68401   -74.06    28.358   128.74   0.02483    56.17    0.7356   -40.28
        950   0.67323   -77.24    27.667   126.81  0.025617    55.09   0.71755   -41.59
       1000   0.66174   -80.21    26.949   124.92  0.026412    54.02   0.70067   -42.94
       1050   0.65011   -83.19    26.252   123.10  0.027101    53.01   0.68318   -44.18
       1100   0.64041   -85.99    25.582   121.39  0.027755    52.15   0.66659   -45.34
       1150   0.62983   -88.84    24.954   119.66  0.028388    51.35   0.65077   -46.39
       1200   0.62018   -91.48    24.326   118.08  0.029015    50.56   0.63581   -47.43
       1250   0.61157   -94.08    23.687   116.54  0.029588    49.77    0.6207   -48.50
       1300   0.60299   -96.57    23.107   115.03  0.030116    49.11   0.60591   -49.40
       1350   0.59493   -98.99    22.555   113.59  0.030648    48.51   0.59232   -50.27
       1400    0.5868  -101.40    22.011   112.19  0.031169    47.92   0.57914   -51.13
       1450   0.57966  -103.70    21.484   110.85  0.031625    47.40   0.56602   -51.93
       1500   0.57244  -105.87    20.972   109.56   0.03209    46.90   0.55391   -52.64
       1550   0.56608  -107.95    20.476   108.31  0.032574    46.47   0.54259   -53.31
       1600   0.56003  -109.96        20   107.12  0.033038    46.01   0.53154   -54.01
       1650   0.55369  -112.07    19.533   105.92  0.033443    45.59   0.52038   -54.66
       1700   0.54793  -113.99    19.107   104.75  0.033841    45.24   0.50997   -55.26
       1750   0.54249  -115.82    18.683   103.64  0.034262    44.84   0.50014   -55.90
       1800   0.53765  -117.77    18.267   102.54  0.034659    44.51   0.49053   -56.50
       1850   0.53244  -119.66    17.874   101.46  0.035017    44.20   0.48077   -57.06
       1900   0.52802  -121.34    17.499   100.41  0.035418    43.92   0.47257   -57.58
       1950   0.52307  -123.03    17.118    99.40  0.035763    43.65   0.46446   -58.15
       2000   0.51899  -124.64    16.746    98.43  0.036105    43.40   0.45532   -58.80
       2050   0.51543  -126.22    16.389    97.54  0.036449    43.23   0.44605   -59.26
       2100   0.51215  -127.81    16.063    96.63  0.036855    43.02    0.4386   -59.64
       2150    0.5094  -129.29    15.742    95.76  0.037169    42.93   0.43075   -60.14
       2200   0.50589  -130.84    15.442    94.92  0.037596    42.73   0.42344   -60.38
       2250   0.50188  -132.32    15.139    94.02  0.037965    42.51   0.41775   -60.91
       2300   0.49925  -133.69    14.839    93.19  0.038266    42.27   0.41086   -61.50
       2350   0.49728  -135.11    14.549    92.42  0.038548    42.16   0.40272   -62.04
       2400   0.49544  -136.51    14.284    91.67  0.038932    42.13   0.39501   -62.31
       2450   0.49242  -137.95    14.019    90.95  0.039314    42.10   0.38834   -62.61
       2500   0.48887  -139.49    13.784    90.20  0.039735    41.87   0.38189   -62.90
       2600   0.48441  -141.82     13.32    88.78  0.040445    41.56   0.37026   -63.40
       2700   0.48014  -144.35    12.878    87.32  0.041085    41.31    0.3594   -63.84
       2800   0.47658  -146.59    12.468    85.94  0.041769    41.13   0.34968   -64.24
       2900   0.47337  -148.87    12.073    84.65  0.042423    41.01   0.34068   -64.47
       3000   0.47022  -151.01    11.726    83.38  0.043105    40.86   0.33306   -64.92
       3100   0.46816  -153.05    11.399    82.02  0.043809    40.74   0.32631   -65.37
       3200   0.46566  -155.07    11.072    80.76  0.044501    40.60   0.31856   -65.90
       3300   0.46464  -157.04    10.774    79.55  0.045164    40.42   0.31163   -66.55
       3400   0.46191  -158.99    10.489    78.28  0.045909    40.37   0.30517   -67.13
       3500   0.46099  -160.86    10.222    77.05  0.046602    40.22   0.29844   -67.64
       3600   0.45949  -162.83    9.9564    75.85  0.047327    40.12   0.29153   -68.08
       3700    0.4577  -164.44    9.7068    74.66  0.048025    40.05   0.28533   -68.43
       3800   0.45642  -166.40    9.4725    73.47  0.048787    39.93   0.27928   -68.97
       3900   0.45502  -167.86    9.2444    72.35  0.049572    39.81   0.27437   -69.42
       4000   0.45463  -169.78    9.0225    71.20  0.050304    39.67   0.26857   -69.96
       4100   0.45354  -171.22    8.8151    70.13  0.051026    39.59   0.26282   -70.23
       4200   0.45262  -172.92    8.6166    69.02  0.051812    39.43   0.25799   -70.69
       4300   0.45191  -174.32    8.4306    67.96  0.052644    39.30    0.2539   -71.25
       4400   0.45135  -175.98    8.2457    66.86  0.053466    39.05   0.24976   -71.69
       4500   0.45068  -177.33    8.0721    65.83  0.054229    38.90   0.24559   -72.11
       4600   0.45081  -178.82    7.9034    64.81  0.054977    38.72   0.24075   -72.62
       4700   0.45073   179.80    7.7467    63.76  0.055725    38.54   0.23619   -73.23
       4800   0.45041   178.22    7.5862    62.72  0.056518    38.31   0.23276   -73.88
       4900    0.4503   176.83    7.4415    61.67  0.057292    38.15   0.22854   -74.30
       5000   0.44953   175.46    7.2954    60.69  0.058125    37.98   0.22424   -74.61
       5200   0.44944   172.88    7.0172    58.69  0.059695    37.58   0.21699   -75.81
       5400   0.44946   170.27    6.7717    56.78   0.06132    37.12   0.21032   -76.53
       5600   0.44957   167.76    6.5311    54.83  0.062841    36.68   0.20321   -77.82
       5800   0.44918   165.35      6.31    52.98  0.064471    36.22   0.19678   -78.54
       6000    0.4501   163.15    6.1075    51.10  0.066091    35.77    0.1908   -79.86
       6200   0.45161   160.99    5.9179    49.30  0.067708    35.32   0.18514   -80.75
       6400    0.4529   158.78    5.7371    47.48  0.069402    34.83   0.17908   -81.97
       6600   0.45419   156.44    5.5688    45.67  0.071107    34.28   0.17409   -82.92
       6800   0.45567   154.41     5.418    43.91   0.07285    33.65   0.16907   -84.51
       7000   0.45666   152.38    5.2623    42.16  0.074571    33.25   0.16354   -85.50
       7200   0.45875   150.55    5.1337    40.42   0.07655    32.65    0.1598   -86.91
       7400   0.46111   148.41    5.0029    38.51  0.078295    31.82   0.15454   -88.90
       7600   0.46438   146.74    4.8876    36.74  0.080275    31.27   0.15099   -90.26
       7800   0.46561   144.11    4.7456    34.76  0.081684    30.30   0.14204   -93.17
       8000   0.46462   142.76    4.6385    33.58  0.083597    30.21   0.14043   -92.03
       8200   0.47065   140.58    4.5364    31.35  0.085732    29.07    0.1344   -96.09
       8400   0.47219   138.67      4.43    29.78  0.087686    28.59   0.13272   -96.86
       8600    0.4727   136.58    4.3072    27.97  0.088971    27.33   0.12225  -100.36
       8800   0.47269   135.03     4.213    26.29  0.090962    26.84    0.1186  -101.63
       9000    0.4765   133.98    4.1362    24.88   0.09291    26.37   0.11613  -103.59
       9200   0.47815   132.12     4.046    23.14  0.094652    25.42   0.11003  -106.64
       9400   0.48239   130.41    3.9642    21.40  0.096383    24.58   0.10643  -109.09
       9600   0.48803   128.87    3.8883    19.84  0.098403    23.95  0.099273  -112.05
       9800   0.49144   127.10    3.8272    18.17   0.10025    23.34  0.095978  -113.32
      10000   0.49781   125.53    3.7604    16.39   0.10326    22.45  0.096215  -116.44
      10200   0.50165   123.44    3.6842    14.56   0.10501    21.18   0.08919  -122.61
      10400   0.50356   121.80    3.6082    12.85   0.10683    20.21  0.087169  -126.22
      10600   0.50528   120.00    3.5367    11.22   0.10864    19.24  0.080254  -131.38
      10800    0.5076   118.65    3.4837     9.66   0.11057    18.44  0.078146  -134.21
      11000   0.51356   116.93    3.4171     8.03   0.11269    17.54  0.074603  -138.40
      11200    0.5189   115.33    3.3872     6.37   0.11479    16.66  0.075223  -144.04
      11400   0.52287   113.59    3.3155     4.51   0.11689    15.42  0.071242  -150.48
      11600   0.52617   111.81     3.257     3.02   0.11834    14.47  0.070011  -158.22
      11800   0.53192   110.43    3.2107     1.29   0.12073    13.44  0.067199  -162.65
      12000   0.53302   109.04    3.1687    -0.06   0.12189    12.50  0.065688  -170.46
      12200   0.54187   107.10    3.1336    -2.12   0.12464    11.63  0.065421  -174.20
      12400   0.54252   105.19    3.0749    -3.99   0.12689    10.36  0.066991   176.30
      12600   0.54341   103.69    3.0138    -5.30   0.12778     9.46  0.063405   168.60
      12800   0.55281   102.65    2.9925    -6.84   0.13094     8.68    0.0626   166.25
      13000    0.5508   100.61    2.9471    -8.61   0.13197     7.22  0.066523   158.69
      13200   0.55668    99.53    2.8876   -10.37     0.134     6.16  0.068457   152.50
      13400   0.56184    98.20    2.8619   -12.10   0.13654     4.95  0.077483   149.36
      13600   0.56891    96.55     2.831   -13.91   0.13794     3.92  0.082919   144.36
      13800   0.56968    94.99    2.7785   -15.60   0.14028     2.81  0.089638   138.52
      14000     0.578    93.37      2.75   -16.90   0.14147     1.62  0.098028   132.54
      14200   0.58454    92.07    2.7172   -18.75   0.14341     0.79   0.10157   127.47
      14400   0.58802    89.78    2.6767   -20.49   0.14521    -0.39   0.11492   122.79
      14600   0.59355    88.42    2.6507   -22.12   0.14761    -1.21   0.11423   118.12
      14800   0.59595    86.62    2.6187   -23.74   0.14976    -2.43   0.12435   114.72
      15000    0.6025    85.37    2.5849   -25.48   0.15194    -3.64   0.12752   111.21
      15200   0.60594    84.01    2.5612   -27.09   0.15411    -4.97   0.13356   110.23
      15400   0.61866    82.57    2.5372   -28.81   0.15555    -6.05    0.1424   106.83
      15600   0.62196    81.52    2.5086   -30.66     0.158    -7.32   0.14799   105.24
      15800   0.63012    79.82    2.4877   -32.24     0.159    -8.68   0.15683   102.58
      16000   0.64279    78.50    2.4659   -34.45   0.16111    -9.69   0.16564   100.53
      16200   0.65092    76.64     2.442   -36.43   0.16303   -10.79   0.17021    97.70
      16400   0.65793    74.96    2.3959   -38.48   0.16485   -11.69   0.17558    95.59
      16600   0.65993    73.30    2.3591   -40.01   0.16783   -13.07   0.18387    95.33
      16800   0.66537    71.67    2.3279   -41.43   0.16894   -14.12   0.19131    91.81
      17000   0.66713    69.95    2.3155   -43.10   0.17162   -15.47   0.20413    91.48
      17200   0.67018    68.18    2.2955   -45.01   0.17365   -16.54   0.21113    87.81
      17400   0.67648    66.00    2.2804   -47.26   0.17504   -17.81   0.22274    86.72
      17600   0.67542    64.44    2.2376   -48.98   0.17815   -18.68   0.22964    82.92
      17800   0.67663    63.01    2.2211   -50.90   0.18103   -20.32   0.23472    81.50
      18000   0.68749    62.01    2.1798   -52.92   0.18298   -21.81   0.23903    80.68
      18200   0.69403    59.81    2.1631   -55.15   0.18476   -23.12   0.24984    79.06
      18400   0.70038    58.36    2.1158   -57.36   0.18682   -24.44   0.25235    78.19
      18600   0.69353    57.10    2.0556   -58.73   0.18757   -25.62   0.26794    77.65
      18800    0.7028    54.96     2.029   -60.34   0.19024   -26.84   0.27686    75.87
      19000   0.69924    53.83    2.0002   -61.64   0.19371   -28.04   0.28612    74.25
      19200   0.70502    52.39    1.9755   -63.39   0.19652   -29.80   0.29192    72.40
      19400   0.71036    51.40    1.9484   -64.52   0.19842   -31.20    0.2946    71.55
      19600   0.71589    50.28    1.9204   -66.10   0.19944   -33.58   0.30808    72.72
      19800   0.74201    49.58    1.9251   -67.32   0.19823   -34.18   0.32643    69.82
      20000    0.7555    46.89    1.9186   -69.53   0.20002   -34.87   0.33224    68.31