! Filename:  P:\Prog\Test\Noise\ATS_data\Testdata_Net\Split files Spar\BFU730_2W_B1_1V_1mA_30mA_Bias3_D.s2p
! Date/Time: Fri 29/Apr/2011 14:16:05
! BFU730_2W_B1_1V_1mA_30mA_Bias3_R.s2p
! MDIF S-parameter v. bias file
! BFU730_2W_B1_1V_1mA_30mA
! Date/time Thu Mar 17 14:34:31 2011
! VAR V_out= 1.0000
! VAR I_out= 3.4300
! VAR V_in= 0.7813
! VAR I_in= 0.0099
! Device data file deembeded for feedlines and parallel
! Original file: \Split files Spar\BFU730_2W_B1_1V_1mA_30mA_Bias3_R.s2p
! Feed-files: PR003V01_101208_Feed1.s2p, PR003V01_101208_Feed2.s2p
! Parallel-file: PR003V01_101208_Par.s2p
# MHz S MA R 50
!  Freq-MHz   S11-mag  S11-arg   S21-mag  S21-arg   S12-mag  S12-arg   S22-mag  S22-arg
         40   0.96632    -1.78     11.16   178.91 0.0016121    88.15   0.99859    -0.94
         50   0.96826    -2.66    11.193   178.07 0.0021998    76.66   0.99845    -1.23
         60   0.96301    -2.58    11.051   177.82 0.0022815    87.03   0.99888    -1.39
         70   0.96628    -3.03    11.078   177.83 0.0028711    89.02   0.99885    -1.65
         80   0.96593    -3.48    11.167   177.43 0.0032907    88.40   0.99893    -1.89
         90   0.96604    -3.94    11.171   176.90 0.0037324    87.89    0.9987    -2.15
        100    0.9655    -4.31    11.115   176.67 0.0041328    87.39   0.99842    -2.40
        120   0.96555    -5.28    11.131   176.00  0.004982    87.60   0.99828    -2.90
        140   0.96518    -6.15    11.131   175.35  0.005853    87.36   0.99817    -3.41
        160   0.96489    -7.04    11.085   174.58 0.0067039    86.62    0.9976    -3.91
        180   0.96525    -7.94    11.104   174.01 0.0075351    86.29   0.99715    -4.40
        200   0.96449    -8.85    11.099   173.23 0.0084067    85.70   0.99651    -4.91
        220   0.96364    -9.76    11.116   172.59 0.0092669    85.31    0.9959    -5.42
        240   0.96282   -10.66     11.16   171.83  0.010109    84.76   0.99539    -5.93
        260   0.96249   -11.52    11.097   171.13  0.010981    84.38   0.99453    -6.42
        280   0.96173   -12.41    11.103   170.45  0.011814    83.92   0.99397    -6.92
        300    0.9613   -13.33    11.071   169.78  0.012657    83.33   0.99332    -7.44
        320   0.96005   -14.18    11.017   169.12  0.013539    82.68   0.99214    -7.93
        340   0.95919   -15.08     11.03   168.40  0.014334    82.19    0.9909    -8.43
        360   0.95847   -15.94    10.981   167.82    0.0152    81.60   0.98947    -8.93
        380   0.95737   -16.84    10.983   167.15  0.016054    80.98   0.98818    -9.44
        400   0.95595   -17.72    11.017   166.49  0.016902    80.43   0.98658    -9.90
        420   0.95495   -18.68    11.045   165.78   0.01772    79.93    0.9859   -10.36
        440   0.95379   -19.49    10.983   165.11  0.018585    79.31   0.98447   -10.87
        460   0.95277   -20.42    10.997   164.46  0.019412    78.77   0.98298   -11.35
        480   0.95144   -21.29     10.95   163.80   0.02027    78.10   0.98232   -11.88
        500   0.95029   -22.13    10.885   163.14  0.021038    77.58   0.97989   -12.41
        550   0.94721   -24.36    10.892   161.46  0.023024    76.16   0.97448   -13.59
        600   0.94271   -26.59    10.894   159.86  0.025054    74.80   0.97031   -14.74
        650   0.93898   -28.68    10.772   158.21   0.02703    73.38   0.96561   -15.96
        700   0.93515   -30.71    10.635   156.70  0.028962    71.99   0.95997   -17.19
        750   0.93117   -32.93    10.622   155.16  0.030826    70.67   0.95368   -18.33
        800   0.92662   -35.16    10.638   153.64  0.032754    69.48   0.94918   -19.37
        850   0.92143   -37.21    10.524   152.05   0.03462    68.09   0.94415   -20.53
        900   0.91729   -39.18    10.387   150.53  0.036324    66.76   0.93639   -21.69
        950   0.91299   -41.31    10.344   149.16  0.038056    65.54   0.92917   -22.73
       1000   0.90747   -43.37    10.307   147.63  0.039788    64.34    0.9234   -23.79
       1050   0.90204   -45.38    10.222   146.18  0.041445    63.08   0.91649   -24.87
       1100   0.89749   -47.32    10.112   144.80  0.043007    61.92   0.90884   -25.93
       1150   0.89169   -49.45    10.077   143.31  0.044566    60.79    0.9013   -26.89
       1200    0.8862   -51.44    10.006   141.94  0.046154    59.65   0.89512   -27.88
       1250   0.88068   -53.32    9.8799   140.52  0.047701    58.38   0.88841   -28.97
       1300   0.87582   -55.23    9.7837   139.17  0.049065    57.25   0.87992   -29.95
       1350   0.86991   -57.26    9.7439   137.77  0.050427    56.25   0.87199   -30.86
       1400   0.86438   -59.22    9.6733   136.42    0.0518    55.15   0.86469   -31.82
       1450   0.85871   -61.14    9.5873   135.08  0.053108    54.03   0.85696   -32.77
       1500   0.85356   -62.98    9.4976   133.81  0.054364    53.03   0.84938   -33.66
       1550   0.84774   -64.80    9.4106   132.48  0.055628    52.03   0.84225   -34.50
       1600    0.8422   -66.62    9.3304   131.18  0.056878    51.04   0.83525   -35.38
       1650   0.83654   -68.46    9.2199   129.94  0.057996    50.03    0.8271   -36.27
       1700   0.83132   -70.21    9.1381   128.69  0.059058    49.10   0.81887   -37.09
       1750   0.82571   -71.99    9.0654   127.42  0.060135    48.15   0.81155   -37.94
       1800   0.82005   -73.78    8.9652   126.20   0.06124    47.17   0.80453   -38.79
       1850   0.81473   -75.59    8.8794   124.97  0.062226    46.25   0.79649   -39.60
       1900   0.80913   -77.36    8.8137   123.71  0.063178    45.39   0.78932   -40.38
       1950   0.80371   -78.99    8.7077   122.57  0.064131    44.54   0.78234   -41.16
       2000   0.79811   -80.65    8.6048   121.38  0.065024    43.65   0.77463   -42.01
       2050   0.79243   -82.31    8.5148   120.26  0.065937    42.81   0.76652   -42.76
       2100   0.78755   -83.89    8.4241   119.14  0.066799    42.02   0.75951   -43.48
       2150   0.78282   -85.53    8.3455   118.06  0.067636    41.23   0.75167   -44.24
       2200   0.77748   -87.14    8.2595   116.98  0.068439    40.42   0.74424   -44.85
       2250   0.77169   -88.76    8.1749   115.85  0.069257    39.61   0.73813   -45.60
       2300   0.76698   -90.30    8.0842   114.77  0.070031    38.81   0.73126   -46.36
       2350   0.76269   -91.80    7.9827   113.81  0.070744    38.07   0.72333   -47.08
       2400   0.75787   -93.41    7.9106   112.77   0.07138    37.37   0.71506   -47.67
       2450   0.75212   -94.94    7.8303   111.77  0.072144    36.69   0.70765   -48.27
       2500   0.74689   -96.39    7.7388   110.78   0.07288    35.80    0.7011   -48.93
       2600   0.73809   -99.23    7.5809   108.88  0.074032    34.36   0.68791   -50.09
       2700    0.7293  -102.14    7.4248   106.93  0.075119    32.93   0.67472   -51.21
       2800   0.72129  -104.88    7.2755   105.05   0.07602    31.62   0.66258   -52.28
       2900   0.71299  -107.61    7.1144   103.26  0.076844    30.37   0.65071   -53.30
       3000   0.70544  -110.23    6.9854   101.51  0.077659    29.24   0.63984   -54.33
       3100   0.69963  -112.77    6.8425    99.77  0.078413    28.05   0.62993   -55.37
       3200   0.69273  -115.23    6.7036    98.08  0.079132    26.98    0.6188   -56.38
       3300   0.68704  -117.85    6.5826    96.41  0.079846    25.76   0.60954   -57.60
       3400   0.68003  -120.26    6.4607    94.72  0.080501    24.81   0.59981   -58.57
       3500   0.67457  -122.62    6.3347    93.11   0.08105    23.79   0.58969   -59.57
       3600   0.66913  -125.09    6.2152    91.51  0.081597    22.88   0.57938   -60.43
       3700   0.66398  -127.29    6.0959    89.95  0.082112    21.90   0.57114   -61.29
       3800   0.65818  -129.70     5.988    88.36  0.082504    21.02   0.56057   -62.27
       3900   0.65313  -131.77    5.8792    86.87   0.08298    20.26   0.55284   -63.08
       4000   0.64836  -134.10    5.7698    85.35  0.083401    19.32   0.54348   -64.07
       4100   0.64402  -136.12    5.6631    83.92  0.083609    18.52   0.53476   -64.81
       4200   0.64018  -138.29    5.5658    82.45  0.084107    17.71   0.52731   -65.65
       4300    0.6361  -140.25     5.471    81.03  0.084408    16.97   0.52036   -66.56
       4400   0.63207  -142.42    5.3764    79.57  0.084664    16.20   0.51235   -67.38
       4500   0.62879  -144.29     5.283    78.22  0.084875    15.53   0.50525   -68.14
       4600   0.62512  -146.31    5.1909    76.87  0.085094    14.80   0.49769   -68.93
       4700   0.62281  -148.20    5.1075    75.51  0.085268    14.09   0.49065   -69.77
       4800   0.61908  -150.24    5.0203    74.13  0.085475    13.41   0.48441   -70.65
       4900   0.61596  -152.15    4.9394    72.79  0.085647    12.76   0.47797   -71.35
       5000    0.6128  -153.99    4.8594    71.54  0.085811    12.18   0.47096   -72.02
       5200   0.60728  -157.58    4.7041    68.91  0.085983    10.99   0.45922   -73.66
       5400   0.60256  -161.09    4.5612    66.48  0.086131     9.85    0.4476   -75.02
       5600   0.59774  -164.51    4.4209    63.95  0.086211     8.74   0.43664   -76.65
       5800   0.59349  -167.80    4.2906    61.60  0.086134     7.78   0.42642   -77.97
       6000   0.59074  -170.94    4.1688    59.20  0.086145     6.88   0.41668   -79.54
       6200   0.58839  -173.97    4.0536    56.93   0.08607     6.09   0.40807   -80.91
       6400   0.58621  -177.06    3.9445    54.65  0.085952     5.31   0.39888   -82.45
       6600   0.58377   179.88      3.84    52.35  0.085928     4.61   0.39055   -83.86
       6800   0.58233   177.06    3.7441    50.22  0.085874     4.01   0.38242   -85.52
       7000   0.58078   174.32     3.647    48.00  0.085653     3.51   0.37389   -86.93
       7200   0.58113   171.68    3.5661    45.92  0.085845     3.19   0.36784   -88.50
       7400   0.58043   168.86    3.4823    43.59  0.085823     2.47   0.35962   -90.39
       7600   0.58198   166.40    3.4089    41.49  0.086195     2.28   0.35488   -91.83
       7800   0.57921   163.29    3.3198    39.18  0.085983     1.34   0.34369   -94.10
       8000    0.5774   161.28    3.2481    37.52  0.085273     1.81   0.33841   -94.75
       8200    0.5809   158.48    3.1819    35.09  0.086343     1.19   0.33153   -97.34
       8400   0.58063   156.05    3.1127    33.14  0.086244     1.20   0.32641   -98.66
       8600    0.5789   153.44    3.0344    31.01  0.086281     0.16   0.31597  -101.09
       8800   0.57807   151.24    2.9732    29.01  0.086419     0.39   0.30974  -102.44
       9000   0.58068   149.42    2.9199    27.27   0.08657     0.62   0.30692  -104.19
       9200   0.58129   147.09    2.8618    25.27  0.086996     0.25    0.2993  -106.21
       9400   0.58305   144.84    2.8073    23.17  0.087157     0.02   0.29528  -108.23
       9600   0.58645   142.69    2.7557    21.34  0.087656     0.16   0.28704  -110.33
       9800   0.58872   140.46    2.7135    19.36  0.088004     0.30    0.2835  -111.83
      10000   0.59287   138.41    2.6669    17.37  0.089804     0.40   0.28226  -114.18
      10200   0.59512   135.94    2.6172    15.26  0.090501    -0.24    0.2739  -117.18
      10400   0.59604   133.90    2.5642    13.30  0.091055    -0.58   0.27117  -119.51
      10600   0.59627   131.77    2.5182    11.41  0.091739    -0.82   0.26295  -122.09
      10800   0.59796   130.01    2.4786     9.58  0.092339    -0.83   0.26083  -124.21
      11000   0.60119   127.79     2.439     7.72  0.093467    -0.89   0.25567  -126.65
      11200   0.60644   125.93    2.4119     5.73  0.094529    -0.89   0.25536  -129.63
      11400   0.60853   123.84    2.3649     3.71  0.095667    -1.49    0.2498  -132.61
      11600   0.61061   121.76    2.3238     1.89  0.096103    -1.65   0.24481  -135.85
      11800   0.61656   119.93    2.2879    -0.02  0.097689    -1.77   0.24116  -138.21
      12000   0.61712   118.20    2.2603    -1.61  0.098131    -1.85   0.23596  -141.17
      12200    0.6237   115.95    2.2315    -3.82   0.10028    -1.96   0.23487  -143.90
      12400   0.62245   113.86    2.1943    -5.86   0.10187    -2.57   0.23095  -147.56
      12600   0.62268   112.00    2.1498    -7.48     0.102    -2.63   0.22421  -150.37
      12800   0.63156   110.58    2.1338    -9.24   0.10481    -2.47   0.22318  -152.53
      13000   0.62952   108.41       2.1   -11.18   0.10555    -3.30   0.21977  -156.28
      13200   0.63489   107.00    2.0595   -13.12   0.10704    -3.75   0.21837  -159.59
      13400    0.6387   105.24    2.0421   -14.98   0.10993    -4.28   0.22068  -163.47
      13600   0.64462   103.27    2.0185   -17.06   0.11112    -4.72    0.2209  -167.40
      13800   0.64453   101.57    1.9838   -18.88   0.11323    -5.28    0.2201  -171.63
      14000   0.65073    99.67    1.9641   -20.56   0.11449    -5.99   0.21941  -176.09
      14200    0.6571    98.17    1.9369   -22.55   0.11609    -6.28   0.21876  -179.71
      14400   0.65802    95.80    1.9102   -24.55   0.11774    -7.01   0.22179   174.71
      14600    0.6635    94.21    1.8853   -26.37   0.11994    -7.15   0.21845   171.87
      14800   0.66547    92.28    1.8601   -28.18   0.12213    -7.78   0.22209   167.20
      15000   0.67157    90.76    1.8344   -30.07   0.12442    -8.49   0.22145   163.83
      15200   0.67611    89.15     1.816   -31.81   0.12689    -9.34   0.22716   160.58
      15400   0.68661    87.37    1.7979   -33.74   0.12875   -10.12   0.22955   156.55
      15600   0.69001    86.15    1.7757   -35.68   0.13123   -10.92   0.23521   153.29
      15800   0.69727    84.13    1.7598   -37.51   0.13288   -11.96   0.23914   149.59
      16000   0.70688    82.59    1.7428   -39.78   0.13512   -12.78   0.24667   145.91
      16200   0.71291    80.68    1.7231   -41.97   0.13707   -13.57   0.25029   142.48
      16400   0.71916    78.87    1.6892   -44.09   0.13902   -14.15   0.25382   139.03
      16600   0.71978    77.16    1.6642   -45.83    0.1422   -15.22   0.26285   136.36
      16800   0.72451    75.42    1.6394   -47.47   0.14371   -16.02   0.26522   132.57
      17000   0.72567    73.63    1.6276   -49.37   0.14669   -17.11   0.27896   129.60
      17200   0.72823    71.82    1.6097   -51.38   0.14886   -17.99   0.28169   125.66
      17400   0.73323    69.58    1.5923   -53.78   0.15056   -19.14   0.29422   122.69
      17600   0.73271    68.02     1.562   -55.48   0.15361   -19.53   0.29635   118.46
      17800    0.7342    66.36    1.5467   -57.53   0.15723   -20.97   0.30411   115.88
      18000   0.74453    65.11    1.5191   -59.57   0.15973   -22.29   0.31048   113.63
      18200   0.74869    62.85    1.5025   -61.93   0.16207   -23.50   0.32146   110.38
      18400   0.75397    61.34    1.4662   -64.12   0.16434   -24.70   0.32696   108.36
      18600   0.74757    59.97    1.4262   -65.57   0.16562   -25.64   0.34061   105.55
      18800   0.75481    57.84    1.4048   -67.31   0.16854   -26.80   0.34903   103.03
      19000   0.75246    56.63    1.3854   -68.67   0.17234   -27.72   0.35843   100.40
      19200   0.75844    54.99    1.3677   -70.54   0.17602   -29.32     0.365    97.65
      19400   0.76245    53.77    1.3472   -71.90   0.17891   -30.64   0.36941    96.07
      19600   0.76773    52.47    1.3276   -73.65   0.18096   -33.09   0.38587    94.94
      19800   0.78939    51.52    1.3238   -75.17   0.18046   -33.95    0.4005    91.49
      20000   0.80031    48.99    1.3108   -77.48   0.18198   -34.69   0.40804    89.53