! Filename:  P:\Prog\Test\Noise\ATS_data\Testdata_Net\Split files Spar\BFU730_2W_B1_Bias3_1.5V_1mA_30mA_D.s2p
! Date/Time: Fri 29/Apr/2011 14:16:41
! BFU730_2W_B1_Bias3_1.5V_1mA_30mA_R.s2p
! MDIF S-parameter v. bias file
! BFU730_2W_B1_1.5V_1mA_30mA
! Date/time Thu Mar 17 13:45:32 2011
! VAR V_out= 1.5003
! VAR I_out= 3.4650
! VAR V_in= 0.7802
! VAR I_in= 0.0100
! Device data file deembeded for feedlines and parallel
! Original file: \Split files Spar\BFU730_2W_B1_Bias3_1.5V_1mA_30mA_R.s2p
! Feed-files: PR003V01_101208_Feed1.s2p, PR003V01_101208_Feed2.s2p
! Parallel-file: PR003V01_101208_Par.s2p
# MHz S MA R 50
!  Freq-MHz   S11-mag  S11-arg   S21-mag  S21-arg   S12-mag  S12-arg   S22-mag  S22-arg
         40   0.96599    -1.74    11.232   178.84 0.0014615    89.14   0.99873    -0.86
         50   0.96821    -2.60    11.264   178.05 0.0019513    74.94   0.99877    -1.14
         60   0.96287    -2.55    11.126   177.80 0.0020514    87.66   0.99911    -1.30
         70   0.96614    -2.98    11.152   177.81 0.0026111    88.66   0.99917    -1.55
         80    0.9659    -3.44    11.238   177.42 0.0030107    88.31   0.99919    -1.78
         90   0.96568    -3.87    11.243   176.92 0.0033824    87.94   0.99895    -2.01
        100   0.96539    -4.25    11.188   176.70 0.0037628    87.44    0.9987    -2.24
        120    0.9655    -5.18    11.204   176.05  0.004542    87.47   0.99867    -2.71
        140   0.96505    -6.03    11.208   175.41 0.0053428    87.51   0.99862    -3.19
        160   0.96475    -6.90    11.158   174.68 0.0060936    86.78   0.99813    -3.65
        180   0.96499    -7.79    11.179   174.12 0.0068947    86.55    0.9978    -4.11
        200    0.9641    -8.67    11.173   173.36 0.0076461    85.89   0.99721    -4.58
        220   0.96338    -9.54    11.189   172.73 0.0084362    85.61    0.9967    -5.06
        240   0.96247   -10.43    11.233   171.99 0.0092179    85.11   0.99631    -5.54
        260   0.96251   -11.27    11.169   171.31 0.0099598    84.63   0.99551    -6.00
        280   0.96151   -12.15    11.179   170.65  0.010773    84.12   0.99506    -6.47
        300   0.96129   -13.04    11.148   169.99  0.011555    83.51   0.99445    -6.95
        320   0.95998   -13.87    11.097   169.35  0.012327    83.03   0.99352    -7.41
        340   0.95932   -14.74     11.11   168.64  0.013091    82.47   0.99238    -7.88
        360   0.95861   -15.58    11.063   168.08  0.013866    81.90   0.99113    -8.35
        380   0.95789   -16.46    11.066   167.42   0.01463    81.42   0.99001    -8.82
        400   0.95642   -17.34    11.102   166.77  0.015437    80.94    0.9886    -9.25
        420    0.9552   -18.24    11.128   166.08  0.016174    80.40   0.98798    -9.68
        440   0.95441   -19.07    11.069   165.43  0.016939    79.79    0.9867   -10.17
        460   0.95313   -19.96    11.084   164.78  0.017715    79.27    0.9854   -10.61
        480   0.95201   -20.81    11.038   164.14  0.018471    78.70   0.98493   -11.10
        500   0.95098   -21.63    10.974   163.50  0.019229    78.11   0.98275   -11.60
        550   0.94777   -23.79    10.985   161.84  0.021032    76.73   0.97795   -12.71
        600   0.94369   -26.00    10.992   160.26  0.022909    75.52   0.97419   -13.81
        650   0.94048   -28.02    10.873   158.63  0.024721    74.05   0.96991   -14.95
        700   0.93657   -30.03    10.738   157.15   0.02649    72.73   0.96486   -16.11
        750   0.93285   -32.20    10.728   155.63  0.028239    71.45   0.95908   -17.18
        800   0.92851   -34.40    10.747   154.13  0.030002    70.26   0.95504   -18.16
        850   0.92364   -36.40    10.638   152.57  0.031722    68.91    0.9505   -19.25
        900   0.91957   -38.34    10.503   151.07  0.033301    67.64    0.9433   -20.36
        950    0.9153   -40.42    10.461   149.71  0.034897    66.49   0.93667   -21.34
       1000   0.91004   -42.46    10.429   148.20  0.036543    65.30   0.93144   -22.35
       1050   0.90487   -44.44    10.347   146.76  0.038083    64.08   0.92513   -23.37
       1100   0.90032   -46.34    10.239   145.40  0.039549    62.87   0.91798   -24.38
       1150   0.89459   -48.43    10.206   143.92  0.040981    61.78   0.91096   -25.30
       1200   0.88933   -50.37    10.138   142.57  0.042471    60.65   0.90533   -26.23
       1250   0.88406   -52.23    10.012   141.16  0.043901    59.43    0.8992   -27.27
       1300   0.87919   -54.11    9.9176   139.82  0.045198    58.33   0.89118   -28.21
       1350    0.8735   -56.11    9.8807   138.43  0.046483    57.33   0.88369   -29.07
       1400    0.8681   -58.06    9.8134   137.09    0.0478    56.24   0.87695   -29.99
       1450   0.86252   -59.94    9.7294   135.76  0.049019    55.17   0.86967   -30.89
       1500   0.85716   -61.75    9.6411   134.50  0.050188    54.16   0.86255   -31.74
       1550   0.85147   -63.55     9.557   133.17  0.051385    53.19   0.85582   -32.54
       1600   0.84583   -65.37    9.4772   131.89  0.052548    52.22   0.84935   -33.37
       1650   0.84044   -67.16    9.3674   130.65   0.05364    51.19   0.84162   -34.23
       1700   0.83517   -68.89    9.2872   129.41  0.054615    50.28   0.83371   -35.02
       1750   0.82975   -70.68    9.2169   128.14  0.055678    49.36   0.82681   -35.83
       1800   0.82446   -72.43    9.1173   126.92  0.056695    48.38   0.82024   -36.63
       1850   0.81896   -74.21    9.0317   125.71  0.057646    47.44   0.81255   -37.41
       1900   0.81317   -75.98    8.9671   124.45  0.058542    46.60   0.80579   -38.16
       1950   0.80763   -77.61     8.863   123.31   0.05943    45.75   0.79916   -38.91
       2000   0.80234   -79.24    8.7615   122.13  0.060321    44.88   0.79183   -39.72
       2050   0.79616   -80.89    8.6713   121.00  0.061158    44.05   0.78404   -40.45
       2100   0.79153   -82.46    8.5817   119.88  0.061996    43.24   0.77732   -41.13
       2150   0.78689   -84.07     8.504   118.81  0.062799    42.47   0.76972   -41.86
       2200   0.78148   -85.67    8.4177   117.73  0.063559    41.65   0.76262   -42.45
       2250    0.7758   -87.28    8.3343   116.59  0.064312    40.88   0.75681   -43.16
       2300   0.77069   -88.82    8.2436   115.52  0.065064    40.07   0.75021   -43.90
       2350   0.76657   -90.32    8.1413   114.56  0.065743    39.31   0.74238   -44.59
       2400   0.76166   -91.92    8.0703   113.52  0.066397    38.63   0.73437   -45.15
       2450   0.75572   -93.43    7.9892   112.51  0.067117    37.95   0.72719   -45.73
       2500   0.75025   -94.86    7.8977   111.53  0.067798    37.06   0.72086   -46.35
       2600   0.74157   -97.72    7.7398   109.62  0.068882    35.62   0.70809   -47.45
       2700    0.7326  -100.61    7.5832   107.68  0.069936    34.18   0.69551   -48.53
       2800   0.72443  -103.33    7.4338   105.80    0.0708    32.89   0.68379   -49.55
       2900   0.71571  -106.03    7.2714   104.01  0.071567    31.62   0.67233   -50.51
       3000     0.708  -108.66    7.1426   102.24  0.072355    30.50   0.66188   -51.50
       3100   0.70224  -111.19     6.999   100.51  0.073085    29.33   0.65234   -52.49
       3200   0.69521  -113.65    6.8593    98.82  0.073762    28.26   0.64165   -53.47
       3300   0.68901  -116.26    6.7373    97.14  0.074433    27.09   0.63268   -54.61
       3400   0.68173  -118.69    6.6148    95.45  0.075068    26.14   0.62319   -55.55
       3500   0.67639  -121.00    6.4871    93.84  0.075568    25.15    0.6133   -56.49
       3600   0.67033  -123.51    6.3664    92.24  0.076097    24.24   0.60353   -57.31
       3700   0.66551  -125.69    6.2458    90.67  0.076573    23.27   0.59536   -58.14
       3800   0.65911  -128.10    6.1365    89.09  0.076981    22.40   0.58537   -59.07
       3900    0.6541  -130.19    6.0267    87.59   0.07745    21.65   0.57783   -59.85
       4000   0.64875  -132.52    5.9151    86.06  0.077825    20.74   0.56888   -60.77
       4100   0.64453  -134.57     5.807    84.62  0.078069    19.95   0.56032   -61.50
       4200   0.64026  -136.72    5.7086    83.16  0.078497    19.15   0.55302   -62.29
       4300    0.6363  -138.68    5.6122    81.73  0.078813    18.43   0.54635   -63.16
       4400   0.63184  -140.87    5.5162    80.27  0.079077    17.67   0.53874   -63.95
       4500   0.62862  -142.75    5.4208    78.93  0.079317    17.01   0.53196   -64.67
       4600   0.62471  -144.76    5.3268    77.57  0.079478    16.28   0.52452   -65.42
       4700   0.62198  -146.68    5.2423    76.21  0.079638    15.61   0.51758   -66.24
       4800   0.61804  -148.72    5.1538    74.82  0.079853    14.93   0.51171   -67.08
       4900   0.61485  -150.61    5.0713    73.49  0.080001    14.28   0.50539   -67.75
       5000   0.61143  -152.46    4.9895    72.23  0.080173    13.74   0.49864   -68.38
       5200   0.60563  -156.07    4.8323    69.59  0.080349    12.57   0.48708   -69.96
       5400   0.60072  -159.57    4.6852    67.17  0.080484    11.48   0.47603   -71.26
       5600   0.59567  -163.03    4.5427    64.63  0.080529    10.43   0.46515   -72.80
       5800   0.59106  -166.33    4.4093    62.27  0.080426     9.49   0.45529   -74.11
       6000    0.5878  -169.49    4.2854    59.89  0.080422     8.65   0.44573   -75.58
       6200    0.5858  -172.56    4.1676    57.61  0.080332     7.93   0.43724   -76.91
       6400   0.58304  -175.64    4.0554    55.32  0.080246     7.22   0.42843   -78.39
       6600   0.58047  -178.73    3.9499    53.03  0.080179     6.60   0.42032   -79.71
       6800   0.57903   178.45    3.8511    50.90  0.080187     6.06   0.41249   -81.32
       7000   0.57713   175.65    3.7523    48.68  0.079923     5.67   0.40433   -82.63
       7200    0.5772   173.03    3.6689    46.61  0.080144     5.42   0.39828   -84.15
       7400   0.57647   170.21    3.5841    44.27  0.080157     4.81   0.39054   -85.95
       7600   0.57772   167.70    3.5095    42.19  0.080537     4.70   0.38588   -87.30
       7800   0.57493   164.63    3.4172    39.85  0.080396     3.83   0.37456   -89.49
       8000   0.57279   162.59    3.3441    38.22  0.079716     4.42   0.36984   -90.06
       8200   0.57638   159.70    3.2768    35.77  0.080828     3.87   0.36282   -92.52
       8400   0.57587   157.31     3.206    33.83  0.080803     3.97   0.35822   -93.84
       8600   0.57403   154.65     3.126    31.69  0.080867     2.92   0.34715   -96.04
       8800   0.57319   152.45    3.0626    29.70  0.081007     3.29   0.34121   -97.36
       9000   0.57596   150.67    3.0083    27.96  0.081225     3.68   0.33848   -98.99
       9200   0.57606   148.28    2.9482    25.97  0.081685     3.37   0.33063  -100.89
       9400   0.57808   146.03     2.893    23.87  0.081911     3.25   0.32671  -102.82
       9600   0.58127   143.88      2.84    22.04  0.082482     3.53   0.31835  -104.70
       9800   0.58366   141.64    2.7972    20.08  0.082874     3.77   0.31485  -106.13
      10000   0.58804   139.56    2.7494    18.08  0.084867     3.96   0.31372  -108.37
      10200   0.58978   137.06    2.6988    15.96   0.08563     3.33   0.30489  -111.13
      10400   0.59093   135.03    2.6446    14.01  0.086264     3.06   0.30178  -113.33
      10600   0.59096   132.90    2.5971    12.12  0.087008     2.89   0.29328  -115.65
      10800   0.59254   131.16    2.5575    10.28  0.087757     2.98   0.29088  -117.61
      11000    0.5961   128.92    2.5171     8.43  0.088976     2.99   0.28571  -119.82
      11200     0.601   127.05    2.4898     6.44  0.090177     3.08   0.28495  -122.58
      11400   0.60341   124.96    2.4412     4.42  0.091437     2.53    0.2788  -125.37
      11600   0.60559   122.86    2.3993     2.59  0.092021     2.39   0.27311  -128.31
      11800   0.61104   121.01    2.3624     0.68  0.093741     2.32   0.26898  -130.43
      12000    0.6114   119.26    2.3343    -0.90  0.094228     2.31   0.26337  -133.13
      12200   0.61859   117.01    2.3061    -3.12  0.096659     2.23   0.26216  -135.57
      12400    0.6173   114.92    2.2682    -5.17  0.098361     1.57   0.25701  -139.06
      12600   0.61732   113.09    2.2219    -6.82  0.098605     1.58   0.25002  -141.43
      12800   0.62659   111.61    2.2052    -8.54   0.10166     1.79   0.24824  -143.47
      13000   0.62442   109.45    2.1712   -10.50   0.10241     0.94   0.24449  -146.87
      13200   0.62943   108.01     2.129   -12.44   0.10403     0.48   0.24154  -149.92
      13400    0.6338   106.30    2.1109   -14.31   0.10711    -0.00   0.24313  -153.78
      13600   0.63979   104.31    2.0891   -16.38   0.10849    -0.42   0.24254  -157.35
      13800   0.63956   102.65    2.0521   -18.23   0.11074    -1.01   0.23967  -161.41
      14000   0.64612   100.71    2.0321   -19.90   0.11218    -1.71   0.23783  -165.56
      14200   0.65245    99.17    2.0048   -21.89   0.11409    -2.02   0.23559  -168.93
      14400   0.65385    96.81    1.9775   -23.89   0.11589    -2.76   0.23644  -174.49
      14600   0.65898    95.22    1.9527   -25.72   0.11832    -2.97     0.232  -177.01
      14800   0.66112    93.33    1.9266   -27.55   0.12067    -3.64   0.23347   178.32
      15000   0.66779    91.74    1.9003   -29.42   0.12301    -4.39   0.23183   175.08
      15200   0.67176    90.16    1.8813   -31.16   0.12563    -5.24   0.23619   171.83
      15400   0.68251    88.38    1.8641   -33.10   0.12768    -6.03   0.23694   167.66
      15600   0.68588    87.14    1.8408   -35.06   0.13036    -6.86   0.24188   164.39
      15800   0.69299    85.14    1.8254   -36.89   0.13221    -7.88   0.24403   160.57
      16000   0.70369    83.54    1.8085   -39.19    0.1348    -8.76   0.25081   156.71
      16200   0.70953    81.66    1.7894   -41.39   0.13703    -9.60   0.25349   153.22
      16400   0.71647    79.85    1.7541   -43.56   0.13918   -10.30   0.25611   149.51
      16600    0.7171    78.13    1.7282   -45.30   0.14252   -11.44   0.26471   146.47
      16800   0.72147    76.37    1.7022   -46.96   0.14424   -12.25   0.26471   142.59
      17000   0.72303    74.61    1.6906   -48.84   0.14738   -13.42   0.27796   139.16
      17200    0.7256    72.73    1.6724   -50.88   0.14972   -14.36   0.27907   135.23
      17400    0.7307    70.48    1.6556   -53.31    0.1517   -15.56   0.29099   131.79
      17600   0.73053    68.93     1.623   -55.07   0.15481   -16.06   0.29173   127.42
      17800   0.73207    67.27    1.6078   -57.12   0.15859   -17.56   0.29876   124.68
      18000   0.74204    65.98    1.5792   -59.15   0.16121   -18.92   0.30592   122.09
      18200   0.74673    63.73    1.5635   -61.54   0.16382   -20.21   0.31578   118.62
      18400   0.75271    62.19    1.5262   -63.79   0.16612   -21.50   0.32185   116.24
      18600    0.7463    60.83    1.4839   -65.30   0.16748   -22.50   0.33473   113.02
      18800   0.75371    58.65    1.4614   -67.03   0.17051   -23.75   0.34251   110.27
      19000   0.75109    57.47    1.4409   -68.42   0.17435   -24.72   0.35147   107.32
      19200   0.75728    55.80    1.4221   -70.30   0.17814   -26.33   0.35764   104.49
      19400   0.76144    54.59    1.4013   -71.66   0.18119   -27.68   0.36175   102.66
      19600   0.76724    53.30    1.3801   -73.43   0.18319   -30.14   0.37935   101.24
      19800   0.78914    52.32     1.378   -74.95   0.18319   -31.04   0.39232    97.58
      20000   0.80029    49.77    1.3647   -77.32   0.18503   -31.88   0.40027    95.42