! Filename:  P:\Prog\Test\Noise\ATS_data\Testdata_Net\BFU730\BFU730_2W_B1_2V17mA_D.s2p
! Date/Time: Fri 29/Apr/2011 14:14:21
! BFU730_2W_B1_2V17mA
! bias mode 1: Vout= 2.0003 V, Iout=16.9950 mA, Vin= 0.8121 V, Iin= 0.0580 mA
! Date/time Thu Mar 17 11:30:19 2011
! Device data file deembeded for feedlines and parallel
! Original file: \BFU730\BFU730_2W_B1_2V17mA_R.s2p
! Feed-files: PR003V01_101208_Feed1.s2p, PR003V01_101208_Feed2.s2p
! Parallel-file: PR003V01_101208_Par.s2p
# MHz S MA R 50
!  Freq-MHz   S11-mag  S11-arg   S21-mag  S21-arg   S12-mag  S12-arg   S22-mag  S22-arg
         40   0.83865    -3.88     42.15   177.16 0.0013955    85.28   0.99247    -1.29
         50   0.83735    -5.47    42.242   175.98 0.0013965    96.54   0.99249    -2.12
         60   0.83498    -5.66    41.813   175.46 0.0020555    92.43   0.99454    -2.61
         70   0.83814    -6.76      41.9   175.10 0.0023445    86.94   0.99482    -3.28
         80   0.83718    -7.79    42.115   174.31 0.0026636    86.39   0.99455    -3.91
         90   0.83627    -8.79    42.052   173.41 0.0029943    86.17   0.99386    -4.54
        100   0.83569    -9.65     41.84   172.81 0.0033062    85.57   0.99302    -5.13
        120   0.83463   -11.73    41.874   171.38 0.0039852    84.90   0.99131    -6.34
        140     0.833   -13.64      41.7   169.99 0.0046761    84.06   0.98942    -7.53
        160   0.83062   -15.56    41.447   168.50 0.0053193    82.93   0.98617    -8.66
        180   0.82935   -17.52    41.323   167.21 0.0059914    81.88   0.98284    -9.80
        200   0.82616   -19.49    41.146   165.73 0.0066052    81.10   0.97927   -10.92
        220   0.82336   -21.44     41.03   164.37 0.0072954    80.27   0.97481   -12.06
        240   0.81891   -23.36    40.901   162.91  0.007919    79.17   0.97037   -13.15
        260   0.81701   -25.25    40.536   161.56 0.0085442    78.38   0.96548   -14.23
        280   0.81305   -27.17    40.323   160.21 0.0091592    77.35   0.96036   -15.31
        300   0.80987   -29.05    40.027   158.87 0.0098034    76.55   0.95497   -16.40
        320    0.8051   -30.85    39.725   157.60  0.010369    75.54   0.94848   -17.45
        340   0.80083   -32.71    39.468   156.26  0.010987    74.81   0.94206   -18.47
        360   0.79764   -34.53    39.155   155.09  0.011516    73.71   0.93515   -19.47
        380   0.79212   -36.44    38.944   153.78  0.012112    73.00   0.92836   -20.46
        400   0.78624   -38.24    38.682   152.51  0.012693    72.05   0.92108   -21.41
        420   0.78097   -40.07     38.41   151.23  0.013235    71.25   0.91466   -22.35
        440   0.77732   -41.75    37.999   150.11  0.013764    70.47   0.90731   -23.33
        460    0.7718   -43.60    37.757   148.89  0.014296    69.64   0.89975   -24.23
        480   0.76705   -45.23     37.33   147.73  0.014785    68.76   0.89255   -25.20
        500   0.76113   -46.92    36.982   146.54   0.01527    67.94    0.8835   -26.10
        550   0.74778   -51.10    36.176   143.66   0.01642    66.28   0.86129   -28.13
        600    0.7335   -55.22     35.32   140.95  0.017574    64.46   0.84201   -30.12
        650   0.72062   -59.01     34.35   138.42  0.018621    62.73   0.82127   -32.07
        700   0.70767   -62.71    33.397   136.03  0.019574    61.23   0.80022   -33.85
        750   0.69474   -66.46    32.574   133.67  0.020483    59.88   0.77995   -35.45
        800    0.6822   -70.05    31.725   131.44  0.021391    58.51   0.76143   -36.99
        850   0.66981   -73.46     30.83   129.27   0.02219    57.15   0.74178   -38.54
        900   0.65744   -76.68    29.966   127.21  0.022915    56.14    0.7214   -39.87
        950   0.64639   -79.88    29.172   125.28  0.023628    55.16   0.70351   -41.10
       1000   0.63527   -82.89    28.375   123.41  0.024329    54.13   0.68625   -42.34
       1050   0.62357   -85.87    27.601   121.61  0.024973    53.23   0.66879   -43.49
       1100   0.61448   -88.68    26.859   119.92  0.025554    52.45   0.65242   -44.53
       1150   0.60432   -91.54    26.159   118.21  0.026143    51.72   0.63679   -45.48
       1200   0.59471   -94.16    25.465   116.66  0.026706    51.01   0.62193   -46.42
       1250   0.58621   -96.77    24.779   115.13  0.027215    50.33   0.60701   -47.38
       1300   0.57809   -99.25    24.146   113.65  0.027709    49.73   0.59259   -48.17
       1350   0.57024  -101.64    23.536   112.24  0.028198    49.21    0.5794   -48.95
       1400   0.56276  -104.06    22.948   110.86  0.028655    48.66   0.56632   -49.71
       1450   0.55562  -106.34    22.378   109.55  0.029087    48.24   0.55372   -50.39
       1500   0.54887  -108.46    21.827   108.29  0.029529    47.80   0.54194   -51.01
       1550   0.54311  -110.56      21.3   107.06   0.02997    47.42   0.53109   -51.58
       1600   0.53693  -112.55    20.787   105.91  0.030411    47.06   0.52059   -52.18
       1650   0.53114  -114.64    20.293   104.73  0.030793    46.70   0.50971   -52.73
       1700   0.52566  -116.50    19.836   103.58  0.031199    46.41   0.49998   -53.24
       1750   0.52031  -118.36    19.383   102.49  0.031577    46.11   0.49041   -53.80
       1800   0.51573  -120.26    18.942   101.42  0.031962    45.82   0.48124   -54.29
       1850   0.51131  -122.11    18.521   100.38  0.032299    45.54   0.47204   -54.77
       1900   0.50698  -123.77    18.125    99.34  0.032677    45.35   0.46415   -55.21
       1950   0.50248  -125.44    17.724    98.36  0.033031    45.14   0.45665   -55.70
       2000   0.49864  -127.04    17.328    97.41  0.033371    44.96    0.4478   -56.28
       2050   0.49555  -128.53    16.955    96.55  0.033704    44.82   0.43892   -56.62
       2100   0.49242  -130.12    16.614    95.65  0.034078    44.69   0.43215   -56.94
       2150   0.48984  -131.58    16.274    94.82  0.034422    44.62   0.42447   -57.35
       2200    0.4867  -133.07    15.958    94.00  0.034838    44.46   0.41781   -57.50
       2250    0.4832  -134.58     15.64    93.12  0.035216    44.29   0.41243   -57.97
       2300   0.48038  -135.92    15.325    92.31  0.035465    44.06   0.40585   -58.48
       2350   0.47886  -137.28     15.02    91.56  0.035767    44.09   0.39808   -58.96
       2400   0.47758  -138.67    14.744    90.83   0.03614    44.07   0.39063   -59.14
       2450   0.47464  -140.07    14.467    90.15  0.036532    44.08   0.38469   -59.34
       2500   0.47143  -141.61    14.222    89.41  0.036971    43.91   0.37831   -59.59
       2600   0.46719  -143.91    13.736    88.03   0.03768    43.71   0.36767   -59.94
       2700   0.46355  -146.35    13.276    86.62   0.03833    43.46   0.35782   -60.18
       2800   0.46007  -148.54    12.849    85.26  0.039012    43.33   0.34861   -60.44
       2900   0.45742  -150.78    12.439    84.00  0.039667    43.28   0.34029   -60.61
       3000   0.45421  -152.86     12.08    82.76  0.040378    43.20   0.33367   -60.97
       3100   0.45297  -154.86     11.74    81.45  0.041091    43.07    0.3276   -61.26
       3200   0.44997  -156.86    11.401    80.21  0.041802    42.99   0.32059   -61.69
       3300   0.44941  -158.73    11.091    79.01  0.042485    42.88   0.31407   -62.22
       3400   0.44706  -160.67    10.797    77.77   0.04322    42.80   0.30826   -62.79
       3500   0.44618  -162.48     10.52    76.58  0.043953    42.76   0.30211   -63.18
       3600   0.44509  -164.43    10.245    75.40  0.044668    42.66   0.29566   -63.50
       3700   0.44326  -165.91    9.9863    74.23  0.045407    42.62   0.29025   -63.72
       3800   0.44293  -167.89    9.7459    73.05  0.046191    42.50   0.28474   -64.18
       3900   0.44126  -169.33    9.5104    71.97  0.046965    42.43   0.28007   -64.62
       4000   0.44106  -171.23    9.2803    70.84   0.04773    42.24    0.2748   -65.09
       4100   0.44003  -172.56    9.0656    69.80  0.048494    42.25   0.26969   -65.21
       4200   0.43957  -174.29    8.8615    68.70  0.049313    42.07    0.2654   -65.63
       4300   0.43878  -175.62    8.6703    67.65  0.050165    41.94   0.26154   -66.11
       4400    0.4384  -177.27    8.4791    66.57  0.050978    41.71   0.25762   -66.51
       4500   0.43791  -178.51    8.2998    65.57  0.051774    41.56   0.25392   -66.87
       4600   0.43787   179.99    8.1251    64.57  0.052556    41.39   0.24968   -67.30
       4700   0.43795   178.63    7.9646    63.53  0.053285    41.21   0.24532   -67.84
       4800   0.43806   177.07     7.799    62.50   0.05409    40.97   0.24203   -68.40
       4900    0.4378   175.69    7.6498    61.48  0.054889    40.82   0.23847   -68.77
       5000   0.43712   174.36    7.4986    60.51  0.055734    40.66   0.23436   -69.01
       5200   0.43694   171.89     7.213    58.53  0.057363    40.26   0.22796   -70.18
       5400   0.43751   169.31    6.9605    56.65  0.059023    39.78   0.22164   -70.72
       5600   0.43766   166.83    6.7125    54.72  0.060595    39.32    0.2149   -72.01
       5800   0.43777   164.50    6.4853    52.91  0.062202    38.87    0.2093   -72.46
       6000    0.4386   162.35    6.2768    51.06  0.063861    38.40   0.20354   -73.73
       6200   0.44018   160.26    6.0825    49.29  0.065563    37.94   0.19884   -74.48
       6400   0.44163   158.05    5.8955    47.50  0.067245    37.46   0.19281   -75.54
       6600   0.44303   155.79    5.7227    45.71  0.068995    36.87   0.18811   -76.55
       6800   0.44474   153.82    5.5687    43.98  0.070758    36.24   0.18356   -77.67
       7000   0.44537   151.81    5.4079    42.23  0.072476    35.82   0.17843   -78.87
       7200   0.44781   150.13     5.278    40.53  0.074534    35.22   0.17532   -79.98
       7400   0.45028   147.95    5.1428    38.62  0.076297    34.36   0.16987   -81.72
       7600   0.45302   146.33    5.0256    36.88  0.078296    33.80    0.1667   -83.22
       7800   0.45455   143.74    4.8793    34.92  0.079769    32.86    0.1579   -85.30
       8000   0.45335   142.38    4.7697    33.75  0.081718    32.71   0.15691   -84.46
       8200   0.46011   140.24    4.6658    31.54  0.083848    31.56   0.15063   -88.15
       8400   0.46173   138.39    4.5565    30.00  0.085826    31.06   0.14871   -88.63
       8600   0.46202   136.32    4.4299    28.19  0.087119    29.78   0.13818   -91.45
       8800   0.46238   134.77    4.3328    26.53  0.089116    29.28   0.13522   -92.72
       9000   0.46555   133.79    4.2536    25.15  0.091107    28.79   0.13214   -94.33
       9200   0.46753   132.02    4.1611    23.43  0.092867    27.85   0.12503   -96.84
       9400   0.47242   130.34    4.0778    21.70  0.094654    27.03   0.12162   -98.65
       9600   0.47807   128.77    4.0002    20.15  0.096701    26.39    0.1145  -101.04
       9800   0.48142   127.06    3.9378    18.50  0.098578    25.71   0.11185  -102.17
      10000   0.48769   125.44    3.8702    16.73   0.10164    24.82   0.11124  -104.82
      10200   0.49207   123.42    3.7919    14.92   0.10338    23.51   0.10311  -109.93
      10400   0.49406   121.84    3.7143    13.23    0.1053    22.56   0.10037  -112.36
      10600   0.49567   120.16    3.6393    11.62   0.10706    21.58  0.091811  -116.48
      10800   0.49764   118.76    3.5866    10.05   0.10907    20.76  0.090451  -118.75
      11000   0.50353   117.07    3.5181     8.46   0.11117    19.89  0.084844  -121.36
      11200   0.50937   115.47    3.4883     6.80   0.11339    18.96  0.085664  -126.95
      11400    0.5131   113.78    3.4153     4.94   0.11547    17.72  0.079608  -131.62
      11600   0.51724   112.00     3.354     3.48   0.11698    16.73  0.075354  -138.16
      11800   0.52272   110.66    3.3083     1.74   0.11938    15.71  0.072866  -141.22
      12000   0.52337   109.28    3.2655     0.42   0.12064    14.80  0.067252  -147.91
      12200   0.53206   107.31    3.2303    -1.66   0.12341    13.91  0.068174  -151.24
      12400    0.5335   105.45    3.1698    -3.52    0.1257    12.62  0.064894  -160.53
      12600   0.53471   103.86    3.1063    -4.81   0.12658    11.72  0.059038  -167.56
      12800   0.54438   103.00    3.0862    -6.31   0.12987    10.93  0.057231  -168.19
      13000   0.54234   100.94    3.0391    -8.10   0.13079     9.49  0.058201  -177.27
      13200   0.54806    99.94    2.9766    -9.85   0.13283     8.38   0.05898   173.87
      13400   0.55276    98.58     2.952   -11.58   0.13554     7.21  0.066314   169.65
      13600   0.56027    96.91    2.9202   -13.37   0.13692     6.17   0.07067   161.81
      13800    0.5612    95.36    2.8667   -15.07   0.13945     5.03  0.075413   154.11
      14000   0.56929    93.74    2.8387   -16.34   0.14058     3.87    0.0817   145.76
      14200   0.57668    92.51    2.8038   -18.19   0.14273     3.02  0.084007   139.52
      14400   0.57956    90.12    2.7635   -19.93   0.14456     1.83  0.096401   133.41
      14600   0.58516    88.79    2.7368   -21.53   0.14706     0.97  0.094791   127.00
      14800   0.58789    87.02    2.7035   -23.17   0.14921    -0.28   0.10462   123.19
      15000   0.59546    85.85    2.6696   -24.91   0.15132    -1.50   0.10612   118.76
      15200   0.59825    84.50    2.6441   -26.52   0.15352    -2.81   0.11365   117.40
      15400   0.61111    83.10    2.6214   -28.23   0.15502    -3.93   0.12052   113.88
      15600   0.61433    82.08    2.5915   -30.07   0.15753    -5.17   0.12704   111.77
      15800   0.62279    80.28     2.571   -31.64   0.15865    -6.52   0.13558   109.03
      16000   0.63596    79.06     2.549   -33.85   0.16091    -7.52   0.14303   106.19
      16200   0.64406    77.17    2.5251   -35.85   0.16288    -8.66   0.14903   103.40
      16400   0.65269    75.50    2.4791   -37.92   0.16488    -9.59   0.15292   100.85
      16600   0.65403    73.90    2.4404   -39.43   0.16789   -10.98    0.1626   100.83
      16800   0.65886    72.21    2.4077   -40.85   0.16915   -12.01   0.16971    96.40
      17000   0.66053    70.54    2.3969   -42.50   0.17181   -13.40   0.18178    96.45
      17200   0.66355    68.74    2.3757   -44.41   0.17399   -14.52   0.18921    91.89
      17400   0.67088    66.49    2.3615   -46.69   0.17544   -15.80   0.20155    91.35
      17600   0.66849    65.06    2.3166   -48.40   0.17866   -16.72    0.2068    86.80
      17800   0.67082    63.50    2.3013   -50.34    0.1815   -18.32   0.21382    85.40
      18000   0.68131    62.58    2.2579   -52.37   0.18349   -19.89   0.21632    84.63
      18200   0.68892    60.33    2.2413   -54.59   0.18546   -21.21    0.2289    82.95
      18400   0.69704    58.98    2.1916   -56.85   0.18734   -22.57   0.23233    82.19
      18600    0.6899    57.72    2.1305   -58.25   0.18833   -23.73   0.24804    81.07
      18800   0.69894    55.54    2.1011   -59.86   0.19083   -25.02   0.25857    79.57
      19000   0.69491    54.43    2.0734   -61.18   0.19449   -26.25   0.26635    77.64
      19200   0.70072    52.90    2.0462   -62.89   0.19721   -27.96     0.273    75.90
      19400   0.70654    51.99    2.0185   -64.03   0.19916   -29.37    0.2772    74.97
      19600    0.7132    50.84    1.9893   -65.59   0.20013   -31.72    0.2899    76.05
      19800   0.73949    50.32    1.9947   -66.78   0.19918   -32.33   0.30965    72.79
      20000   0.75272    47.55    1.9904   -69.04    0.2012   -33.08   0.31271    71.64

!  
! Device Noise Parameters
!  Freq-MHz   Fmin-dB  Gopt-mag  Gopt-arg   rn_normalized
	400	0.7205	0.16434	4.78	0.1143
	420	0.7209	0.16353	5.26	0.1143
	440	0.7212	0.16274	5.73	0.1143
	460	0.7216	0.16195	6.21	0.1143
	480	0.7219	0.16117	6.68	0.1143
	500	0.7223	0.16040	7.16	0.1143
	550	0.7231	0.15850	8.36	0.1142
	600	0.7240	0.15665	9.56	0.1142
	650	0.7249	0.15485	10.77	0.1141
	700	0.7259	0.15310	11.98	0.1140
	750	0.7268	0.15139	13.19	0.1140
	800	0.7278	0.14972	14.41	0.1139
	850	0.7288	0.14809	15.64	0.1138
	900	0.7297	0.14651	16.86	0.1137
	950	0.7308	0.14496	18.09	0.1136
	1000	0.7318	0.14345	19.33	0.1135
	1050	0.7328	0.14198	20.56	0.1134
	1100	0.7339	0.14054	21.80	0.1132
	1150	0.7349	0.13914	23.05	0.1131
	1200	0.7360	0.13777	24.29	0.1130
	1250	0.7371	0.13643	25.54	0.1128
	1300	0.7382	0.13513	26.79	0.1127
	1350	0.7394	0.13385	28.04	0.1125
	1400	0.7405	0.13260	29.30	0.1124
	1450	0.7417	0.13138	30.55	0.1122
	1500	0.7428	0.13019	31.81	0.1121
	1550	0.7440	0.12902	33.07	0.1119
	1600	0.7452	0.12787	34.33	0.1117
	1650	0.7465	0.12675	35.60	0.1115
	1700	0.7477	0.12566	36.86	0.1113
	1750	0.7490	0.12458	38.13	0.1111
	1800	0.7502	0.12353	39.40	0.1109
	1850	0.7515	0.12249	40.68	0.1107
	1900	0.7528	0.12148	41.95	0.1105
	1950	0.7541	0.12048	43.23	0.1103
	2000	0.7555	0.11951	44.51	0.1101
	2050	0.7568	0.11855	45.80	0.1099
	2100	0.7582	0.11760	47.09	0.1097
	2150	0.7596	0.11668	48.38	0.1095
	2200	0.7610	0.11577	49.67	0.1092
	2250	0.7624	0.11487	50.97	0.1090
	2300	0.7638	0.11399	52.27	0.1088
	2350	0.7652	0.11313	53.58	0.1085
	2400	0.7667	0.11228	54.89	0.1083
	2450	0.7682	0.11144	56.21	0.1081
	2500	0.7697	0.11062	57.53	0.1078
	2600	0.7727	0.10901	60.19	0.1073
	2700	0.7758	0.10747	62.87	0.1068
	2800	0.7789	0.10597	65.58	0.1063
	2900	0.7821	0.10454	68.32	0.1058
	3100	0.7888	0.10184	73.90	0.1047
	3200	0.7922	0.10059	76.75	0.1042
	3300	0.7956	0.09941	79.63	0.1036
	3400	0.7991	0.09830	82.56	0.1031
	3500	0.8027	0.09726	85.52	0.1025
	3600	0.8064	0.09632	88.53	0.1020
	3700	0.8101	0.09546	91.59	0.1014
	3800	0.8139	0.09470	94.68	0.1009
	3900	0.8177	0.09405	97.82	0.1004
	4000	0.8216	0.09351	101.00	0.0998
	4100	0.8256	0.09310	104.21	0.0993
	4200	0.8296	0.09281	107.45	0.0988
	4300	0.8337	0.09266	110.72	0.0982
	4400	0.8378	0.09265	114.01	0.0977
	4500	0.8420	0.09279	117.32	0.0972
	4600	0.8463	0.09309	120.63	0.0967
	4700	0.8506	0.09355	123.94	0.0963
	4800	0.8550	0.09418	127.25	0.0958
	4900	0.8595	0.09497	130.53	0.0953
	5000	0.8640	0.09594	133.79	0.0949
	5200	0.8732	0.09840	140.19	0.0941
	5400	0.8827	0.10154	146.39	0.0933
	5600	0.8924	0.10536	152.34	0.0926
	5800	0.9024	0.10981	158.01	0.0920
	6000	0.9126	0.11486	163.37	0.0915
	6200	0.9231	0.12047	168.42	0.0911
	6400	0.9338	0.12658	173.16	0.0908
	6600	0.9448	0.13313	177.60	0.0906
	6800	0.9560	0.14009	181.75	0.0905
	7000	0.9675	0.14739	185.64	0.0906
	7200	0.9792	0.15499	189.29	0.0908
	7400	0.9912	0.16286	192.72	0.0912
	7600	1.0034	0.17094	195.96	0.0917
	7800	1.0159	0.17919	199.01	0.0924
	8000	1.0286	0.18759	201.90	0.0932
	8200	1.0416	0.19610	204.65	0.0943
	8400	1.0548	0.20468	207.27	0.0955
	8600	1.0683	0.21331	209.78	0.0969
	8800	1.0820	0.22196	212.19	0.0985
	9000	1.0960	0.23061	214.51	0.1004
	9200	1.1102	0.23923	216.76	0.1025
	9400	1.1247	0.24780	218.94	0.1048
	9600	1.1394	0.25630	221.07	0.1073
	9800	1.1543	0.26471	223.15	0.1101
	10000	1.1695	0.27302	225.19	0.1131
	10200	1.1850	0.28121	227.19	0.1164
	10400	1.2007	0.28927	229.18	0.1200
	10600	1.2167	0.29718	231.14	0.1239
	10800	1.2329	0.30495	233.10	0.1280
	11000	1.2494	0.31255	235.05	0.1324
	11200	1.2661	0.32000	236.99	0.1372
	11400	1.2830	0.32728	238.95	0.1422
	11600	1.3002	0.33440	240.91	0.1476
	11800	1.3177	0.34136	242.89	0.1533
	12000	1.3354	0.34817	244.89	0.1593
	12200	1.3534	0.35484	246.91	0.1657
	12400	1.3716	0.36138	248.96	0.1724
	12600	1.3900	0.36781	251.04	0.1795
	12800	1.4087	0.37416	253.16	0.1870
	13000	1.4277	0.38045	255.33	0.1948
	13200	1.4469	0.38671	257.53	0.2031
	13400	1.4663	0.39298	259.78	0.2117
	13600	1.4860	0.39930	262.09	0.2207
	13800	1.5060	0.40571	264.44	0.2301
	14000	1.5262	0.41228	266.85	0.2399