! Filename:  P:\Prog\Test\Noise\ATS_data\Testdata_Net\Split files Spar\BFU730_2W_B1_1V_1mA_30mA_Bias4_D.s2p
! Date/Time: Fri 29/Apr/2011 14:16:09
! BFU730_2W_B1_1V_1mA_30mA_Bias4_R.s2p
! MDIF S-parameter v. bias file
! BFU730_2W_B1_1V_1mA_30mA
! Date/time Thu Mar 17 14:34:31 2011
! VAR V_out= 1.0003
! VAR I_out= 5.0500
! VAR V_in= 0.7911
! VAR I_in= 0.0146
! Device data file deembeded for feedlines and parallel
! Original file: \Split files Spar\BFU730_2W_B1_1V_1mA_30mA_Bias4_R.s2p
! Feed-files: PR003V01_101208_Feed1.s2p, PR003V01_101208_Feed2.s2p
! Parallel-file: PR003V01_101208_Par.s2p
# MHz S MA R 50
!  Freq-MHz   S11-mag  S11-arg   S21-mag  S21-arg   S12-mag  S12-arg   S22-mag  S22-arg
         40   0.95088    -2.11    15.539   178.64  0.001612    88.60    0.9977    -1.11
         50    0.9532    -2.75    15.586   177.74 0.0025413    85.63   0.99746    -1.45
         60   0.95034    -3.12    15.389   177.48  0.002432    84.82   0.99824    -1.68
         70   0.95152    -3.59     15.43   177.42 0.0028715    88.14   0.99825    -2.02
         80   0.95092    -4.14    15.548   176.95 0.0032911    88.18   0.99826    -2.32
         90   0.95046    -4.67    15.551   176.37 0.0037127    87.52   0.99799    -2.64
        100   0.95011    -5.15    15.472   176.08 0.0041532    87.34   0.99776    -2.94
        120   0.95005    -6.26    15.494   175.28 0.0049625    86.82   0.99737    -3.57
        140   0.94983    -7.30    15.491   174.50 0.0058135    86.89   0.99709    -4.21
        160   0.94932    -8.35    15.415   173.62 0.0066246    86.16   0.99629    -4.82
        180   0.94926    -9.42    15.436   172.93 0.0074762    85.59   0.99556    -5.43
        200    0.9482   -10.47    15.422   172.04 0.0083382    84.96   0.99461    -6.06
        220   0.94725   -11.54    15.438   171.27 0.0091685    84.51   0.99352    -6.69
        240   0.94569   -12.63    15.486   170.39  0.010031    83.69   0.99271    -7.31
        260   0.94532   -13.63     15.39   169.59  0.010834    83.24   0.99141    -7.92
        280   0.94401   -14.72     15.39   168.79  0.011697    82.62   0.99039    -8.53
        300   0.94378   -15.75    15.335   168.01   0.01254    81.93   0.98919    -9.17
        320   0.94176   -16.76    15.258   167.24  0.013374    81.34   0.98741    -9.78
        340   0.94041   -17.82    15.264   166.40  0.014169    80.78   0.98544   -10.39
        360    0.9396   -18.84    15.189   165.72  0.014996    80.05   0.98336   -11.00
        380   0.93797   -19.92    15.183   164.95  0.015821    79.45   0.98135   -11.62
        400   0.93591   -20.99    15.221   164.18   0.01665    78.95   0.97903   -12.17
        420   0.93411   -22.08    15.237   163.36  0.017469    78.24   0.97768   -12.74
        440   0.93268   -23.04    15.136   162.60  0.018275    77.59   0.97549   -13.37
        460     0.931   -24.11    15.145   161.85  0.019074    76.92    0.9732   -13.95
        480   0.92902   -25.13    15.065   161.08  0.019882    76.28   0.97194   -14.59
        500    0.9269   -26.10    14.973   160.32  0.020632    75.63   0.96848   -15.23
        550   0.92179   -28.70    14.938   158.40  0.022522    74.08   0.96024   -16.64
        600   0.91603   -31.30    14.898   156.58  0.024446    72.55   0.95389   -18.03
        650   0.91078   -33.70    14.696   154.72  0.026316    70.99   0.94666   -19.48
        700   0.90515   -36.07    14.483   153.02  0.028102    69.43   0.93819   -20.95
        750   0.89964   -38.61    14.424   151.27  0.029839    68.08   0.92909   -22.27
        800   0.89291   -41.20    14.386   149.53  0.031611    66.72   0.92224   -23.49
        850   0.88632   -43.51    14.184   147.79   0.03332    65.25   0.91449   -24.86
        900   0.87975   -45.79    13.979   146.12  0.034836    63.86   0.90338   -26.19
        950   0.87392   -48.21    13.879   144.58  0.036379    62.63   0.89343   -27.37
       1000   0.86643   -50.52    13.764   142.91  0.037932    61.32   0.88517   -28.59
       1050   0.85888   -52.82    13.611   141.30  0.039398    60.06   0.87551   -29.80
       1100   0.85283   -55.00    13.437   139.80  0.040759    58.80   0.86497   -30.99
       1150   0.84483   -57.37    13.338   138.18  0.042065    57.67   0.85483   -32.06
       1200   0.83795   -59.58      13.2   136.70  0.043449    56.48   0.84619   -33.17
       1250   0.83092   -61.67    12.994   135.18  0.044708    55.22   0.83678   -34.38
       1300    0.8244   -63.79    12.836   133.73  0.045875    54.11   0.82558   -35.43
       1350     0.817   -66.00    12.727   132.25  0.047032    53.13   0.81548   -36.41
       1400   0.80989   -68.17    12.587   130.81  0.048163    52.00   0.80595   -37.45
       1450   0.80247   -70.26    12.436   129.40  0.049218    50.99    0.7959   -38.46
       1500   0.79579   -72.26    12.283   128.06  0.050231    49.96   0.78622   -39.40
       1550   0.78938   -74.19    12.125   126.69  0.051251    49.05   0.77706   -40.29
       1600   0.78251   -76.14    11.973   125.36  0.052265    48.08   0.76815   -41.21
       1650   0.77561   -78.11      11.8   124.06  0.053133    47.13   0.75816   -42.14
       1700   0.76958   -79.98    11.662   122.77  0.053979    46.26   0.74828   -42.98
       1750   0.76248   -81.87    11.526   121.47  0.054827    45.40    0.7394   -43.86
       1800   0.75639   -83.77    11.366   120.23  0.055671    44.46   0.73064   -44.73
       1850   0.75006   -85.68    11.224   118.98  0.056413    43.61   0.72105   -45.55
       1900   0.74359   -87.55    11.098   117.70  0.057142    42.85   0.71261   -46.35
       1950   0.73731   -89.24    10.938   116.54  0.057841    42.06   0.70435   -47.14
       2000   0.73147   -90.96    10.778   115.37  0.058542    41.27   0.69522   -48.01
       2050   0.72543   -92.67    10.632   114.25  0.059209    40.54    0.6857   -48.76
       2100   0.72017   -94.30    10.488   113.16  0.059874    39.83   0.67769   -49.45
       2150   0.71531   -95.97    10.358   112.09  0.060473    39.14   0.66884   -50.21
       2200   0.70966   -97.61    10.225   111.03  0.061101    38.45   0.66043   -50.79
       2250   0.70353   -99.27    10.091   109.92  0.061701    37.77    0.6536   -51.53
       2300   0.69857  -100.87    9.9526   108.87  0.062256    37.04   0.64583   -52.30
       2350   0.69453  -102.40    9.8087   107.92  0.062771    36.41   0.63693   -53.02
       2400   0.68946  -104.06    9.6926   106.91  0.063272    35.86   0.62799   -53.58
       2450   0.68366  -105.58    9.5665   105.96   0.06382    35.28    0.6199   -54.16
       2500   0.67806  -107.10    9.4392   105.01  0.064373    34.59   0.61261   -54.77
       2600   0.66957  -109.90    9.2066   103.18  0.065204    33.35    0.5983   -55.86
       2700   0.66072  -112.82    8.9779   101.32  0.066016    32.18   0.58437   -56.91
       2800   0.65313  -115.54    8.7625    99.53  0.066711    31.13   0.57154   -57.88
       2900   0.64565  -118.22     8.539    97.85   0.06727    30.16    0.5591   -58.77
       3000   0.63853  -120.77    8.3525    96.19  0.067949    29.30   0.54809   -59.71
       3100   0.63319  -123.29    8.1617    94.52  0.068502    28.36   0.53804   -60.67
       3200   0.62702  -125.72    7.9711    92.93  0.069062    27.53   0.52681   -61.61
       3300   0.62212  -128.24    7.8026    91.36  0.069617    26.62   0.51726   -62.73
       3400   0.61546  -130.61    7.6352    89.76  0.070151    25.89   0.50758   -63.64
       3500   0.61098  -132.89    7.4704    88.23  0.070598    25.15   0.49765   -64.56
       3600    0.6061  -135.30    7.3093    86.74   0.07105    24.46   0.48756   -65.35
       3700   0.60205  -137.38    7.1539    85.26   0.07147    23.77   0.47904   -66.12
       3800   0.59708  -139.69    7.0098    83.78  0.071818    23.13   0.46911   -67.02
       3900   0.59292  -141.67    6.8657    82.39    0.0723    22.61   0.46165   -67.76
       4000   0.58911  -143.96    6.7241    80.96  0.072676    21.94   0.45281   -68.66
       4100   0.58552  -145.88    6.5892    79.62  0.072934    21.40   0.44427   -69.32
       4200   0.58222  -147.93    6.4637    78.25  0.073382    20.84     0.437   -70.09
       4300    0.5792  -149.82    6.3406    76.93  0.073758    20.30   0.43043   -70.93
       4400   0.57601  -151.88    6.2199    75.56  0.074107    19.78   0.42307   -71.67
       4500   0.57347  -153.62    6.1032    74.30  0.074411    19.32   0.41647   -72.35
       4600   0.57072  -155.55    5.9889    73.05   0.07468    18.81   0.40933   -73.09
       4700   0.56887  -157.34    5.8839    71.77  0.074936    18.35    0.4026   -73.89
       4800   0.56598  -159.28    5.7747    70.49  0.075268    17.86   0.39693   -74.72
       4900    0.5637  -161.06    5.6756    69.23  0.075516    17.43   0.39077   -75.36
       5000   0.56151  -162.81    5.5754    68.06  0.075817    17.09   0.38427   -75.97
       5200   0.55732  -166.15    5.3833    65.61   0.07629    16.28   0.37314   -77.49
       5400   0.55415  -169.48    5.2099    63.35  0.076831    15.51   0.36252   -78.73
       5600   0.55078  -172.68    5.0388    60.98  0.077238    14.81   0.35214   -80.28
       5800   0.54783  -175.75    4.8819    58.78  0.077589    14.21   0.34265   -81.47
       6000   0.54592  -178.65    4.7363    56.54  0.078049    13.64   0.33358   -82.99
       6200   0.54516   178.51    4.5982    54.42  0.078487    13.15   0.32554   -84.25
       6400   0.54376   175.66    4.4678    52.27  0.078904    12.68   0.31692   -85.74
       6600   0.54274   172.79    4.3441    50.12  0.079417    12.24   0.30919   -87.05
       6800   0.54226   170.17     4.232    48.11  0.079994    11.81   0.30193   -88.69
       7000    0.5414   167.58    4.1168    46.03  0.080371    11.57   0.29387   -90.03
       7200   0.54263   165.21    4.0211    44.06  0.081202    11.33   0.28858   -91.56
       7400   0.54262   162.55    3.9234    41.86  0.081817    10.78   0.28108   -93.49
       7600   0.54514   160.26    3.8369    39.87  0.082781    10.61    0.2765   -94.92
       7800    0.5432   157.34    3.7324    37.66  0.083123     9.83   0.26615   -97.32
       8000   0.54195   155.54    3.6496    36.15  0.083438    10.31   0.26148   -97.62
       8200   0.54614   152.83    3.5733    33.79  0.084906     9.60   0.25515  -100.52
       8400   0.54672   150.59     3.493    31.96  0.085595     9.63   0.25078  -101.73
       8600   0.54544   148.12     3.402    29.93  0.086106     8.62   0.24058  -104.46
       8800   0.54535   146.08    3.3306    28.04  0.087019     8.70   0.23498  -105.78
       9000   0.54795   144.55      3.27    26.39  0.087909     8.80   0.23225  -107.59
       9200    0.5492   142.27    3.2024    24.48  0.088893     8.30    0.2252  -109.83
       9400   0.55222   140.20    3.1398    22.48  0.089719     7.95   0.22116  -111.94
       9600   0.55597   138.22    3.0812    20.74  0.090819     7.87   0.21343  -114.26
       9800    0.5589   136.12    3.0333    18.86  0.091798     7.78    0.2098  -115.75
      10000   0.56356   134.21    2.9804    16.93  0.094163     7.56   0.20905  -118.22
      10200   0.56603   131.85    2.9229    14.92  0.095298     6.72   0.20132  -121.79
      10400   0.56734   129.96     2.863    13.03  0.096383     6.20   0.19892  -124.31
      10600   0.56844   127.91      2.81    11.23  0.097537     5.73   0.19112  -127.37
      10800   0.57003   126.29    2.7665     9.48  0.098692     5.43   0.18913  -129.59
      11000   0.57471   124.16    2.7181     7.69    0.1003     5.07   0.18444  -132.32
      11200    0.5793   122.37    2.6902     5.81   0.10181     4.70   0.18455  -135.71
      11400    0.5821   120.45    2.6361     3.85   0.10333     3.88   0.17939  -139.15
      11600   0.58444   118.46      2.59     2.13    0.1042     3.40   0.17558  -143.09
      11800   0.59079   116.71     2.551     0.27   0.10616     2.93   0.17215  -145.71
      12000   0.59095   115.13    2.5193    -1.25   0.10688     2.51    0.1679  -149.37
      12200   0.59822   112.89     2.488    -3.40   0.10928     2.07   0.16706  -152.33
      12400   0.59811   110.93    2.4451    -5.39   0.11119     1.20   0.16435  -156.88
      12600   0.59818   109.17    2.3958    -6.92   0.11161     0.79   0.15824  -160.35
      12800   0.60708   107.85    2.3777    -8.60   0.11461     0.59   0.15747  -162.48
      13000   0.60498   105.68    2.3402   -10.50   0.11548    -0.52   0.15578  -167.15
      13200   0.61094   104.35    2.2943   -12.37   0.11718    -1.23   0.15512  -170.97
      13400   0.61515   102.79    2.2743   -14.20   0.11998    -2.05   0.15944  -175.32
      13600    0.6213   100.88    2.2484   -16.18   0.12119    -2.73   0.16118  -179.88
      13800   0.62132    99.29     2.209   -17.95    0.1234    -3.54   0.16261   175.23
      14000   0.62826    97.42    2.1865   -19.50   0.12466    -4.47   0.16433   169.84
      14200   0.63471    95.98    2.1581   -21.46   0.12628    -4.99   0.16486   165.77
      14400   0.63655    93.65    2.1268   -23.36   0.12793    -5.90   0.17117   159.64
      14600   0.64126    92.11    2.1014   -25.13   0.13016    -6.30   0.16857   156.34
      14800   0.64388    90.25    2.0746   -26.89   0.13236    -7.18   0.17469   151.47
      15000   0.65042    88.79     2.046   -28.71   0.13452    -8.07   0.17553   147.87
      15200   0.65438    87.26    2.0258   -30.43   0.13687    -9.12   0.18217   145.01
      15400   0.66555    85.59    2.0061   -32.29   0.13855   -10.03   0.18686   140.78
      15600   0.66922    84.42    1.9823   -34.20   0.14096   -11.00   0.19302   137.84
      15800   0.67609    82.50    1.9645   -35.97   0.14233   -12.20   0.19894   134.17
      16000   0.68684    81.03     1.946   -38.21   0.14441   -13.07   0.20724   130.80
      16200   0.69299    79.12    1.9246   -40.33   0.14625   -13.97   0.21145   127.49
      16400   0.70003    77.36    1.8876   -42.41   0.14806   -14.67   0.21615   124.37
      16600   0.70081    75.69    1.8595   -44.09   0.15114   -15.84   0.22551   122.35
      16800   0.70535    73.98    1.8328   -45.66   0.15244   -16.73   0.22998   118.57
      17000   0.70692    72.22    1.8205   -47.48   0.15523   -17.91   0.24394   116.34
      17200   0.70954    70.40    1.8018   -49.47   0.15725   -18.83   0.24849   112.36
      17400   0.71513    68.20    1.7851   -51.81   0.15881   -20.02   0.26111   109.99
      17600   0.71433    66.65    1.7513   -53.52   0.16187   -20.57   0.26522   105.80
      17800   0.71543    65.07    1.7353   -55.54   0.16509   -22.06   0.27257   103.65
      18000   0.72573    63.90    1.7041   -57.58   0.16737   -23.43   0.27847   101.92
      18200   0.73079    61.66    1.6874   -59.89   0.16938   -24.65   0.29002    99.15
      18400   0.73639    60.17    1.6476   -62.08   0.17154   -25.87   0.29479    97.63
      18600   0.72974    58.83    1.6027   -63.49   0.17264   -26.89   0.30982    95.45
      18800   0.73763    56.70    1.5795   -65.18   0.17539   -28.06   0.31871    93.21
      19000   0.73471    55.56    1.5581   -66.53   0.17903   -29.06    0.3283    90.93
      19200   0.74091    53.96     1.539   -68.39   0.18232   -30.71   0.33493    88.46
      19400   0.74522    52.81    1.5161   -69.68   0.18485   -32.02   0.33905    87.22
      19600   0.75083    51.57    1.4944   -71.36   0.18652   -34.44   0.35486    86.81
      19800   0.77383    50.68    1.4922   -72.82   0.18561   -35.21   0.37099    83.54
      20000   0.78529    48.11    1.4804   -75.08   0.18711   -35.90   0.37799    81.82