! Filename:  P:\Prog\Test\Noise\ATS_data\Testdata_Net\Split files Spar\BFU730_2W_B1_Bias2_2.5V_1mA_25mA_D.s2p
! Date/Time: Fri 29/Apr/2011 15:07:31
! BFU730_2W_B1_Bias2_2.5V_1mA_25mA_R.s2p
! MDIF S-parameter v. bias file
! BFU730_2W_B1_2.5V_1mA_25mA
! Date/time Thu Mar 17 13:38:09 2011
! VAR V_out= 2.5000
! VAR I_out= 1.9550
! VAR V_in= 0.7641
! VAR I_in= 0.0051
! Device data file deembeded for feedlines and parallel
! Original file: \Split files Spar\BFU730_2W_B1_Bias2_2.5V_1mA_25mA_R.s2p
! Feed-files: PR003V01_101208_Feed1.s2p, PR003V01_101208_Feed2.s2p
! Parallel-file: PR003V01_101208_Par.s2p
# MHz S MA R 50
!  Freq-MHz   S11-mag  S11-arg   S21-mag  S21-arg   S12-mag  S12-arg   S22-mag  S22-arg
         40   0.98144    -1.41    6.6122   179.16 0.0013956    81.75   0.99862    -0.65
         50   0.97998    -2.23    6.6345   178.42 0.0021808    76.23   0.99859    -0.83
         60   0.97828    -1.93    6.5494   178.10 0.0020019    80.46    0.9989    -0.94
         70   0.98143    -2.36    6.5637   178.22 0.0024108    85.75   0.99892    -1.13
         80   0.98119    -2.73    6.6203   177.91 0.0028006    85.75   0.99904    -1.28
         90    0.9813    -3.08    6.6252   177.46 0.0031526    85.67   0.99887    -1.45
        100   0.98155    -3.37    6.5888   177.32  0.003523    85.74   0.99867    -1.62
        120   0.98102    -4.14    6.5979   176.80 0.0042119    86.45   0.99872    -1.95
        140   0.98082    -4.80    6.6027   176.31  0.004942    86.66   0.99874    -2.30
        160   0.98055    -5.47    6.5736   175.73  0.005653    86.20    0.9984    -2.63
        180   0.98095    -6.21    6.5906   175.31 0.0063834    86.05   0.99833    -2.97
        200   0.98035    -6.91    6.5917   174.67 0.0071043    85.73   0.99795    -3.30
        220   0.98004    -7.60    6.6035   174.17 0.0078442    85.83    0.9978    -3.65
        240   0.97949    -8.30    6.6375   173.56 0.0085657    85.16   0.99779    -4.00
        260   0.97942    -8.97    6.6022   173.00 0.0092868    85.10   0.99735    -4.34
        280   0.97902    -9.70    6.6111   172.46  0.010029    84.57   0.99726    -4.68
        300   0.97864   -10.41    6.5965   171.94   0.01072    84.33   0.99703    -5.03
        320    0.9782   -11.07    6.5626   171.43  0.011452    83.92    0.9967    -5.36
        340   0.97778   -11.76     6.578   170.85  0.012205    83.54   0.99601    -5.70
        360   0.97723   -12.42    6.5515   170.40  0.012909    83.09   0.99532    -6.04
        380   0.97676   -13.11    6.5568   169.86  0.013661    82.67   0.99482    -6.39
        400   0.97619   -13.80    6.5845   169.33  0.014387    82.32   0.99397    -6.70
        420   0.97575   -14.53    6.6103   168.77  0.015122    81.82   0.99397    -7.01
        440   0.97529   -15.21    6.5807   168.25  0.015845    81.44   0.99319    -7.37
        460   0.97459   -15.94    6.5952   167.71   0.01657    80.96   0.99254    -7.69
        480   0.97397   -16.62    6.5774   167.19  0.017284    80.49   0.99273    -8.06
        500   0.97315   -17.30    6.5301   166.66  0.017999    80.05   0.99145    -8.43
        550   0.97179   -19.03    6.5561   165.30  0.019737    78.91   0.98901    -9.25
        600   0.96941   -20.77    6.5806   164.00  0.021577    77.81   0.98734   -10.05
        650   0.96771   -22.44    6.5238   162.63  0.023331    76.73   0.98523   -10.90
        700   0.96524   -24.10    6.4523   161.39  0.025083    75.55   0.98267   -11.77
        750   0.96337   -25.83    6.4632   160.11  0.026783    74.46   0.97967   -12.59
        800   0.96075   -27.61    6.5046   158.88  0.028537    73.40   0.97777   -13.33
        850   0.95804   -29.28    6.4637   157.54  0.030268    72.28    0.9758   -14.15
        900   0.95592   -30.89    6.3858   156.27  0.031898    71.14   0.97192   -15.00
        950   0.95354   -32.59    6.3797   155.11  0.033513    70.11   0.96822   -15.77
       1000   0.95034   -34.29    6.3939   153.81  0.035209    69.06    0.9658   -16.55
       1050   0.94736   -35.91    6.3583   152.60    0.0368    67.98    0.9626   -17.35
       1100   0.94468   -37.52    6.3069   151.41  0.038356    66.90   0.95855   -18.16
       1150    0.9413   -39.24    6.3104   150.14   0.03988    65.90    0.9547   -18.88
       1200   0.93802   -40.87    6.2915   148.95  0.041461    64.91   0.95183   -19.62
       1250   0.93491   -42.47    6.2349   147.71  0.043025    63.76   0.94875   -20.45
       1300   0.93217   -44.06    6.1878   146.52  0.044435    62.74   0.94413   -21.22
       1350   0.92849   -45.75    6.1932   145.31  0.045844    61.79   0.93953   -21.94
       1400   0.92514   -47.41     6.178   144.12  0.047308    60.78   0.93585   -22.68
       1450   0.92189   -49.01    6.1419   142.94  0.048715    59.78   0.93182   -23.44
       1500    0.9186   -50.59    6.1057   141.82  0.050033    58.77   0.92761   -24.16
       1550    0.9149   -52.16    6.0826   140.60   0.05138    57.85   0.92383   -24.84
       1600   0.91117   -53.74    6.0611   139.44  0.052756    56.90   0.92033   -25.53
       1650   0.90745   -55.32    6.0068   138.32  0.054023    55.93   0.91553   -26.27
       1700   0.90431   -56.83    5.9734   137.19  0.055194    55.01   0.91027   -26.96
       1750   0.90026   -58.39    5.9535   136.04  0.056433    54.10   0.90612   -27.65
       1800   0.89655   -59.98    5.9101   134.90   0.05771    53.12   0.90232   -28.36
       1850   0.89308   -61.54    5.8737   133.76  0.058866    52.16   0.89735   -29.06
       1900   0.88927   -63.14    5.8571   132.61  0.059996    51.32   0.89303   -29.72
       1950   0.88523   -64.57    5.8062   131.55  0.061088    50.44   0.88884   -30.41
       2000   0.88112   -66.06    5.7603   130.42  0.062267    49.54   0.88446   -31.12
       2050   0.87663   -67.55    5.7266   129.35  0.063365    48.68   0.87941   -31.77
       2100   0.87328   -69.00    5.6915   128.28  0.064427    47.84   0.87487   -32.39
       2150   0.86984   -70.50    5.6628   127.27  0.065464    47.01    0.8697   -33.05
       2200   0.86567   -71.94     5.624   126.22  0.066417    46.15   0.86465   -33.62
       2250   0.86129   -73.44    5.5916   125.13  0.067438    45.31   0.86083   -34.27
       2300   0.85718   -74.87    5.5495   124.08  0.068462    44.44   0.85658   -34.95
       2350    0.8539   -76.23    5.4916   123.13    0.0694    43.60   0.85057   -35.61
       2400   0.85008   -77.71    5.4657   122.11  0.070251    42.83   0.84433   -36.15
       2450   0.84518   -79.13    5.4376   121.09  0.071233    42.03   0.83951   -36.70
       2500   0.84086   -80.49    5.3913   120.10  0.072223    41.05   0.83529   -37.32
       2600   0.83372   -83.18    5.3152   118.20   0.07373    39.40   0.82592   -38.41
       2700   0.82597   -85.97    5.2448   116.23  0.075217    37.74   0.81695   -39.49
       2800   0.81933   -88.59    5.1728   114.30  0.076419    36.22   0.80756   -40.54
       2900   0.81142   -91.24    5.0888   112.46  0.077634    34.70   0.79914   -41.57
       3000   0.80436   -93.81    5.0329   110.62  0.078796    33.34   0.79103   -42.57
       3100   0.79909   -96.28    4.9507   108.85  0.079827    31.93   0.78347   -43.63
       3200   0.79236   -98.72     4.878   107.10  0.080848    30.62   0.77459   -44.63
       3300   0.78629  -101.31    4.8173   105.32  0.081853    29.21   0.76765   -45.79
       3400   0.77934  -103.75    4.7568   103.54  0.082759    28.00   0.75977   -46.75
       3500   0.77367  -106.07    4.6855   101.87  0.083632    26.76   0.75153   -47.73
       3600   0.76747  -108.57    4.6204   100.18  0.084397    25.55   0.74291   -48.61
       3700   0.76232  -110.76    4.5472    98.51  0.085093    24.30   0.73624   -49.55
       3800   0.75589  -113.20    4.4925    96.83  0.085796    23.14   0.72785   -50.52
       3900    0.7504  -115.38    4.4328    95.23  0.086425    22.10   0.72119   -51.34
       4000   0.74471  -117.70    4.3685    93.60  0.087091    20.91   0.71356   -52.33
       4100   0.73985  -119.84    4.3011    92.05  0.087449    19.80   0.70574   -53.15
       4200   0.73508  -122.05    4.2445    90.49  0.087986    18.71   0.69907   -54.01
       4300   0.73077  -124.13    4.1887    88.95  0.088398    17.68   0.69306   -54.95
       4400    0.7256  -126.37    4.1336    87.34  0.088842    16.60   0.68648   -55.81
       4500   0.72211  -128.35    4.0732    85.91  0.089095    15.65   0.67981   -56.59
       4600   0.71701  -130.45    4.0134    84.43  0.089277    14.63   0.67268   -57.42
       4700    0.7136  -132.49    3.9617    82.95  0.089494    13.66   0.66635   -58.31
       4800   0.70872  -134.60     3.908    81.41  0.089747    12.67   0.66106   -59.22
       4900   0.70502  -136.58    3.8548    79.98  0.089935    11.73    0.6552   -59.95
       5000    0.7009  -138.55    3.8028    78.62  0.090054    10.84   0.64868   -60.67
       5200   0.69333  -142.41    3.7063    75.70    0.0901     9.09   0.63744   -62.41
       5400   0.68684  -146.16    3.6078    73.09   0.09006     7.39   0.62699   -63.85
       5600   0.67991  -149.86    3.5143    70.29  0.089828     5.72   0.61638   -65.57
       5800   0.67378  -153.41    3.4255    67.70  0.089421     4.17   0.60684   -67.02
       6000   0.66907  -156.87    3.3404    65.09  0.088916     2.75   0.59745   -68.63
       6200   0.66484  -160.22    3.2608    62.57  0.088355     1.47   0.58921   -70.11
       6400    0.6609  -163.57    3.1828    60.09  0.087657     0.21   0.58031   -71.68
       6600   0.65643  -166.91    3.1106    57.55   0.08697    -0.98   0.57218   -73.19
       6800   0.65327  -170.03    3.0384    55.23  0.086268    -1.95    0.5639   -74.80
       7000   0.65015  -173.09    2.9693    52.78  0.085202    -2.93   0.55596   -76.31
       7200   0.64901  -175.99    2.9106    50.51  0.084593    -3.51   0.54964   -77.85
       7400   0.64685  -179.10    2.8502    47.98  0.083764    -4.53   0.54183   -79.73
       7600   0.64676   178.13     2.797    45.72  0.083319    -4.86   0.53751   -81.14
       7800   0.64238   174.84    2.7298    43.21  0.082486    -6.18   0.52588   -83.26
       8000   0.63936   172.50     2.675    41.37  0.080212    -5.96   0.52059   -84.20
       8200   0.64154   169.39    2.6264    38.80  0.080752    -6.51   0.51354   -86.39
       8400   0.63984   166.78    2.5731    36.66  0.079456    -6.63   0.50831   -87.94
       8600   0.63711   163.87    2.5152    34.35  0.078847    -7.98   0.49764   -89.93
       8800   0.63521   161.40    2.4674    32.20  0.077666    -7.67   0.49109   -91.36
       9000   0.63702   159.28    2.4258    30.28  0.076576    -7.15   0.48889   -93.02
       9200   0.63655   156.69    2.3804    28.18  0.075987    -7.39   0.48053   -94.80
       9400   0.63724   154.16    2.3396    25.88  0.075064    -7.41   0.47718   -96.82
       9600   0.63929   151.75    2.2994    23.93  0.074532    -6.76    0.4687   -98.57
       9800   0.64076   149.31    2.2664    21.81  0.073748    -6.17   0.46536  -100.14
      10000   0.64406   147.03    2.2299    19.69  0.074784    -5.35   0.46393  -102.29
      10200    0.6447   144.38    2.1909    17.43  0.074726    -5.68   0.45465  -104.70
      10400    0.6453   142.15    2.1484    15.32    0.0744    -5.64   0.45143  -106.85
      10600    0.6443   139.80    2.1133    13.33  0.074147    -5.33   0.44257  -108.90
      10800    0.6456   137.88    2.0817    11.31  0.073822    -4.65   0.44022  -110.89
      11000   0.64751   135.43    2.0538     9.39  0.074212    -3.89   0.43535  -112.92
      11200   0.65219   133.37    2.0304     7.18  0.074619    -2.94   0.43412  -115.48
      11400   0.65402   131.12    1.9925     5.08  0.075259    -2.96   0.42739  -117.97
      11600   0.65553   128.84    1.9587     3.08  0.075023    -2.34   0.42095  -120.53
      11800    0.6604   126.82     1.928     1.08   0.07623    -1.54   0.41629  -122.50
      12000   0.66067   124.86    1.9064    -0.59  0.076101    -0.62   0.41047  -124.79
      12200   0.66631   122.50    1.8833    -2.91  0.078435     0.12   0.40911  -127.12
      12400   0.66501   120.27    1.8545    -5.07  0.079713    -0.03   0.40363  -130.03
      12600   0.66381   118.22    1.8165    -6.89  0.079417     0.92   0.39641  -132.23
      12800   0.67283   116.62    1.8032    -8.69  0.082539     2.14     0.394  -134.34
      13000   0.67046   114.31    1.7747   -10.73  0.083086     1.89   0.38893  -137.11
      13200   0.67534   112.66     1.742   -12.79  0.084618     2.01   0.38521  -139.79
      13400   0.67918   110.77    1.7282   -14.72   0.08806     2.23   0.38507  -142.98
      13600   0.68428   108.67    1.7107   -16.94   0.08972     2.44   0.38316  -145.97
      13800   0.68359   106.89    1.6816   -18.86  0.092044     2.26   0.37857  -149.25
      14000   0.68924   104.82    1.6657   -20.73  0.093732     2.16   0.37519  -152.56
      14200   0.69522   103.15    1.6414   -22.80  0.096071     2.32   0.37222  -155.44
      14400   0.69577   100.76    1.6205   -24.93  0.098077     1.85   0.36927  -159.90
      14600   0.70081    99.01    1.5978   -26.87   0.10098     2.10   0.36431  -162.19
      14800   0.70249    96.99    1.5753   -28.77   0.10378     1.81   0.36249  -166.07
      15000   0.70868    95.27    1.5536   -30.73   0.10652     1.36   0.35922  -168.90
      15200   0.71265    93.53    1.5376   -32.49   0.10971     0.83   0.36154  -171.94
      15400   0.72263    91.61     1.524   -34.50   0.11246     0.21   0.35942  -175.41
      15600   0.72655    90.26    1.5037   -36.57   0.11556    -0.37   0.36373  -178.63
      15800   0.73261    88.09    1.4908   -38.46   0.11828    -1.19   0.36301   178.08
      16000   0.74164    86.48    1.4773   -40.81   0.12166    -2.08   0.36868   174.40
      16200   0.74682    84.46     1.461   -43.14   0.12444    -2.86    0.3708   171.00
      16400   0.75325    82.60    1.4319   -45.41   0.12714    -3.56   0.37056   167.35
      16600   0.75417    80.83    1.4107   -47.24   0.13105    -4.68    0.3771   163.98
      16800   0.75764    78.95    1.3869   -49.00   0.13347    -5.42   0.37349   160.62
      17000    0.7591    77.17    1.3776   -50.94   0.13721    -6.61   0.38447   156.82
      17200   0.76145    75.24    1.3605   -53.03   0.14012    -7.57   0.38296   153.32
      17400   0.76587    72.96    1.3451   -55.57   0.14275    -8.86   0.39301   149.49
      17600   0.76598    71.34    1.3169   -57.28   0.14627    -9.27   0.38987   145.47
      17800   0.76721    69.54    1.3034   -59.38   0.15086   -10.83   0.39609   142.34
      18000   0.77705    68.12    1.2804   -61.41   0.15406   -12.23   0.40218   139.17
      18200   0.78123    65.86    1.2663   -63.88   0.15744   -13.71   0.40939   135.42
      18400    0.7861    64.26    1.2349   -66.17   0.16011   -15.15   0.41439   132.36
      18600   0.78003    62.76       1.2   -67.73   0.16204   -16.12   0.42269   128.66
      18800   0.78651    60.58    1.1801   -69.52   0.16548   -17.54     0.429   125.70
      19000   0.78494    59.35    1.1631   -70.93   0.16968   -18.47    0.4358   122.35
      19200    0.7909    57.55    1.1467   -72.83   0.17434   -20.12   0.44089   119.25
      19400   0.79404    56.24    1.1293   -74.25   0.17824   -21.56   0.44362   116.88
      19600   0.79977    54.82    1.1107   -76.09    0.1808   -24.11      0.46   114.51
      19800   0.81947    53.81    1.1076   -77.69   0.18183   -25.33   0.46939   110.81
      20000   0.82957    51.31    1.0935   -80.16   0.18393   -26.40   0.47776   108.20