! Filename:  P:\Prog\Test\Noise\ATS_data\Testdata_Net\Split files Spar\BFU730_2W_B1_1V_1mA_30mA_Bias1_D.s2p
! Date/Time: Fri 29/Apr/2011 14:15:58
! BFU730_2W_B1_1V_1mA_30mA_Bias1_R.s2p
! MDIF S-parameter v. bias file
! BFU730_2W_B1_1V_1mA_30mA
! Date/time Thu Mar 17 14:34:31 2011
! bias mode 1
! bias variable = I_out
! VAR bias_var= 1
! VAR V_out= 1.0001
! VAR I_out= 1.0100
! VAR V_in= 0.7469
! VAR I_in= 0.0026
! Device data file deembeded for feedlines and parallel
! Original file: \Split files Spar\BFU730_2W_B1_1V_1mA_30mA_Bias1_R.s2p
! Feed-files: PR003V01_101208_Feed1.s2p, PR003V01_101208_Feed2.s2p
! Parallel-file: PR003V01_101208_Par.s2p
# MHz S MA R 50
!  Freq-MHz   S11-mag  S11-arg   S21-mag  S21-arg   S12-mag  S12-arg   S22-mag  S22-arg
         40   0.99076    -1.22    3.3215   179.42 0.0016615    88.79   0.99956    -0.59
         50    0.9907    -1.99    3.3334   178.77 0.0024626    95.63   0.99899    -0.72
         60   0.98752    -1.64    3.2946   178.39 0.0026307    87.58   0.99964    -0.81
         70   0.99064    -2.00    3.3032   178.51 0.0029105    89.17    0.9997    -0.96
         80   0.99064    -2.31     3.332   178.22 0.0033402    89.40    0.9998    -1.10
         90   0.99091    -2.61    3.3351   177.78 0.0037919    89.19    0.9996    -1.24
        100   0.99074    -2.84     3.316   177.67 0.0042019    89.17   0.99937    -1.38
        120    0.9904    -3.50     3.317   177.29 0.0050613    88.55   0.99942    -1.66
        140   0.99035    -4.08    3.3189   176.85 0.0059121    88.55   0.99942    -1.97
        160   0.99024    -4.67    3.3104   176.26 0.0067625    87.86   0.99923    -2.25
        180   0.99058    -5.28    3.3181   175.91 0.0076333    87.65   0.99918    -2.53
        200   0.99019    -5.89    3.3197   175.35 0.0085142    87.52   0.99877    -2.82
        220   0.98988    -6.47    3.3236   174.93  0.009384    87.15    0.9988    -3.12
        240   0.98926    -7.06    3.3412   174.38  0.010235    86.73   0.99872    -3.42
        260   0.98937    -7.65    3.3224   173.92  0.011116    86.28   0.99836    -3.70
        280    0.9891    -8.25    3.3275   173.44  0.011969    85.97    0.9984    -3.99
        300   0.98924    -8.86    3.3229   172.97   0.01288    85.57   0.99813    -4.29
        320   0.98852    -9.42    3.3074   172.52  0.013742    85.20   0.99799    -4.56
        340   0.98818   -10.02    3.3149   172.03  0.014584    84.75   0.99746    -4.85
        360   0.98809   -10.60    3.3039   171.62  0.015448    84.38   0.99707    -5.14
        380   0.98803   -11.18    3.3073   171.14  0.016341    83.91   0.99674    -5.44
        400   0.98726   -11.76    3.3183   170.71  0.017217    83.56   0.99613    -5.70
        420   0.98723   -12.39    3.3319   170.21  0.018073    83.15    0.9962    -5.96
        440    0.9869   -12.96    3.3202   169.76  0.018975    82.73   0.99568    -6.27
        460   0.98661   -13.56    3.3277   169.28   0.01984    82.33    0.9952    -6.55
        480   0.98575   -14.16    3.3202   168.84  0.020704    81.86   0.99535    -6.85
        500   0.98579   -14.76    3.2987   168.34  0.021559    81.47   0.99455    -7.16
        550   0.98479   -16.23     3.309   167.24  0.023697    80.31   0.99323    -7.86
        600   0.98338   -17.69    3.3238   166.09  0.025858    79.30   0.99211    -8.56
        650   0.98262   -19.15    3.2992   164.90  0.027993    78.21   0.99064    -9.28
        700   0.98108   -20.60    3.2694   163.77  0.030135    77.14   0.98929   -10.01
        750   0.98002   -22.07    3.2781   162.64  0.032206    76.11   0.98749   -10.72
        800   0.97862   -23.56     3.302   161.58  0.034352    75.14    0.9864   -11.37
        850   0.97715   -25.02    3.2897   160.38  0.036466    74.08   0.98518   -12.07
        900   0.97575   -26.43    3.2546   159.23  0.038498    73.05   0.98306   -12.79
        950   0.97446   -27.90     3.255   158.19  0.040526    72.05   0.98099   -13.46
       1000    0.9727   -29.33    3.2693   157.05  0.042588    71.08   0.97938   -14.16
       1050    0.9708   -30.75    3.2562   155.95  0.044603    70.03   0.97732   -14.84
       1100   0.96931   -32.16    3.2342   154.87  0.046563    69.04   0.97516   -15.55
       1150   0.96727   -33.65    3.2397   153.73  0.048503    68.11   0.97296   -16.19
       1200   0.96528   -35.04    3.2358   152.66  0.050471    67.14   0.97116   -16.84
       1250   0.96359   -36.47    3.2154   151.53  0.052445    66.11   0.96931   -17.57
       1300   0.96193   -37.87    3.1951   150.42  0.054336    65.11   0.96667   -18.23
       1350   0.96015   -39.32    3.2024   149.37  0.056152    64.19   0.96383   -18.91
       1400   0.95788   -40.76    3.2005   148.29   0.05805    63.23   0.96164   -19.57
       1450   0.95619   -42.18    3.1871   147.21  0.059914    62.25   0.95935   -20.24
       1500   0.95416   -43.56    3.1733   146.18  0.061668    61.32   0.95681   -20.90
       1550   0.95179   -44.96    3.1705   145.05  0.063472    60.40   0.95457   -21.51
       1600   0.94994   -46.36    3.1666   144.03  0.065256    59.50   0.95243   -22.16
       1650   0.94727   -47.81    3.1455   142.94  0.066968    58.52   0.94945   -22.84
       1700    0.9455   -49.14    3.1331   141.88  0.068632    57.61   0.94627   -23.47
       1750   0.94313   -50.52     3.129   140.84  0.070294    56.71   0.94357   -24.11
       1800   0.94092   -51.93    3.1155   139.77  0.072046    55.79   0.94128   -24.76
       1850   0.93853   -53.36    3.1013   138.68  0.073645    54.85   0.93824   -25.41
       1900   0.93673   -54.74    3.0975   137.65  0.075215    53.98   0.93547   -26.04
       1950   0.93365   -56.05    3.0764   136.64  0.076806    53.12   0.93301   -26.66
       2000   0.93137   -57.41      3.06   135.58  0.078427    52.23   0.93031   -27.31
       2050   0.92806   -58.78    3.0507   134.56  0.080022    51.36   0.92693   -27.93
       2100    0.9259   -60.10    3.0429   133.52  0.081526    50.51     0.924   -28.56
       2150   0.92429   -61.44    3.0339   132.58  0.083046    49.67   0.92049   -29.19
       2200   0.92124   -62.75     3.021   131.58  0.084505    48.75   0.91738   -29.75
       2250   0.91804   -64.11     3.012   130.53  0.085929    47.92   0.91486   -30.39
       2300   0.91544   -65.42    2.9955   129.53  0.087462    47.05   0.91185   -31.01
       2350   0.91313   -66.68    2.9683   128.60   0.08891    46.20   0.90816   -31.62
       2400   0.91082   -68.01    2.9597   127.61  0.090264    45.37   0.90412   -32.17
       2450    0.9077   -69.31    2.9548   126.64   0.09171    44.52    0.9008   -32.74
       2500   0.90464   -70.59    2.9382   125.63  0.093162    43.51    0.8981   -33.36
       2600   0.89993   -73.12     2.908   123.76  0.095576    41.77     0.892   -34.48
       2700   0.89466   -75.73    2.8858   121.83  0.097972    40.04   0.88544   -35.59
       2800   0.89037   -78.21    2.8582   119.91   0.10009    38.37   0.87928   -36.69
       2900    0.8843   -80.74     2.825   118.05   0.10209    36.71   0.87321   -37.79
       3000   0.87959   -83.18     2.808   116.21   0.10405    35.17   0.86732   -38.88
       3100   0.87569   -85.58    2.7712   114.40   0.10591    33.60   0.86171   -39.98
       3200   0.87058   -87.96    2.7443   112.60   0.10772    32.11   0.85478   -41.05
       3300   0.86631   -90.43    2.7194   110.84   0.10958    30.49   0.85003   -42.27
       3400   0.86077   -92.76    2.6994   109.02   0.11128    29.11   0.84408   -43.31
       3500   0.85609   -95.08    2.6699   107.25   0.11282    27.62   0.83731   -44.39
       3600   0.85135   -97.49    2.6433   105.53   0.11434    26.22   0.83032   -45.35
       3700   0.84764   -99.66    2.6091   103.81   0.11581    24.76   0.82598   -46.35
       3800   0.84215  -102.05    2.5924   102.06    0.1171    23.35   0.81838   -47.43
       3900   0.83781  -104.22    2.5692   100.39   0.11839    22.08   0.81329   -48.36
       4000   0.83269  -106.52    2.5426    98.68    0.1196    20.61   0.80633   -49.47
       4100   0.82861  -108.65    2.5103    97.05   0.12059    19.24   0.80037   -50.39
       4200   0.82454  -110.83    2.4864    95.40   0.12176    17.91   0.79514   -51.35
       4300    0.8213  -112.95    2.4632    93.78    0.1227    16.59   0.79003   -52.40
       4400    0.8167  -115.18    2.4408    92.08    0.1236    15.24   0.78369   -53.41
       4500   0.81361  -117.22    2.4125    90.55   0.12429    14.01   0.77809   -54.32
       4600   0.80878  -119.35    2.3848    88.95   0.12497    12.71    0.7719   -55.24
       4700   0.80594  -121.40    2.3601    87.39   0.12558    11.44   0.76677   -56.22
       4800   0.80139  -123.54     2.336    85.76   0.12625    10.15   0.76194   -57.26
       4900    0.7978  -125.57      2.31    84.19   0.12684     8.91   0.75699   -58.10
       5000   0.79397  -127.58    2.2881    82.74   0.12733     7.73   0.75065   -58.98
       5200   0.78702  -131.55    2.2421    79.59   0.12801     5.31   0.74162   -60.94
       5400   0.78068  -135.45    2.1951    76.73   0.12837     2.94   0.73091   -62.69
       5600   0.77379  -139.29     2.149    73.67   0.12861     0.59     0.722   -64.65
       5800   0.76778  -143.00    2.1049    70.85   0.12845    -1.70   0.71292   -66.37
       6000   0.76277  -146.64    2.0612    67.99   0.12823    -3.86    0.7047   -68.24
       6200    0.7582  -150.18      2.02    65.25   0.12763    -5.91   0.69714   -69.95
       6400   0.75351  -153.76      1.98    62.51   0.12696    -8.00    0.6888   -71.79
       6600   0.74885  -157.21     1.942    59.71   0.12608   -10.01   0.68121   -73.60
       6800   0.74514  -160.58    1.9033    57.18   0.12484   -11.81    0.6717   -75.46
       7000   0.74161  -163.83    1.8657    54.46   0.12365   -13.71   0.66486   -77.23
       7200   0.73993  -167.02    1.8347    52.01   0.12225   -15.19   0.65741   -79.04
       7400   0.73692  -170.34    1.8012    49.21   0.12092   -17.14   0.64983   -81.15
       7600   0.73587  -173.35    1.7723    46.76   0.11982   -18.36   0.64545   -82.78
       7800   0.73069  -176.73    1.7349    44.09   0.11838   -20.50   0.63401   -85.09
       8000   0.72833  -179.37    1.7032    41.96   0.11446   -21.67   0.62722   -86.52
       8200   0.72857   177.32    1.6756    39.26    0.1143   -22.88    0.6205   -88.76
       8400   0.72677   174.53    1.6452    36.88   0.11165   -24.19   0.61439   -90.55
       8600    0.7232   171.50    1.6122    34.37   0.11045   -26.24   0.60499   -92.74
       8800   0.72063   168.72    1.5853    32.02   0.10774   -27.05   0.59793   -94.39
       9000   0.72213   166.27    1.5599    29.91   0.10488   -27.75   0.59571   -96.34
       9200   0.72087   163.47     1.534    27.63   0.10305   -28.86   0.58732   -98.29
       9400   0.72065   160.71    1.5092    25.10   0.10064   -30.03   0.58487  -100.52
       9600   0.72166   158.09    1.4847    23.00  0.098158   -30.48   0.57596  -102.58
       9800   0.72209   155.40    1.4646    20.66  0.095447   -31.07   0.57349  -104.41
      10000     0.724   152.96    1.4426    18.43  0.094302   -30.85   0.57101  -106.80
      10200   0.72412   150.14    1.4198    15.97  0.092629   -31.85   0.56214  -109.27
      10400   0.72453   147.72    1.3927    13.73  0.090445   -32.56   0.55943  -111.60
      10600   0.72247   145.20    1.3722    11.57  0.088206   -33.01   0.55086  -113.90
      10800   0.72379   143.07    1.3509     9.39  0.085631   -33.15   0.54935  -116.15
      11000   0.72408   140.42    1.3351     7.32  0.083731   -32.92   0.54429  -118.47
      11200   0.72808   138.16    1.3181     4.94  0.081405   -32.30   0.54301  -121.21
      11400   0.72891   135.77    1.2957     2.74  0.080036   -32.54   0.53694  -123.81
      11600   0.73009   133.31    1.2738     0.55  0.077175   -32.18    0.5303  -126.53
      11800   0.73482   131.07    1.2531    -1.54  0.075952   -31.07   0.52604  -128.74
      12000   0.73433   128.91    1.2405    -3.34  0.073461   -30.03   0.52009  -131.22
      12200   0.73869   126.40    1.2232    -5.74  0.073336   -28.48   0.51871  -133.81
      12400    0.7367   124.06    1.2067    -8.00  0.072733   -27.99   0.51431  -136.66
      12600   0.73509   121.83    1.1796    -9.95  0.069761   -26.48   0.50719  -139.27
      12800   0.74303   120.01    1.1715   -11.83  0.070516   -23.54   0.50517  -141.71
      13000   0.74048   117.53    1.1519   -13.95  0.069707   -22.82   0.49873  -144.51
      13200   0.74449   115.71     1.131   -16.09  0.069417   -21.66   0.49736  -147.30
      13400   0.74727   113.64    1.1225   -18.07  0.071715   -19.52   0.49535  -150.36
      13600   0.75117   111.37    1.1097   -20.39  0.071839   -18.11   0.49389  -153.44
      13800   0.75011   109.48    1.0921   -22.34  0.072927   -16.98   0.49077  -156.66
      14000   0.75432   107.27    1.0798   -24.43  0.073732   -15.74   0.48793  -159.93
      14200   0.75971   105.50    1.0631   -26.49  0.074994   -14.25   0.48606  -162.95
      14400   0.75914   103.04    1.0491   -28.76  0.076085   -13.44   0.48409  -166.99
      14600   0.76343   101.13    1.0311   -30.70  0.078171   -11.54    0.4801  -169.63
      14800   0.76464    98.96    1.0152   -32.61  0.080606   -10.40   0.47858  -173.32
      15000   0.76998    97.10   0.99983   -34.60  0.083198    -9.71   0.47605  -176.21
      15200    0.7742    95.22   0.98934   -36.34  0.086395    -9.21   0.47821  -179.33
      15400   0.78176    93.10   0.97916   -38.45  0.089193    -9.06    0.4777   177.43
      15600   0.78508    91.65   0.96442   -40.36  0.092228    -8.73   0.48209   174.17
      15800   0.78999    89.30   0.95524   -42.39  0.095338    -8.94   0.48227   171.01
      16000   0.79692    87.58   0.94556   -44.63  0.098427    -9.42   0.48883   167.49
      16200   0.80067    85.59   0.93319   -47.06   0.10098    -9.55    0.4917   164.07
      16400   0.80601    83.68   0.91281   -49.16   0.10368    -9.56    0.4911   160.59
      16600   0.80543    81.83   0.89946   -51.05   0.10781   -10.07   0.49719   157.40
      16800   0.80847    79.91   0.88266   -52.81   0.11061   -10.34   0.49499   154.07
      17000    0.8093    78.02   0.87434   -54.77    0.1146   -11.15   0.50592   150.61
      17200    0.8107    76.06   0.86182   -56.75    0.1177   -11.72   0.50487   147.16
      17400   0.81374    73.76   0.84816   -59.22   0.12039   -12.76   0.51533   143.63
      17600   0.81453    72.09   0.83021   -60.75   0.12417   -12.52   0.51227   139.89
      17800   0.81489    70.18   0.81971   -62.74   0.12949   -13.89     0.519   136.65
      18000   0.82355    68.66   0.80686   -64.65    0.1332   -15.15   0.52266   133.61
      18200    0.8255    66.34   0.79437   -67.00    0.1367   -16.47   0.52988   129.96
      18400   0.82945    64.74   0.77306   -69.03   0.13972   -17.69   0.53317   127.02
      18600   0.82264    63.18   0.75114   -70.43    0.1422   -18.33   0.54021   123.70
      18800   0.82874    60.99     0.738   -72.12   0.14598   -19.65    0.5459   120.89
      19000   0.82726    59.65   0.72664   -73.36   0.15086   -20.28   0.55321   117.77
      19200   0.83245    57.73   0.71713   -75.09   0.15632   -21.91   0.55736   114.56
      19400   0.83436    56.28   0.70487   -76.39     0.161   -23.39   0.55956   112.16
      19600   0.83886    54.77   0.69461   -78.13   0.16449   -26.12   0.57189   109.75
      19800   0.85466    53.70   0.68958   -79.82   0.16505   -27.63   0.58148   106.35
      20000   0.86345    51.36   0.67661   -82.06   0.16659   -28.62    0.5882   103.79