! Filename:  P:\Prog\Test\Noise\ATS_data\Testdata_Net\BFU730\BFU730_2W_B1_2V1mA_D.s2p
! Date/Time: Fri 29/Apr/2011 14:13:47
! BFU730_2W_B1_2V1mA
! bias mode 1: Vout= 2.0002 V, Iout= 1.0050 mA, Vin= 0.7463 V, Iin= 0.0026 mA
! Date/time Thu Mar 17 09:51:21 2011
! Device data file deembeded for feedlines and parallel
! Original file: \BFU730\BFU730_2W_B1_2V1mA_R.s2p
! Feed-files: PR003V01_101208_Feed1.s2p, PR003V01_101208_Feed2.s2p
! Parallel-file: PR003V01_101208_Par.s2p
# MHz S MA R 50
!  Freq-MHz   S11-mag  S11-arg   S21-mag  S21-arg   S12-mag  S12-arg   S22-mag  S22-arg
         40   0.99116    -1.19    3.3556   179.40 0.0014321    87.50   0.99972    -0.53
         50   0.99173    -1.94    3.3665   178.77 0.0021102    97.84   0.99912    -0.66
         60    0.9873    -1.64    3.3277   178.39 0.0023307    87.87   0.99975    -0.74
         70   0.99117    -1.98    3.3356   178.51 0.0025304    89.19   0.99984    -0.89
         80    0.9909    -2.28    3.3647   178.24 0.0029202    89.17   0.99991    -1.01
         90   0.99107    -2.57    3.3676   177.82  0.003302    88.71   0.99971    -1.15
        100   0.99099    -2.80    3.3496   177.71 0.0036619    89.20   0.99953    -1.28
        120   0.99058    -3.46    3.3497   177.34 0.0044013    88.54   0.99972    -1.54
        140   0.99046    -4.01    3.3532   176.91 0.0051619    88.56   0.99967    -1.82
        160   0.99038    -4.58    3.3443   176.35 0.0058822    88.01   0.99955    -2.08
        180   0.99086    -5.17    3.3517   176.01 0.0066628    87.74   0.99955    -2.35
        200   0.99024    -5.78    3.3529   175.46 0.0074037    87.61    0.9993    -2.61
        220   0.99018    -6.36    3.3575   175.06 0.0081734    87.23   0.99926    -2.88
        240   0.98943    -6.94    3.3754   174.53 0.0089246    86.82   0.99921    -3.15
        260   0.98933    -7.53    3.3566   174.08 0.0096955    86.56   0.99893    -3.41
        280   0.98915    -8.11    3.3621   173.62  0.010437    86.35   0.99892    -3.68
        300   0.98961    -8.69    3.3576   173.16  0.011219    85.92   0.99892    -3.96
        320   0.98866    -9.25    3.3421   172.71   0.01198    85.47   0.99872    -4.22
        340   0.98855    -9.82      3.35   172.24  0.012732    85.19   0.99839    -4.49
        360   0.98844   -10.40    3.3392   171.84  0.013506    84.65     0.998    -4.76
        380   0.98798   -10.96    3.3425   171.38  0.014278    84.29   0.99773    -5.03
        400   0.98771   -11.56    3.3539   170.96  0.015033    83.92   0.99718    -5.29
        420   0.98738   -12.13    3.3675   170.46  0.015808    83.56    0.9974    -5.55
        440   0.98722   -12.71    3.3558   170.03   0.01657    83.08   0.99698    -5.83
        460   0.98694   -13.29    3.3625   169.57  0.017334    82.75   0.99656    -6.07
        480   0.98669   -13.88     3.356   169.14  0.018097    82.39   0.99682    -6.35
        500    0.9861   -14.46    3.3337   168.66  0.018821    81.96   0.99611    -6.62
        550   0.98509   -15.91    3.3459   167.58  0.020707    80.88   0.99499    -7.30
        600   0.98365   -17.36    3.3607   166.45  0.022645    79.85   0.99417    -7.94
        650   0.98291   -18.78    3.3379   165.29  0.024476    78.86   0.99299    -8.63
        700   0.98154   -20.17    3.3067   164.19  0.026364    77.82   0.99183    -9.31
        750   0.98079   -21.62    3.3161   163.10   0.02822    76.83   0.99043    -9.96
        800   0.97921   -23.09     3.342   162.05  0.030081    75.90   0.98953   -10.57
        850   0.97778   -24.53    3.3299   160.89  0.031949    74.89    0.9887   -11.22
        900   0.97667   -25.90    3.2953   159.77  0.033735    73.85   0.98666   -11.91
        950    0.9753   -27.35     3.296   158.73  0.035516    72.89   0.98492   -12.55
       1000   0.97379   -28.75    3.3115   157.63  0.037368    71.95   0.98365   -13.19
       1050   0.97205   -30.13    3.2987   156.55  0.039156    70.94   0.98193   -13.85
       1100   0.97059   -31.53    3.2772   155.49  0.040878    69.98   0.98005   -14.51
       1150    0.9687   -32.98    3.2834   154.39  0.042609    69.06   0.97816   -15.11
       1200   0.96672   -34.36      3.28   153.33  0.044356    68.12   0.97677   -15.73
       1250   0.96512   -35.75    3.2603   152.22  0.046128    67.14   0.97523   -16.40
       1300   0.96366   -37.13    3.2399   151.13  0.047778    66.13   0.97263   -17.05
       1350   0.96172   -38.58    3.2479   150.09  0.049404    65.26   0.97015   -17.68
       1400    0.9596   -39.98     3.248   149.04  0.051088    64.31   0.96835   -18.30
       1450   0.95758   -41.38    3.2337   147.98  0.052737    63.35   0.96635   -18.95
       1500   0.95583   -42.75    3.2207   146.96  0.054308    62.43   0.96407   -19.57
       1550   0.95395   -44.12    3.2199   145.87  0.055917    61.55   0.96232   -20.14
       1600   0.95192   -45.49    3.2161   144.85  0.057528    60.68   0.96058   -20.77
       1650   0.94969   -46.91    3.1958   143.79  0.059063    59.71   0.95778   -21.40
       1700   0.94786   -48.22    3.1826   142.75  0.060511    58.83   0.95477   -22.01
       1750    0.9457   -49.59    3.1793   141.72  0.062029    57.94   0.95224   -22.61
       1800   0.94314   -51.01    3.1659   140.66  0.063584    57.03   0.95044   -23.22
       1850   0.94103   -52.38    3.1528   139.59  0.065016    56.09   0.94767   -23.85
       1900   0.93892   -53.74    3.1498   138.58  0.066417    55.26   0.94518   -24.44
       1950   0.93625   -55.04    3.1289   137.59  0.067834    54.44   0.94318   -25.03
       2000   0.93395   -56.38    3.1125   136.55  0.069309    53.56   0.94077   -25.67
       2050   0.93113   -57.73    3.1041   135.54  0.070737    52.70   0.93801   -26.25
       2100   0.92915   -59.04    3.0979   134.51  0.072094    51.83    0.9352   -26.87
       2150    0.9271   -60.36    3.0892   133.59  0.073465    51.04   0.93177   -27.44
       2200   0.92443   -61.68    3.0754   132.60  0.074777    50.13   0.92912   -27.97
       2250   0.92094   -63.01    3.0673   131.58  0.076053    49.29   0.92673   -28.59
       2300   0.91877   -64.30    3.0522   130.59  0.077448    48.45   0.92422   -29.18
       2350   0.91606   -65.54    3.0243   129.67  0.078738    47.58   0.92058   -29.79
       2400   0.91409   -66.88    3.0164   128.70  0.079943    46.78   0.91671   -30.30
       2450    0.9109   -68.15    3.0124   127.73  0.081281    45.96   0.91413   -30.83
       2500   0.90806   -69.41    2.9963   126.74  0.082613    44.92   0.91145   -31.45
       2600    0.9036   -71.95    2.9672   124.89  0.084746    43.21   0.90565   -32.51
       2700   0.89801   -74.49     2.945   123.00  0.086935    41.49   0.90033   -33.55
       2800   0.89368   -76.95    2.9185   121.11  0.088817    39.82   0.89436   -34.59
       2900   0.88822   -79.49    2.8868   119.25  0.090663    38.17   0.88886   -35.67
       3000   0.88325   -81.89    2.8709   117.41  0.092376    36.66   0.88362   -36.74
       3100   0.87931   -84.30    2.8333   115.65  0.094021    35.12   0.87844   -37.75
       3200   0.87459   -86.63    2.8082   113.88  0.095678    33.66   0.87236   -38.77
       3300   0.86993   -89.09    2.7838   112.11  0.097316    32.09   0.86768   -39.93
       3400   0.86444   -91.42    2.7642   110.30  0.098834    30.70   0.86214   -40.98
       3500   0.86002   -93.71    2.7349   108.57   0.10024    29.27   0.85597   -41.99
       3600   0.85512   -96.14    2.7092   106.86   0.10156    27.86   0.84933   -42.91
       3700   0.85145   -98.27    2.6739   105.15   0.10286    26.44   0.84519   -43.86
       3800   0.84579  -100.68    2.6594   103.41   0.10412    25.06   0.83875   -44.88
       3900   0.84156  -102.84    2.6354   101.75   0.10522    23.80   0.83351   -45.82
       4000    0.8359  -105.14    2.6091   100.04   0.10639    22.34   0.82745   -46.88
       4100   0.83272  -107.26    2.5764    98.44   0.10718    21.01   0.82175   -47.74
       4200   0.82823  -109.44    2.5537    96.80   0.10829    19.67   0.81689   -48.69
       4300   0.82511  -111.57    2.5313    95.18   0.10912    18.38   0.81195   -49.68
       4400   0.82021  -113.82    2.5088    93.48   0.10997    17.04   0.80637   -50.67
       4500   0.81736  -115.84    2.4803    91.98   0.11057    15.83   0.80105   -51.53
       4600   0.81253  -117.99    2.4523    90.38   0.11115    14.56   0.79533   -52.41
       4700    0.8096  -120.03    2.4287    88.81   0.11171    13.29   0.79027   -53.39
       4800   0.80504  -122.22    2.4048    87.17   0.11234    12.00   0.78584   -54.39
       4900   0.80148  -124.23    2.3783    85.63   0.11281    10.78   0.78136   -55.21
       5000    0.7975  -126.23    2.3556    84.19   0.11321     9.62   0.77543   -56.05
       5200    0.7904  -130.21     2.311    81.04   0.11376     7.24   0.76669   -57.99
       5400   0.78371  -134.14    2.2624    78.17   0.11407     4.88   0.75681   -59.65
       5600   0.77648  -137.98    2.2155    75.15   0.11416     2.58   0.74778   -61.58
       5800    0.7703  -141.74     2.171    72.32   0.11392     0.31   0.73954   -63.21
       6000   0.76557  -145.37    2.1263    69.47   0.11352    -1.80   0.73127   -65.07
       6200   0.76062  -148.94    2.0844    66.75   0.11291    -3.77   0.72448   -66.72
       6400   0.75588  -152.54    2.0432    63.99   0.11213    -5.81   0.71612   -68.51
       6600   0.75109  -156.04    2.0053    61.23   0.11121    -7.75   0.70876   -70.28
       6800   0.74736  -159.44    1.9658    58.71   0.11008    -9.47   0.70044   -71.96
       7000   0.74369  -162.65     1.927    55.97   0.10869   -11.29   0.69369   -73.83
       7200   0.74224  -165.82    1.8966    53.59   0.10746   -12.63   0.68728   -75.45
       7400    0.7391  -169.13     1.862    50.77   0.10606   -14.48    0.6797   -77.56
       7600   0.73783  -172.15    1.8332    48.37   0.10496   -15.53   0.67549   -79.11
       7800   0.73212  -175.61    1.7941    45.66   0.10368   -17.62   0.66502   -81.31
       8000   0.72934  -178.25    1.7612    43.56  0.099808   -18.57   0.65826   -82.67
       8200   0.72957   178.36    1.7343    40.82  0.099833   -19.66   0.65205   -84.89
       8400   0.72858   175.57    1.7031    38.49  0.097277   -20.77   0.64588   -86.60
       8600   0.72421   172.49    1.6689    35.99  0.096096   -22.81   0.63686   -88.62
       8800   0.72197   169.74    1.6407    33.61  0.093404   -23.47   0.63054   -90.40
       9000    0.7225   167.31    1.6144    31.54   0.09064   -23.85   0.62807   -92.18
       9200   0.72191   164.42    1.5883    29.27  0.088873   -24.80   0.61905   -94.06
       9400   0.72144   161.72    1.5627    26.76  0.086523   -25.71   0.61694   -96.24
       9600   0.72221   159.01    1.5376    24.65  0.084192   -25.79   0.60847   -98.17
       9800   0.72317   156.34    1.5165    22.34  0.081558   -25.99   0.60582  -100.10
      10000   0.72471   153.91    1.4944    20.13  0.080777   -25.24   0.60338  -102.24
      10200   0.72498   151.02    1.4704    17.65  0.079268   -26.09   0.59436  -104.78
      10400   0.72553   148.71     1.443    15.44   0.07733   -26.44   0.59182  -106.90
      10600   0.72367   146.13    1.4209    13.28  0.075289   -26.51   0.58206  -109.17
      10800   0.72456   144.09    1.4006    11.11  0.072976   -26.14    0.5817  -111.38
      11000   0.72456   141.46     1.385     9.10   0.07142   -25.34    0.5758  -113.38
      11200    0.7286   139.17    1.3672     6.69  0.069609   -23.99   0.57558  -116.23
      11400   0.72946   136.77    1.3439     4.51  0.068665   -23.82   0.56873  -118.60
      11600   0.73166   134.34    1.3212     2.31   0.06636   -22.89   0.56165  -121.23
      11800    0.7359   132.12    1.2999     0.23  0.065688   -21.09   0.55802  -123.31
      12000   0.73481   129.97    1.2871    -1.57  0.063798   -19.41   0.55078  -125.68
      12200   0.73902   127.44    1.2706    -3.93  0.064512   -17.22   0.55103  -128.15
      12400   0.73629   125.05    1.2541    -6.20  0.064634   -16.56   0.54504  -130.89
      12600   0.73546   122.75    1.2257    -8.16  0.062326   -14.28   0.53822  -133.39
      12800   0.74392   121.04     1.218    -9.98  0.064328   -10.89   0.53503  -135.57
      13000   0.74123   118.48    1.1974   -12.16   0.06405    -9.95   0.52924  -138.21
      13200   0.74557   116.80    1.1756   -14.23  0.064588    -8.58   0.52544  -141.12
      13400   0.74686   114.62    1.1675   -16.25  0.067896    -6.60   0.52511  -143.92
      13600   0.75125   112.35    1.1548   -18.55   0.06898    -5.08   0.52193  -146.97
      13800   0.74943   110.51    1.1373   -20.56  0.070886    -4.13   0.51827  -150.08
      14000   0.75376   108.17     1.125   -22.61  0.072439    -2.91   0.51515  -153.18
      14200   0.75868   106.59    1.1081   -24.67  0.074706    -1.64   0.51142  -156.13
      14400   0.75836   103.97    1.0935   -26.97  0.076578    -1.16   0.50977  -160.10
      14600   0.76233   102.21    1.0748   -28.90   0.07962     0.22   0.50297  -162.69
      14800   0.76416    99.93    1.0588   -30.83  0.082738     0.99   0.50153  -166.28
      15000   0.77062    98.10    1.0425   -32.82  0.085786     1.19   0.49728  -169.02
      15200   0.77352    96.28    1.0319   -34.54   0.08967     1.39   0.49831  -172.14
      15400   0.78179    94.21    1.0219   -36.66  0.092883     1.09   0.49726  -175.14
      15600    0.7841    92.81    1.0066   -38.58  0.096464     1.12   0.50082  -178.43
      15800   0.78899    90.33    0.9978   -40.61   0.10011     0.53    0.5009   178.47
      16000   0.79679    88.72   0.98794   -42.83   0.10382    -0.20   0.50519   175.14
      16200   0.80087    86.65   0.97709   -45.27   0.10701    -0.75   0.50872   171.66
      16400   0.80736    84.83   0.95607   -47.43   0.11017    -1.20   0.50582   168.27
      16600   0.80601    83.06   0.94243   -49.28   0.11465    -2.05   0.51234   165.01
      16800   0.80813    81.05   0.92483   -51.09   0.11786    -2.60   0.50667   161.71
      17000   0.80768    79.20   0.91763   -53.02   0.12221    -3.72   0.51795   158.26
      17200   0.80886    77.15   0.90439   -55.03   0.12572    -4.62   0.51423   154.78
      17400   0.81243    74.79   0.89131   -57.59   0.12874    -5.96   0.52576   151.10
      17600   0.81223    73.13   0.87255   -59.13   0.13284    -6.05   0.51935   147.51
      17800   0.81306    71.09   0.86224   -61.17   0.13841    -7.72   0.52551   144.05
      18000   0.82186    69.58   0.84756   -63.09   0.14217    -9.17   0.52844   141.15
      18200   0.82507    67.23   0.83633   -65.48   0.14613   -10.75   0.53519   137.30
      18400   0.83034    65.70   0.81393   -67.59   0.14898   -12.23   0.53813   134.13
      18600   0.82293    64.15   0.79143   -69.09    0.1518   -13.08   0.54248   130.68
      18800   0.82854    61.93   0.77655   -70.80   0.15536   -14.61   0.54863   127.71
      19000   0.82566    60.59    0.7666   -72.04   0.16066   -15.46   0.55405   124.52
      19200   0.83051    58.51   0.75478   -73.80   0.16602   -17.17    0.5579   121.32
      19400    0.8336    57.12   0.74249   -75.17   0.17078   -18.76   0.56045   118.65
      19600   0.83919    55.51    0.7312   -76.98   0.17407   -21.50   0.57113   116.19
      19800   0.85523    54.62   0.72681   -78.57   0.17521   -23.06   0.58007   112.53
      20000   0.86248    52.24   0.71477   -80.94    0.1773   -24.29   0.58588   110.20

!  
! Device Noise Parameters
!  Freq-MHz   Fmin-dB  Gopt-mag  Gopt-arg   rn_normalized
	400	0.3832	0.83441	7.56	0.4076
	420	0.3857	0.83088	8.03	0.4076
	440	0.3883	0.82740	8.51	0.4076
	460	0.3908	0.82397	8.98	0.4075
	480	0.3934	0.82058	9.45	0.4075
	500	0.3960	0.81725	9.92	0.4075
	550	0.4024	0.80911	11.11	0.4073
	600	0.4088	0.80127	12.30	0.4070
	650	0.4153	0.79372	13.49	0.4067
	700	0.4218	0.78644	14.69	0.4063
	750	0.4283	0.77944	15.88	0.4059
	800	0.4348	0.77270	17.08	0.4054
	850	0.4414	0.76622	18.28	0.4048
	900	0.4479	0.75999	19.48	0.4041
	950	0.4545	0.75401	20.68	0.4034
	1000	0.4611	0.74826	21.88	0.4026
	1050	0.4678	0.74274	23.07	0.4017
	1100	0.4744	0.73745	24.27	0.4008
	1150	0.4811	0.73237	25.46	0.3998
	1200	0.4878	0.72750	26.65	0.3988
	1250	0.4945	0.72282	27.83	0.3976
	1300	0.5012	0.71834	29.01	0.3965
	1350	0.5079	0.71405	30.19	0.3952
	1400	0.5147	0.70993	31.36	0.3940
	1450	0.5215	0.70598	32.53	0.3926
	1500	0.5283	0.70220	33.69	0.3912
	1550	0.5351	0.69857	34.85	0.3898
	1600	0.5419	0.69509	36.00	0.3882
	1650	0.5488	0.69175	37.14	0.3867
	1700	0.5557	0.68855	38.28	0.3851
	1750	0.5626	0.68548	39.41	0.3834
	1800	0.5695	0.68252	40.54	0.3817
	1850	0.5764	0.67968	41.66	0.3799
	1900	0.5834	0.67695	42.77	0.3781
	1950	0.5903	0.67432	43.87	0.3762
	2000	0.5973	0.67179	44.97	0.3743
	2050	0.6044	0.66934	46.06	0.3723
	2100	0.6114	0.66698	47.14	0.3703
	2150	0.6184	0.66470	48.21	0.3683
	2200	0.6255	0.66249	49.28	0.3662
	2250	0.6326	0.66034	50.34	0.3640
	2300	0.6397	0.65826	51.39	0.3619
	2350	0.6469	0.65624	52.44	0.3597
	2400	0.6540	0.65427	53.48	0.3574
	2450	0.6612	0.65234	54.51	0.3551
	2500	0.6684	0.65046	55.53	0.3528
	2600	0.6828	0.64681	57.56	0.3480
	2700	0.6973	0.64329	59.56	0.3430
	2800	0.7119	0.63986	61.54	0.3380
	2900	0.7266	0.63651	63.49	0.3328
	3000	0.7413	0.63320	65.42	0.3275
	3100	0.7562	0.62991	67.33	0.3221
	3200	0.7711	0.62664	69.22	0.3166
	3300	0.7861	0.62336	71.09	0.3110
	3400	0.8011	0.62006	72.95	0.3053
	3500	0.8163	0.61672	74.79	0.2995
	3600	0.8315	0.61335	76.62	0.2936
	3800	0.8621	0.60648	80.26	0.2817
	3900	0.8776	0.60296	82.07	0.2756
	4000	0.8931	0.59939	83.88	0.2696
	4100	0.9087	0.59577	85.68	0.2634
	4200	0.9244	0.59211	87.49	0.2573
	4300	0.9402	0.58840	89.29	0.2511
	4400	0.9560	0.58465	91.10	0.2449
	4500	0.9719	0.58087	92.92	0.2387
	4600	0.9879	0.57706	94.74	0.2325
	4700	1.0040	0.57325	96.57	0.2263
	4800	1.0202	0.56943	98.41	0.2201
	4900	1.0364	0.56562	100.26	0.2140
	5000	1.0527	0.56183	102.12	0.2078
	5400	1.1187	0.54716	109.73	0.1837
	5600	1.1522	0.54034	113.63	0.1720
	5800	1.1860	0.53402	117.60	0.1607
	6200	1.2545	0.52344	125.75	0.1391
	6400	1.2892	0.51941	129.92	0.1291
	7000	1.3952	0.51367	142.66	0.1025
	7200	1.4312	0.51410	146.94	0.0950
	7400	1.4675	0.51575	151.19	0.0883
	7600	1.5041	0.51863	155.41	0.0825
	7800	1.5410	0.52269	159.57	0.0776
	8000	1.5782	0.52787	163.66	0.0736
	8200	1.6157	0.53409	167.65	0.0707
	8400	1.6536	0.54124	171.55	0.0688
	8600	1.6917	0.54920	175.33	0.0681
	8800	1.7302	0.55782	179.00	0.0686
	9000	1.7689	0.56695	182.54	0.0704
	9200	1.8080	0.57643	185.97	0.0735
	9600	1.8871	0.59583	192.47	0.0839
	9800	1.9271	0.60541	195.56	0.0913
	10000	1.9675	0.61470	198.55	0.1003
	10200	2.0081	0.62355	201.45	0.1109
	10400	2.0491	0.63179	204.26	0.1231
	10800	2.1319	0.64594	209.70	0.1529
	11000	2.1738	0.65157	212.34	0.1706
	11200	2.2160	0.65607	214.95	0.1901
	11400	2.2585	0.65934	217.54	0.2116
	11800	2.3445	0.66181	222.72	0.2608
	12000	2.3879	0.66085	225.35	0.2886
	12200	2.4317	0.65835	228.03	0.3186
	12400	2.4758	0.65428	230.77	0.3509
	12800	2.5648	0.64145	236.58	0.4225
	13000	2.6098	0.63278	239.69	0.4619
	13200	2.6552	0.62275	242.99	0.5038
	13600	2.7467	0.59934	250.32	0.5954
	13800	2.7930	0.58656	254.44	0.6451
	14000	2.8395	0.57363	258.94	0.6976