! Filename:  P:\Prog\Test\Noise\ATS_data\Testdata_Net\Split files Spar\BFU730_2W_B1_Bias5_1.5V_1mA_30mA_D.s2p
! Date/Time: Fri 29/Apr/2011 14:16:49
! BFU730_2W_B1_Bias5_1.5V_1mA_30mA_R.s2p
! MDIF S-parameter v. bias file
! BFU730_2W_B1_1.5V_1mA_30mA
! Date/time Thu Mar 17 13:45:32 2011
! VAR V_out= 1.5003
! VAR I_out= 7.5950
! VAR V_in= 0.7992
! VAR I_in= 0.0228
! Device data file deembeded for feedlines and parallel
! Original file: \Split files Spar\BFU730_2W_B1_Bias5_1.5V_1mA_30mA_R.s2p
! Feed-files: PR003V01_101208_Feed1.s2p, PR003V01_101208_Feed2.s2p
! Parallel-file: PR003V01_101208_Par.s2p
# MHz S MA R 50
!  Freq-MHz   S11-mag  S11-arg   S21-mag  S21-arg   S12-mag  S12-arg   S22-mag  S22-arg
         40   0.92697    -2.52    22.173   178.18 0.0014828    87.62   0.99707    -1.19
         50   0.92705    -3.63    22.225   177.27 0.0017309    73.23   0.99704    -1.66
         60   0.92348    -3.63    21.966   176.96 0.0020026    89.82   0.99785    -1.94
         70   0.92693    -4.30    22.023   176.81 0.0025622    88.42   0.99788    -2.33
         80   0.92622    -4.97    22.168   176.27 0.0029316    87.56   0.99781    -2.70
         90   0.92609    -5.61    22.165   175.63  0.003313    87.16   0.99745    -3.08
        100   0.92588    -6.16    22.058   175.26  0.003664    86.31   0.99712    -3.44
        120   0.92539    -7.49    22.083   174.33  0.004423    86.62    0.9967    -4.20
        140   0.92459    -8.73    22.068   173.40  0.005204    86.28   0.99617    -4.94
        160   0.92374    -9.96    21.954   172.38 0.0059456    85.33   0.99499    -5.67
        180   0.92355   -11.24    21.971   171.54 0.0066971    84.87   0.99375    -6.39
        200   0.92191   -12.51    21.933   170.52 0.0074295    84.09   0.99242    -7.13
        220    0.9207   -13.76    21.943   169.61 0.0081897    83.57   0.99082    -7.87
        240   0.91848   -15.05    21.984   168.58 0.0089322    82.65   0.98935    -8.60
        260   0.91785   -16.24    21.833   167.66 0.0096654    82.23   0.98751    -9.32
        280     0.916   -17.54    21.814   166.72  0.010409    81.52   0.98581   -10.04
        300   0.91478   -18.78    21.719   165.80  0.011163    80.87   0.98401   -10.78
        320   0.91257   -19.94     21.61   164.91  0.011876    79.93   0.98141   -11.49
        340   0.91038   -21.20    21.588   163.92  0.012592    79.43   0.97854   -12.21
        360   0.90919   -22.41    21.472   163.14  0.013329    78.71   0.97556   -12.92
        380    0.9069   -23.68    21.447   162.24  0.014044    77.97   0.97268   -13.62
        400   0.90378   -24.94     21.46   161.32  0.014783    77.28   0.96939   -14.28
        420   0.90111   -26.19    21.447   160.38  0.015463    76.59   0.96706   -14.94
        440   0.89932   -27.34    21.284   159.52   0.01618    75.86     0.964   -15.66
        460   0.89642   -28.63    21.271   158.64   0.01684    75.21   0.96072   -16.33
        480   0.89391   -29.78    21.126   157.77  0.017568    74.48   0.95831   -17.07
        500   0.89111   -30.94    21.002   156.88  0.018189    73.70   0.95349   -17.79
        550   0.88401   -33.94    20.865   154.69  0.019819    72.06   0.94227   -19.38
        600   0.87583   -37.01    20.719   152.58  0.021462    70.44   0.93296   -20.97
        650   0.86794   -39.76    20.379   150.51  0.022981    68.87   0.92259   -22.59
        700    0.8604   -42.49    20.033   148.59  0.024457    67.23    0.9107   -24.20
        750   0.85222   -45.42    19.865   146.62  0.025882    65.79   0.89864   -25.64
        800    0.8432   -48.34    19.691   144.66  0.027329    64.35   0.88877   -26.99
        850   0.83456   -50.97    19.343   142.77  0.028682    62.87   0.87779   -28.47
        900   0.82571   -53.53    19.019   140.93  0.029892    61.49   0.86342   -29.88
        950   0.81757   -56.26    18.798   139.20  0.031089    60.27   0.85069   -31.11
       1000   0.80796   -58.83    18.539   137.40  0.032341    58.96   0.83967   -32.40
       1050   0.79857   -61.37     18.26   135.66  0.033427    57.68   0.82723   -33.67
       1100   0.79061   -63.79    17.961   134.05  0.034467    56.50   0.81412   -34.87
       1150   0.78081   -66.39    17.736   132.31   0.03548    55.46   0.80172   -35.95
       1200   0.77168   -68.80    17.472   130.73  0.036509    54.32   0.79052   -37.07
       1250   0.76346   -71.07     17.14   129.16  0.037429    53.15   0.77861   -38.28
       1300   0.75512   -73.39    16.873   127.63  0.038289    52.14   0.76564   -39.30
       1350   0.74655   -75.75    16.639   126.10  0.039131    51.21   0.75393   -40.27
       1400   0.73774   -78.06    16.383   124.61  0.039981    50.24   0.74255   -41.27
       1450   0.72973   -80.27    16.121   123.16  0.040734    49.31   0.73076   -42.24
       1500   0.72174   -82.36    15.859   121.78  0.041444    48.42   0.71967   -43.12
       1550   0.71466   -84.41    15.594   120.42  0.042183    47.60   0.70916   -43.96
       1600   0.70714   -86.43    15.333   119.09  0.042903    46.79   0.69889   -44.82
       1650   0.69937   -88.46    15.063   117.79  0.043527    45.95   0.68797   -45.68
       1700   0.69232   -90.43    14.834   116.49  0.044119    45.24   0.67729   -46.46
       1750   0.68529   -92.36    14.599   115.22  0.044734    44.52   0.66738   -47.26
       1800   0.67878   -94.31    14.352   113.99  0.045293    43.78   0.65772   -48.06
       1850   0.67191   -96.29    14.126   112.76  0.045829    43.06   0.64751   -48.79
       1900   0.66512   -98.11    13.908   111.53  0.046363    42.41   0.63861   -49.50
       1950   0.65901   -99.86     13.67   110.39   0.04684    41.80   0.62984   -50.22
       2000   0.65278  -101.60    13.432   109.25  0.047315    41.18   0.62015   -51.01
       2050   0.64691  -103.30    13.207   108.19  0.047759    40.63   0.61011   -51.65
       2100   0.64196  -104.95    12.994   107.14  0.048258    40.10   0.60181   -52.24
       2150   0.63701  -106.62    12.792   106.12  0.048693    39.62   0.59287   -52.90
       2200   0.63151  -108.26    12.595   105.11  0.049159    39.09   0.58449   -53.37
       2250   0.62551  -109.88    12.396   104.06  0.049587    38.51   0.57766   -54.02
       2300    0.6208  -111.45    12.192   103.07  0.049978    38.00   0.56974   -54.72
       2350   0.61693  -113.00    11.993   102.16  0.050309    37.53   0.56055   -55.37
       2400   0.61264  -114.60    11.816   101.23  0.050679    37.17    0.5517   -55.82
       2450   0.60719  -116.12    11.633   100.35  0.051075    36.78   0.54372   -56.29
       2500   0.60211  -117.67    11.462    99.47  0.051526    36.25   0.53641   -56.77
       2600   0.59413  -120.38    11.133    97.76   0.05217    35.40   0.52249   -57.63
       2700    0.5863  -123.19    10.816    96.03  0.052789    34.57   0.50916   -58.45
       2800   0.57983  -125.82    10.519    94.37   0.05333    33.86   0.49711   -59.19
       2900   0.57306  -128.41    10.221    92.83   0.05382    33.23   0.48558   -59.82
       3000    0.5669  -130.84    9.9641    91.31  0.054399    32.67   0.47553   -60.56
       3100   0.56246  -133.24    9.7153    89.75  0.054904    32.10   0.46642   -61.31
       3200   0.55725  -135.56    9.4661    88.27  0.055412    31.58   0.45634   -62.07
       3300   0.55352  -137.95    9.2397    86.83  0.055892    31.02   0.44754   -62.96
       3400   0.54818  -140.19     9.021    85.36  0.056425    30.60   0.43889   -63.72
       3500   0.54469  -142.38    8.8095    83.94  0.056889    30.17      0.43   -64.44
       3600   0.54089  -144.64    8.6012    82.55  0.057357    29.78   0.42106   -65.06
       3700   0.53739  -146.62    8.4047    81.17  0.057809    29.39   0.41313   -65.65
       3800   0.53382  -148.83    8.2207    79.80  0.058297    29.01   0.40486   -66.39
       3900   0.53062  -150.64    8.0375    78.52  0.058799    28.77    0.3982   -66.98
       4000    0.5276  -152.79    7.8592    77.20  0.059296    28.36    0.3905   -67.70
       4100   0.52492  -154.59    7.6895    75.96   0.05967    28.11   0.38298   -68.20
       4200   0.52261  -156.56    7.5314    74.69  0.060198    27.78   0.37649   -68.82
       4300   0.52009  -158.27    7.3795    73.47  0.060682    27.48   0.37095   -69.51
       4400   0.51785  -160.20    7.2278    72.22  0.061181    27.17   0.36495   -70.09
       4500   0.51609  -161.82    7.0843    71.05  0.061663    26.92   0.35929   -70.65
       4600   0.51434  -163.62    6.9444    69.89  0.062099    26.63     0.353   -71.27
       4700   0.51315  -165.30    6.8157    68.70  0.062545    26.39   0.34713   -71.95
       4800   0.51117  -167.12    6.6813    67.52  0.063015    26.09   0.34239   -72.67
       4900   0.50967  -168.80    6.5607    66.35  0.063444    25.85   0.33699   -73.21
       5000   0.50798  -170.38    6.4393    65.25  0.063957    25.67   0.33145   -73.67
       5200   0.50516  -173.52    6.2057    62.99  0.064845    25.20   0.32165   -74.97
       5400   0.50309  -176.55    5.9967    60.88  0.065768    24.78   0.31294   -75.97
       5600   0.50101  -179.55    5.7923    58.69  0.066648    24.36   0.30372   -77.30
       5800   0.49925   177.62    5.6036    56.64  0.067547    24.00   0.29563   -78.29
       6000    0.4987   174.92    5.4308    54.55  0.068472    23.66   0.28782   -79.61
       6200   0.49837   172.37    5.2672    52.57  0.069439    23.34   0.28072   -80.69
       6400   0.49812   169.72    5.1121    50.56  0.070419    23.05   0.27325   -82.00
       6600   0.49834   167.04    4.9672    48.57  0.071488    22.74   0.26672   -83.08
       6800    0.4986   164.62    4.8356    46.65  0.072629    22.37   0.26055   -84.63
       7000   0.49843   162.25    4.7011    44.73  0.073609    22.23   0.25368   -85.73
       7200   0.50006   160.09    4.5889    42.86  0.075052    21.96   0.24905   -87.14
       7400   0.50127   157.63    4.4754    40.78  0.076206    21.39   0.24272   -88.96
       7600   0.50365   155.57     4.375    38.90  0.077638    21.21   0.23852   -90.25
       7800   0.50341   152.74    4.2513    36.78  0.078547    20.40   0.22855   -92.66
       8000   0.50181   151.12    4.1566    35.42   0.07967    20.79   0.22562   -92.44
       8200   0.50715   148.59    4.0671    33.11  0.081524    19.95   0.21916   -95.51
       8400    0.5078   146.47    3.9747    31.40  0.082834    19.84   0.21625   -96.55
       8600   0.50753   144.16    3.8676    29.47  0.083756    18.76   0.20542   -99.18
       8800   0.50751   142.28    3.7851    27.67  0.085226    18.68   0.20081  -100.44
       9000   0.51072   140.97    3.7165    26.14  0.086682    18.58   0.19816  -102.07
       9200    0.5119   138.88    3.6378    24.30   0.08807    17.92   0.19129  -104.35
       9400   0.51547   136.93    3.5657    22.42   0.08935    17.40   0.18737  -106.35
       9600   0.52034   135.11    3.4982    20.75  0.090986    17.13   0.17971  -108.53
       9800    0.5234   133.13    3.4441    18.98  0.092442    16.86   0.17619  -109.83
      10000   0.52861   131.32    3.3838    17.11  0.095199    16.31   0.17587  -112.30
      10200   0.53198   129.11    3.3181    15.17  0.096732    15.31   0.16781  -116.06
      10400   0.53361   127.28    3.2496    13.37  0.098219    14.57   0.16522  -118.64
      10600   0.53472   125.38    3.1875    11.65  0.099721    13.89   0.15725  -121.66
      10800   0.53665   123.83    3.1391     9.98   0.10131    13.38   0.15488  -123.76
      11000   0.54178   121.86    3.0826     8.26   0.10325    12.79    0.1503  -126.42
      11200   0.54684   120.20    3.0539     6.48   0.10511    12.19   0.14992  -129.99
      11400   0.55004   118.28    2.9907     4.55   0.10698    11.17   0.14433  -133.67
      11600   0.55304   116.39    2.9381     2.93   0.10821    10.47   0.14025  -137.96
      11800   0.55885   114.81    2.8955     1.13   0.11038     9.74   0.13639  -140.50
      12000   0.55997   113.32    2.8591    -0.31   0.11145     9.07   0.13193  -144.60
      12200   0.56787   111.24    2.8259    -2.42   0.11411     8.43   0.13087  -147.34
      12400   0.56796   109.22    2.7753    -4.37   0.11619     7.36    0.1277  -152.88
      12600   0.56835   107.58    2.7203    -5.80   0.11693     6.71   0.12115  -156.35
      12800   0.57774   106.37    2.7005    -7.41   0.12009     6.23   0.11987  -158.31
      13000   0.57573   104.31    2.6591    -9.25   0.12102     4.96   0.11872  -163.68
      13200   0.58149   103.04    2.6066   -11.08     0.123     4.08   0.11703  -168.05
      13400   0.58587   101.60     2.584   -12.87   0.12574     3.06   0.12223  -173.24
      13600   0.59265    99.81    2.5558   -14.79   0.12714     2.21   0.12377  -178.23
      13800   0.59373    98.16    2.5096   -16.54   0.12946     1.23   0.12505   175.69
      14000   0.60076    96.44    2.4851   -17.97   0.13069     0.23   0.12731   169.39
      14200   0.60716    95.08    2.4538   -19.88   0.13263    -0.47   0.12717   164.63
      14400   0.60964    92.74    2.4185   -21.71    0.1344    -1.55   0.13456   157.37
      14600    0.6151    91.26    2.3931   -23.42   0.13684    -2.15   0.13117   153.73
      14800   0.61728    89.45    2.3624   -25.12   0.13907    -3.22   0.13752   148.24
      15000   0.62428    88.05    2.3318   -26.91   0.14124    -4.27   0.13846   144.31
      15200   0.62792    86.62    2.3099   -28.58   0.14354    -5.46   0.14457   141.72
      15400   0.64012    85.05    2.2881   -30.39   0.14518    -6.45   0.15013   136.87
      15600   0.64393    83.94    2.2616   -32.28   0.14768    -7.58   0.15585   134.19
      15800    0.6514    82.12    2.2423   -33.96   0.14899    -8.83   0.16213   130.16
      16000   0.66349    80.71    2.2224   -36.20   0.15123    -9.78   0.17062   126.85
      16200   0.67029    78.78    2.2005   -38.27   0.15324   -10.80   0.17442   123.48
      16400   0.67807    77.05    2.1585   -40.38   0.15514   -11.63   0.17949   120.34
      16600   0.67911    75.42    2.1263   -41.98   0.15822   -12.92   0.18903   118.67
      16800   0.68395    73.70    2.0971   -43.50   0.15955   -13.89   0.19344   114.46
      17000   0.68579    71.97    2.0848   -45.25   0.16234   -15.17   0.20757   112.61
      17200   0.68848    70.16    2.0659   -47.22   0.16443   -16.21   0.21217   108.46
      17400   0.69437    67.96    2.0497   -49.54   0.16601   -17.44    0.2247   106.25
      17600   0.69335    66.44    2.0103   -51.29   0.16912   -18.18   0.22946   101.87
      17800   0.69463    64.89    1.9948   -53.27   0.17226   -19.75   0.23584    99.96
      18000   0.70554    63.77    1.9578   -55.29   0.17438   -21.19    0.2422    98.50
      18200   0.71177    61.57    1.9417   -57.58   0.17646   -22.49   0.25333    96.01
      18400   0.71794    60.06    1.8976   -59.83   0.17858   -23.78   0.25806    94.64
      18600   0.71121    58.76    1.8447   -61.25   0.17953   -24.89   0.27392    92.76
      18800   0.71971    56.64    1.8189   -62.92    0.1823   -26.12   0.28275    90.51
      19000   0.71659    55.51    1.7936   -64.28   0.18585   -27.23   0.29239    88.28
      19200   0.72215    53.94    1.7713   -66.08   0.18897   -28.92   0.29875    86.02
      19400   0.72724    52.90    1.7465   -67.30   0.19125   -30.29   0.30245    84.82
      19600   0.73284    51.70    1.7213   -68.97   0.19263   -32.68   0.31877    84.97
      19800   0.75777    50.88    1.7231   -70.30   0.19186   -33.37   0.33498    81.59
      20000   0.77045    48.22    1.7135   -72.58   0.19366   -34.12   0.34172    79.89