! Filename:  P:\Prog\Test\Noise\ATS_data\Testdata_Net\Split files Spar\BFU730_2W_B1_Bias2_1.5V_1mA_30mA_D.s2p
! Date/Time: Fri 29/Apr/2011 14:16:38
! BFU730_2W_B1_Bias2_1.5V_1mA_30mA_R.s2p
! MDIF S-parameter v. bias file
! BFU730_2W_B1_1.5V_1mA_30mA
! Date/time Thu Mar 17 13:45:32 2011
! VAR V_out= 1.5000
! VAR I_out= 2.0250
! VAR V_in= 0.7656
! VAR I_in= 0.0055
! Device data file deembeded for feedlines and parallel
! Original file: \Split files Spar\BFU730_2W_B1_Bias2_1.5V_1mA_30mA_R.s2p
! Feed-files: PR003V01_101208_Feed1.s2p, PR003V01_101208_Feed2.s2p
! Parallel-file: PR003V01_101208_Par.s2p
# MHz S MA R 50
!  Freq-MHz   S11-mag  S11-arg   S21-mag  S21-arg   S12-mag  S12-arg   S22-mag  S22-arg
         40     0.981    -1.43    6.6226   179.22 0.0014715    88.93   0.99927    -0.69
         50   0.98379    -1.90     6.643   178.45 0.0019717    75.37   0.99923    -0.90
         60   0.97957    -2.14    6.5681   178.15 0.0020809    87.92   0.99942    -1.00
         70   0.98102    -2.41    6.5827   178.23 0.0026407    89.02   0.99951    -1.19
         80    0.9807    -2.78    6.6335   177.91 0.0030304    88.73   0.99958    -1.36
         90   0.98039    -3.13    6.6382   177.46 0.0034121    88.40   0.99937    -1.54
        100   0.98018    -3.46    6.6043   177.31 0.0038124    88.02   0.99919    -1.71
        120   0.98027    -4.21    6.6139   176.77 0.0045716    88.17   0.99936    -2.06
        140   0.98018    -4.90    6.6177   176.26 0.0053823    88.07   0.99927    -2.43
        160    0.9801    -5.59    6.5897   175.68 0.0061528    87.60   0.99896    -2.77
        180   0.98044    -6.32    6.6051   175.23 0.0069537    87.23   0.99887    -3.12
        200    0.9799    -7.02    6.6072   174.60 0.0077148    86.79   0.99848    -3.48
        220    0.9793    -7.74    6.6176   174.08 0.0085247    86.50   0.99829    -3.84
        240   0.97881    -8.46    6.6487   173.46 0.0093061    86.01   0.99821    -4.21
        260   0.97899    -9.16    6.6149   172.89  0.010097    85.59   0.99771    -4.55
        280   0.97795    -9.86    6.6228   172.34   0.01088    85.23   0.99756    -4.92
        300   0.97803   -10.58    6.6078   171.81  0.011682    84.86   0.99735    -5.28
        320   0.97752   -11.25    6.5774   171.28  0.012473    84.39   0.99689    -5.62
        340   0.97679   -11.97    6.5904   170.71  0.013246    83.83   0.99636    -5.98
        360   0.97657   -12.65    6.5663   170.24  0.014051    83.56   0.99557    -6.34
        380   0.97633   -13.36    6.5709   169.70  0.014854    83.03     0.995    -6.71
        400   0.97541   -14.07    6.5958   169.16   0.01563    82.62   0.99416    -7.03
        420   0.97472   -14.80    6.6183   168.59  0.016426    82.03     0.994    -7.36
        440   0.97441   -15.47      6.59   168.06  0.017229    81.62   0.99328    -7.73
        460   0.97354   -16.20    6.6026   167.52  0.017994    81.18   0.99256    -8.07
        480   0.97326   -16.91    6.5829   166.99  0.018779    80.67   0.99257    -8.45
        500    0.9724   -17.57     6.542   166.45  0.019564    80.18   0.99138    -8.83
        550   0.97072   -19.34    6.5636   165.07  0.021464    78.97   0.98884    -9.69
        600   0.96809   -21.15     6.584   163.75  0.023397    77.86    0.9869   -10.55
        650   0.96632   -22.83    6.5282   162.36  0.025303    76.65   0.98463   -11.43
        700   0.96423   -24.50    6.4589   161.10  0.027207    75.49   0.98202   -12.33
        750   0.96219   -26.27    6.4684   159.81   0.02904    74.37   0.97883   -13.20
        800   0.95966   -28.06    6.5035   158.56  0.030948    73.33   0.97677   -13.98
        850   0.95687   -29.77    6.4616   157.21  0.032814    72.12   0.97447   -14.83
        900   0.95475   -31.40    6.3877   155.92  0.034567    70.95   0.97053   -15.71
        950   0.95202   -33.13    6.3787   154.75  0.036347    69.88   0.96683   -16.52
       1000    0.9491   -34.83    6.3882   153.44  0.038139    68.82   0.96394   -17.34
       1050   0.94569   -36.49    6.3528   152.21  0.039875    67.69   0.96041   -18.17
       1100   0.94332   -38.12    6.3019   151.01  0.041547    66.61   0.95636   -19.01
       1150    0.9398   -39.86    6.3018   149.72  0.043197    65.60   0.95228   -19.78
       1200   0.93641   -41.53    6.2806   148.52  0.044884    64.56   0.94915   -20.55
       1250   0.93321   -43.14    6.2249   147.26  0.046585    63.45   0.94582   -21.41
       1300    0.9301   -44.75    6.1787   146.06  0.048133    62.36   0.94097   -22.21
       1350   0.92677   -46.45    6.1811   144.84  0.049649    61.38   0.93634   -22.97
       1400   0.92303   -48.13    6.1635   143.64   0.05122    60.35   0.93235   -23.75
       1450   0.91983   -49.76     6.127   142.45  0.052716    59.31   0.92805   -24.53
       1500   0.91658   -51.35    6.0903   141.33  0.054173    58.33   0.92369   -25.28
       1550   0.91263   -52.95    6.0645   140.08  0.055638    57.38   0.91955   -25.99
       1600     0.909   -54.55    6.0404   138.93  0.057103    56.41   0.91559   -26.73
       1650   0.90523   -56.15    5.9862   137.78  0.058438    55.40   0.91058   -27.49
       1700    0.9019   -57.68    5.9526   136.64  0.059729    54.45   0.90529   -28.22
       1750   0.89802   -59.26    5.9304   135.48  0.061087    53.53   0.90086   -28.94
       1800   0.89427   -60.85    5.8873   134.33  0.062442    52.57   0.89679   -29.67
       1850   0.89025   -62.43    5.8494   133.19  0.063667    51.61   0.89163   -30.39
       1900   0.88688   -64.02    5.8312   132.04  0.064875    50.74   0.88708   -31.08
       1950   0.88282   -65.49    5.7799   130.97  0.066097    49.84   0.88273   -31.78
       2000   0.87875   -67.00    5.7329   129.83  0.067303    48.92   0.87788   -32.52
       2050   0.87424   -68.50    5.6969   128.75    0.0685    48.06   0.87241   -33.21
       2100   0.87058   -69.97    5.6619   127.67   0.06961    47.18   0.86763   -33.88
       2150   0.86704   -71.45    5.6298   126.66  0.070736    46.36   0.86226   -34.56
       2200   0.86294   -72.93    5.5922   125.60  0.071799    45.46   0.85713   -35.15
       2250   0.85852   -74.41    5.5582   124.50  0.072868    44.62   0.85299   -35.84
       2300    0.8548   -75.87    5.5157   123.45   0.07397    43.73   0.84844   -36.53
       2350   0.85108   -77.24    5.4587   122.50  0.075018    42.92    0.8426   -37.19
       2400   0.84724   -78.74    5.4301   121.48  0.075927    42.11   0.83632   -37.76
       2450   0.84274   -80.17    5.3992   120.46  0.076957    41.32   0.83101   -38.35
       2500   0.83837   -81.53    5.3533   119.45  0.077975    40.32   0.82641   -38.99
       2600   0.83082   -84.24    5.2753   117.53  0.079609    38.67   0.81672   -40.13
       2700   0.82323   -87.04    5.2043   115.56  0.081222    37.02   0.80702   -41.26
       2800   0.81668   -89.69    5.1307   113.63  0.082585    35.46    0.7977   -42.35
       2900    0.8088   -92.34     5.045   111.78  0.083842    33.92   0.78857   -43.41
       3000   0.80161   -94.92    4.9864   109.94  0.085058    32.55   0.77986   -44.48
       3100   0.79635   -97.41    4.9048   108.15  0.086216    31.11     0.772   -45.56
       3200   0.78974   -99.87    4.8311   106.38  0.087331    29.77   0.76274   -46.60
       3300   0.78395  -102.46    4.7688   104.63  0.088442    28.31   0.75562   -47.82
       3400   0.77698  -104.90    4.7075   102.84  0.089483    27.09   0.74733   -48.82
       3500   0.77134  -107.26    4.6353   101.14  0.090298    25.80   0.73831   -49.86
       3600   0.76526  -109.75    4.5692    99.45  0.091175    24.57   0.72948   -50.77
       3700   0.76043  -111.94    4.4973    97.79  0.092004    23.33   0.72295   -51.72
       3800   0.75394  -114.37    4.4404    96.11  0.092665    22.15   0.71346   -52.75
       3900   0.74844  -116.58    4.3798    94.51  0.093375    21.09   0.70664   -53.60
       4000   0.74278  -118.92    4.3152    92.87  0.094008    19.86   0.69817   -54.64
       4100   0.73809  -121.04    4.2487    91.32  0.094466    18.73   0.69045   -55.49
       4200   0.73343  -123.23     4.192    89.75  0.095082    17.62   0.68361   -56.37
       4300   0.72917  -125.35    4.1354    88.22  0.095517    16.56   0.67713   -57.34
       4400   0.72416  -127.57    4.0788    86.61  0.095945    15.49   0.66965   -58.24
       4500   0.72034  -129.55    4.0191    85.16   0.09623    14.51    0.6629   -59.07
       4600   0.71555  -131.67    3.9601    83.67  0.096509    13.47   0.65564   -59.91
       4700   0.71226  -133.67    3.9081    82.20  0.096725    12.48   0.64914   -60.82
       4800   0.70753  -135.81    3.8539    80.68  0.096973    11.46   0.64325   -61.76
       4900   0.70362  -137.79    3.7998    79.23  0.097189    10.49   0.63702   -62.52
       5000   0.69981  -139.74    3.7495    77.86   0.09735     9.58   0.63023   -63.28
       5200   0.69266  -143.62    3.6516    74.96  0.097477     7.77   0.61903   -65.05
       5400   0.68606  -147.36    3.5538    72.32  0.097401     6.01   0.60727   -66.58
       5600   0.67922  -151.04    3.4608    69.53  0.097257     4.32   0.59683   -68.31
       5800    0.6735  -154.58    3.3716    66.93  0.096848     2.70   0.58652   -69.82
       6000   0.66882  -158.03    3.2881    64.32  0.096453     1.20    0.5772   -71.47
       6200   0.66502  -161.37    3.2078    61.82  0.095845    -0.13   0.56844   -72.98
       6400   0.66094  -164.73    3.1308    59.30  0.095186    -1.53   0.55936   -74.63
       6600   0.65669  -168.05    3.0581    56.78  0.094504    -2.76   0.55087   -76.15
       6800   0.65379  -171.14    2.9871    54.45  0.093718    -3.83   0.54174   -77.86
       7000   0.65069  -174.18    2.9183    52.00  0.092747    -4.91   0.53389   -79.37
       7200   0.64958  -177.11    2.8597    49.74  0.092017    -5.61   0.52668   -81.00
       7400    0.6476   179.80    2.8001    47.19  0.091193    -6.75   0.51885   -82.93
       7600   0.64756   177.03    2.7468    44.94  0.090751    -7.23     0.514   -84.38
       7800   0.64334   173.74    2.6807    42.42  0.089822    -8.62   0.50223   -86.58
       8000   0.64088   171.45    2.6266    40.57   0.08748    -8.57   0.49625   -87.56
       8200   0.64241   168.34     2.578    38.00  0.087919    -9.25   0.48904   -89.84
       8400   0.64133   165.73    2.5257    35.87  0.086568    -9.54   0.48356   -91.37
       8600   0.63875   162.88    2.4675    33.55  0.085871   -10.93   0.47272   -93.48
       8800   0.63711   160.41    2.4208    31.40  0.084671   -10.78   0.46609   -94.93
       9000   0.63866   158.30    2.3791    29.49  0.083467   -10.51   0.46341   -96.66
       9200   0.63814   155.69    2.3353    27.35  0.082865   -10.90   0.45512   -98.52
       9400   0.63881   153.19    2.2938    25.07  0.081851   -11.12   0.45159  -100.54
       9600   0.64133   150.79    2.2537    23.11  0.081137   -10.72   0.44295  -102.44
       9800   0.64272   148.36    2.2215    20.99  0.080165   -10.39   0.43972  -104.02
      10000    0.6458   146.11    2.1847    18.87  0.080999    -9.77   0.43794  -106.26
      10200   0.64701   143.48    2.1465    16.60  0.080823   -10.18   0.42882  -108.76
      10400   0.64728   141.25    2.1043    14.52  0.080346   -10.27   0.42563  -110.94
      10600   0.64668   138.89    2.0694    12.50  0.079971   -10.15   0.41701  -113.16
      10800   0.64805   136.97    2.0378    10.50   0.07939    -9.68   0.41478  -115.20
      11000   0.64972   134.54    2.0095     8.55  0.079558    -9.12   0.40973  -117.38
      11200   0.65436   132.49    1.9862     6.36   0.07972    -8.36   0.40863  -120.01
      11400   0.65608   130.23     1.949     4.26  0.080099    -8.50   0.40209  -122.59
      11600    0.6578   128.02    1.9163     2.26  0.079607    -7.99     0.396  -125.28
      11800   0.66268   125.93    1.8855     0.27  0.080535    -7.33   0.39147  -127.34
      12000   0.66313   124.04    1.8643    -1.43  0.080157    -6.59   0.38572  -129.82
      12200   0.66863   121.63    1.8406    -3.73  0.082107    -5.89    0.3843  -132.21
      12400   0.66704   119.44    1.8124    -5.91  0.083178    -5.97   0.37917  -135.25
      12600   0.66647   117.41    1.7746    -7.68  0.082619    -5.14   0.37195  -137.57
      12800   0.67474   115.80    1.7615    -9.51  0.085294    -3.98   0.37001  -139.79
      13000   0.67281   113.50    1.7339   -11.56  0.085734    -4.19   0.36494  -142.72
      13200   0.67738   111.83    1.7015   -13.59  0.086963    -4.03     0.362  -145.46
      13400   0.68134   110.01    1.6874   -15.55   0.09015    -3.79     0.362  -148.80
      13600   0.68622   107.87    1.6697   -17.73  0.091381    -3.57   0.36073  -151.90
      13800   0.68613   106.09    1.6413   -19.66  0.093445    -3.66   0.35703  -155.36
      14000   0.69129   104.04    1.6247   -21.51  0.094926    -3.75   0.35432  -158.78
      14200   0.69724   102.37    1.6013   -23.59  0.096803    -3.53   0.35183  -161.83
      14400   0.69778    99.97    1.5801   -25.72  0.098624    -3.87   0.35034  -166.37
      14600   0.70271    98.29    1.5575   -27.63   0.10116    -3.49   0.34609  -168.80
      14800   0.70443    96.24    1.5356   -29.52   0.10371    -3.64   0.34537  -172.80
      15000   0.71059    94.55    1.5138   -31.48   0.10629    -4.01   0.34296  -175.73
      15200   0.71457    92.82    1.4981   -33.26   0.10928    -4.45   0.34586  -178.86
      15400   0.72443    90.88    1.4843   -35.29   0.11175    -4.98   0.34516   177.59
      15600   0.72813    89.51    1.4644   -37.27   0.11465    -5.48   0.34975   174.37
      15800   0.73408    87.39    1.4513   -39.21    0.1171    -6.24    0.3502   170.98
      16000   0.74288    85.74    1.4372   -41.54    0.1201    -7.02   0.35648   167.31
      16200   0.74787    83.74    1.4205   -43.87   0.12257    -7.71    0.3589   163.90
      16400   0.75367    81.92    1.3916   -46.06   0.12501    -8.23   0.35974   160.30
      16600   0.75492    80.13    1.3715   -47.90   0.12873    -9.22   0.36685   157.07
      16800   0.75869    78.28    1.3485   -49.66   0.13095    -9.89   0.36508   153.59
      17000   0.76011    76.50    1.3385   -51.59   0.13448   -10.95   0.37673   149.99
      17200    0.7622    74.60    1.3219   -53.66   0.13718   -11.79   0.37648   146.40
      17400   0.76623    72.34    1.3059   -56.15   0.13957   -12.96   0.38716   142.75
      17600   0.76632    70.70    1.2792   -57.87   0.14293   -13.25   0.38564   138.71
      17800   0.76788    68.93    1.2655   -59.94   0.14736   -14.70   0.39227   135.65
      18000   0.77703    67.50    1.2434   -61.98   0.15045   -16.04   0.39814   132.64
      18200   0.78105    65.24    1.2285   -64.41   0.15356   -17.40   0.40647   129.00
      18400   0.78599    63.64    1.1977   -66.63   0.15616   -18.71   0.41167   126.15
      18600   0.77967    62.16    1.1642   -68.19   0.15803   -19.62   0.42147   122.70
      18800   0.78622    60.03    1.1452   -69.94   0.16135   -20.90   0.42793   119.83
      19000   0.78468    58.78    1.1288   -71.32   0.16562   -21.75   0.43601   116.67
      19200   0.79019    57.01    1.1134   -73.21   0.17011   -23.35   0.44122   113.58
      19400   0.79352    55.66    1.0956   -74.60   0.17389   -24.76   0.44469   111.40
      19600   0.79907    54.30    1.0786   -76.43   0.17652   -27.29   0.46069   109.23
      19800   0.81813    53.21    1.0744   -78.04   0.17705   -28.45   0.47133   105.66
      20000   0.82836    50.77    1.0598   -80.41   0.17886   -29.42   0.47952   103.16